(1560454233.372347) can0 0C2#008000008003007C
(1560454233.375304) can0 729#01030100040000
(1560454233.376254) can0 0D0#880000080080
(1560454233.378224) can0 3D0#80400800006C
(1560454233.382254) can0 0C2#008000008013006C
(1560454233.386336) can0 0D0#981000080080
(1560454233.392297) can0 0C2#538000008021000B
(1560454233.396266) can0 0D0#8020000818B0
(1560454233.398293) can0 3D0#80400800006C
(1560454233.402265) can0 0C2#53800000803100FB
(1560454233.406273) can0 0D0#9030000818B0
(1560454233.412294) can0 0C2#53800000804100EB
(1560454233.416297) can0 0D0#E040000818B0
(1560454233.418224) can0 3D0#80400800006C
(1560454233.422284) can0 0C2#53800000805100DB
(1560454233.426290) can0 0D0#F050000818B0
(1560454233.432291) can0 0C2#53800000806100CB
(1560454233.436267) can0 0D0#C060000818B0
(1560454233.438291) can0 3D0#80400800006C
(1560454233.442288) can0 0C2#53800000807100BB
(1560454233.446306) can0 0D0#D070000818B0
(1560454233.452284) can0 0C2#53800000808100AB
(1560454233.456268) can0 0D0#2080000818B0
(1560454233.458289) can0 3D0#80400800006C
(1560454233.462286) can0 0C2#538000008091009B
(1560454233.466289) can0 0D0#3090000818B0
(1560454233.472289) can0 0C2#5380000080A1008B
(1560454233.476251) can0 0D0#00A0000818B0
(1560454233.478259) can0 3D0#80400800006C
(1560454233.482297) can0 0C2#5380000080B1007B
(1560454233.486254) can0 0D0#10B0000818B0
(1560454233.492277) can0 0C2#5380000080C1006B
(1560454233.496287) can0 0D0#60C0000818B0
(1560454233.498264) can0 3D0#80400800006C
(1560454233.502264) can0 0C2#5380000080D1005B
(1560454233.506226) can0 0D0#70D0000818B0
(1560454233.512252) can0 0C2#5380000080E1004B
(1560454233.516220) can0 0D0#40E0000818B0
(1560454233.518318) can0 3D0#80400800006C
(1560454233.522295) can0 0C2#5380000080F1003B
(1560454233.526305) can0 0D0#50F0000818B0
(1560454233.532319) can0 0C2#538000008001002B
(1560454233.536332) can0 0D0#A000000818B0
(1560454233.538331) can0 3D0#80400800006C
(1560454233.542325) can0 0C2#538000008011001B
(1560454233.546318) can0 0D0#B010000818B0
(1560454233.552405) can0 0C2#538000008021000B
(1560454233.556284) can0 0D0#8020000818B0
(1560454233.558298) can0 3D0#80400800006C
(1560454233.562412) can0 0C2#53800000803100FB
(1560454233.566292) can0 0D0#9030000818B0
(1560454233.572357) can0 0C2#53800000804100EB
(1560454233.575315) can0 729#01030500040000
(1560454233.576317) can0 0D0#E040000818B0
(1560454233.578317) can0 3D0#80400800006C
(1560454233.582324) can0 0C2#53800000805100DB
(1560454233.586316) can0 0D0#F450000C18B0
(1560454233.592338) can0 0C2#51800D00806100C0
(1560454233.596317) can0 0D0#C5600E0C17B0
(1560454233.598319) can0 3D0#80400800006C
(1560454233.602378) can0 0C2#4E802E0080710092
(1560454233.606291) can0 0D0#FB70210C16B0
(1560454233.612588) can0 0C2#4B804B0080810068
(1560454233.616546) can0 0D0#3A80100C16B0
(1560454233.618523) can0 3D0#00400800006C
(1560454233.622580) can0 0C2#4C800000809100A2
(1560454233.626544) can0 0D0#34900A0816B0
(1560454233.632591) can0 0C2#4C80000080A10092
(1560454233.636516) can0 0D0#13A01D0816B0
(1560454233.638584) can0 3D0#00400800006C
(1560454233.642593) can0 0C2#4C80020080B10080
(1560454233.646561) can0 0D0#3FB0210816B0
(1560454233.652604) can0 0C2#4C80020080C10070
(1560454233.656563) can0 0D0#79C0170816B0
(1560454233.658689) can0 3D0#00400800006C
(1560454233.662599) can0 0C2#4C80020080D10060
(1560454233.666674) can0 0D0#7CD0020816B0
(1560454233.672584) can0 0C2#4C80000080E10052
(1560454233.676524) can0 0D0#58E0120C16B0
(1560454233.678651) can0 3D0#00400800006C
(1560454233.682577) can0 0C2#4C80000080F10042
(1560454233.686491) can0 0D0#46F01C0C16B0
(1560454233.692592) can0 0C2#4C800280800100B0
(1560454233.696553) can0 0D0#B6001C0C16B0
(1560454233.698695) can0 3D0#00400800006C
(1560454233.702579) can0 0C2#4C800280801100A0
(1560454233.706563) can0 0D0#B7100D0C16B0
(1560454233.712241) can0 0C2#4C80000080210012
(1560454233.716270) can0 0D0#8A20040816B0
(1560454233.718269) can0 3D0#80400800006C
(1560454233.722281) can0 0C2#4C80000080310002
(1560454233.726270) can0 0D0#8C30120816B0
(1560454233.732295) can0 0C2#4C800000804100F2
(1560454233.736188) can0 0D0#F840160816B0
(1560454233.738270) can0 3D0#80400800006C
(1560454233.742327) can0 0C2#4C800000805100E2
(1560454233.746219) can0 0D0#EE50100816B0
(1560454233.752207) can0 0C2#4C800000806100D2
(1560454233.756210) can0 0D0#CE60000816B0
(1560454233.758216) can0 3D0#80400800006C
(1560454233.762223) can0 0C2#4C800000807100C2
(1560454233.766221) can0 0D0#D7700D0C16B0
(1560454233.772239) can0 0C2#4C80028080810030
(1560454233.775603) can0 729#01030500040000
(1560454233.776231) can0 0D0#3880120C16B0
(1560454233.778191) can0 3D0#80400800006C
(1560454233.782267) can0 0C2#4C800000809100A2
(1560454233.786195) can0 0D0#2890120C16B0
(1560454233.792219) can0 0C2#4C80028080A10010
(1560454233.796185) can0 0D0#00A00A0C16B0
(1560454233.798187) can0 3D0#80400800006C
(1560454233.802189) can0 0C2#4C80000080B10082
(1560454233.806190) can0 0D0#1AB0000C16B0
(1560454233.812188) can0 0C2#4C80000080C10072
(1560454233.816255) can0 0D0#6BC0050816B0
(1560454233.818243) can0 3D0#80400800006C
(1560454233.822220) can0 0C2#4C80000080D10062
(1560454233.826232) can0 0D0#78D0060816B0
(1560454233.832306) can0 0C2#4C80000080E10052
(1560454233.836300) can0 0D0#4DE0030816B0
(1560454233.838301) can0 3D0#80400800006C
(1560454233.842316) can0 0C2#4C80000080F10042
(1560454233.846328) can0 0D0#59F0030C16B0
(1560454233.852376) can0 0C2#4C80000080010032
(1560454233.856251) can0 0D0#A0000A0C16B0
(1560454233.858248) can0 3D0#80400800006C
(1560454233.862335) can0 0C2#4C80000080110022
(1560454233.866267) can0 0D0#B6100C0C16B0
(1560454233.872485) can0 0C2#4C80000080210012
(1560454233.876230) can0 0D0#86200C0C16B0
(1560454233.878270) can0 3D0#80410800006C
(1560454233.882277) can0 0C2#4C80000080310002
(1560454233.886194) can0 0D0#9C30060C16B0
(1560454233.892283) can0 0C2#4C800000804100F2
(1560454233.896343) can0 0D0#EB40010C16B0
(1560454233.898223) can0 3D0#80410800006C
(1560454233.902413) can0 0C2#4C800000805100E2
(1560454233.906258) can0 0D0#FF50010816B0
(1560454233.912263) can0 0C2#4C800000806100D2
(1560454233.916190) can0 0D0#CF60010816B0
(1560454233.918303) can0 3D0#80410800006C
(1560454233.922226) can0 0C2#4C800000807100C2
(1560454233.926195) can0 0D0#DE70000816B0
(1560454233.932452) can0 0C2#4C800000808100B2
(1560454233.936239) can0 0D0#2980030C16B0
(1560454233.938224) can0 3D0#80410800006C
(1560454233.942233) can0 0C2#4C800000809100A2
(1560454233.946262) can0 0D0#3E90040C16B0
(1560454233.952278) can0 0C2#4C80000080A10092
(1560454233.956248) can0 0D0#0FA0050C16B0
(1560454233.958238) can0 3D0#80410800006C
(1560454233.962433) can0 0C2#4C80000080B10082
(1560454233.966247) can0 0D0#19B0030C16B0
(1560454233.972305) can0 0C2#4C80000080C10072
(1560454233.975413) can0 729#01030500040000
(1560454233.976296) can0 0D0#6AC0000C16B0
(1560454233.978252) can0 3D0#80410800006C
(1560454233.982228) can0 0C2#4C80000080D10062
(1560454233.986250) can0 0D0#7ED0000816B0
(1560454233.992448) can0 0C2#4C80000080E10052
(1560454233.996376) can0 0D0#4EE0000816B0
(1560454233.998234) can0 3D0#80410800006C
(1560454234.002281) can0 0C2#4C80000080F10042
(1560454234.006232) can0 0D0#5EF0000816B0
(1560454234.012241) can0 0C2#4C80000080010032
(1560454234.016288) can0 0D0#AA00000C16B0
(1560454234.018227) can0 3D0#80410800006C
(1560454234.022252) can0 0C2#4C80000080110022
(1560454234.026226) can0 0D0#BB10010C16B0
(1560454234.032284) can0 0C2#4C80000080210012
(1560454234.036223) can0 0D0#8820020C16B0
(1560454234.038225) can0 3D0#80410800006C
(1560454234.042314) can0 0C2#4C80000080310002
(1560454234.046598) can0 0D0#9830020C16B0
(1560454234.052604) can0 0C2#4C800000804100F2
(1560454234.056491) can0 0D0#EB40010C16B0
(1560454234.058922) can0 3D0#00410800006C
(1560454234.062554) can0 0C2#4C800000805100E2
(1560454234.066566) can0 0D0#FB50010C16B0
(1560454234.072592) can0 0C2#4C800000806100D2
(1560454234.076562) can0 0D0#CA60000C16B0
(1560454234.078941) can0 3D0#00410800006C
(1560454234.082520) can0 0C2#4C800000807100C2
(1560454234.086518) can0 0D0#DA70000C16B0
(1560454234.092566) can0 0C2#4C800000808100B2
(1560454234.096239) can0 0D0#2A80000C16B0
(1560454234.098210) can0 3D0#80410800006C
(1560454234.102343) can0 0C2#4C800000809100A2
(1560454234.106187) can0 0D0#3B90010C16B0
(1560454234.112286) can0 0C2#4C80000080A10092
(1560454234.116201) can0 0D0#0BA0010C16B0
(1560454234.118269) can0 3D0#80410800006C
(1560454234.122286) can0 0C2#4C80000080B10082
(1560454234.126252) can0 0D0#1BB0010C16B0
(1560454234.132280) can0 0C2#4C80000080C10072
(1560454234.136276) can0 0D0#6BC0010C16B0
(1560454234.138237) can0 3D0#80410800006C
(1560454234.142275) can0 0C2#4C80000080D10062
(1560454234.146328) can0 0D0#7AD0000C16B0
(1560454234.152279) can0 0C2#4C80000080E10052
(1560454234.156246) can0 0D0#4AE0000C16B0
(1560454234.158241) can0 3D0#80410800006C
(1560454234.162281) can0 0C2#4C80000080F10042
(1560454234.166259) can0 0D0#5AF0000C16B0
(1560454234.172284) can0 0C2#4C80000080010032
(1560454234.175340) can0 729#01030500040000
(1560454234.176308) can0 0D0#AA00000C16B0
(1560454234.178261) can0 3D0#80410800006C
(1560454234.182312) can0 0C2#4C80000080110022
(1560454234.186564) can0 0D0#BA10000C16B0
(1560454234.192603) can0 0C2#4C80000080210012
(1560454234.196489) can0 0D0#8A20000C16B0
(1560454234.198939) can0 3D0#00410800006C
(1560454234.202560) can0 0C2#4C80000080310002
(1560454234.206537) can0 0D0#9A30000C16B0
(1560454234.212591) can0 0C2#4C800000804100F2
(1560454234.216549) can0 0D0#EA40000C16B0
(1560454234.218884) can0 3D0#00410800006C
(1560454234.222589) can0 0C2#4C800000805100E2
(1560454234.226546) can0 0D0#FA50000C16B0
(1560454234.232597) can0 0C2#4C800000806100D2
(1560454234.236563) can0 0D0#CA60000C16B0
(1560454234.238905) can0 3D0#00410800006C
(1560454234.242584) can0 0C2#4C800000807100C2
(1560454234.246556) can0 0D0#DA70000C16B0
(1560454234.252611) can0 0C2#4C800000808100B2
(1560454234.256494) can0 0D0#2A80000C16B0
(1560454234.258262) can0 3D0#80410800006C
(1560454234.262276) can0 0C2#4C800000809100A2
(1560454234.266547) can0 0D0#3A90000C16B0
(1560454234.272611) can0 0C2#4C80000080A10092
(1560454234.276548) can0 0D0#0AA0000C16B0
(1560454234.278889) can0 3D0#00410800006C
(1560454234.282616) can0 0C2#4C80000080B10082
(1560454234.286554) can0 0D0#1BB0010C16B0
(1560454234.292765) can0 0C2#4C80000080C10072
(1560454234.296552) can0 0D0#6BC0010C16B0
(1560454234.298859) can0 3D0#00410800006C
(1560454234.302581) can0 0C2#4C80000080D10062
(1560454234.306512) can0 0D0#7BD0010C16B0
(1560454234.312604) can0 0C2#4C80000080E10052
(1560454234.316559) can0 0D0#4BE0010C16B0
(1560454234.318925) can0 3D0#00410800006C
(1560454234.322559) can0 0C2#4C80000080F10042
(1560454234.326539) can0 0D0#5AF0000C16B0
(1560454234.332557) can0 0C2#4C80000080010032
(1560454234.336599) can0 0D0#AA00000C16B0
(1560454234.338921) can0 3D0#00410800006C
(1560454234.342593) can0 0C2#4C80000080110022
(1560454234.346495) can0 0D0#BA10000C16B0
(1560454234.352555) can0 0C2#4C80000080210012
(1560454234.356554) can0 0D0#8A20000C16B0
(1560454234.358894) can0 3D0#00410800006C
(1560454234.362577) can0 0C2#4C80000080310002
(1560454234.366552) can0 0D0#9A30000C16B0
(1560454234.372565) can0 0C2#4C800000804100F2
(1560454234.375602) can0 729#01030500040000
(1560454234.376578) can0 0D0#EA40000C16B0
(1560454234.378919) can0 3D0#00410800006C
(1560454234.382608) can0 0C2#4C800000805100E2
(1560454234.386548) can0 0D0#FA50000C16B0
(1560454234.392553) can0 0C2#4C800000806100D2
(1560454234.396572) can0 0D0#CA60000C16B0
(1560454234.398908) can0 3D0#00410800006C
(1560454234.402616) can0 0C2#4C800000807100C2
(1560454234.406527) can0 0D0#DA70000C16B0
(1560454234.412578) can0 0C2#4C800000808100B2
(1560454234.416562) can0 0D0#2A80000C16B0
(1560454234.418960) can0 3D0#00410800006C
(1560454234.422603) can0 0C2#4C800000809100A2
(1560454234.426583) can0 0D0#3A90000C16B0
(1560454234.432601) can0 0C2#4C80000080A10092
(1560454234.436498) can0 0D0#0AA0000C16B0
(1560454234.438937) can0 3D0#00410800006C
(1560454234.442581) can0 0C2#4C80000080B10082
(1560454234.446499) can0 0D0#1AB0000C16B0
(1560454234.452593) can0 0C2#4C80000080C10072
(1560454234.456496) can0 0D0#6AC0000C16B0
(1560454234.458868) can0 3D0#00410800006C
(1560454234.462569) can0 0C2#4C80000080D10062
(1560454234.466522) can0 0D0#7AD0000C16B0
(1560454234.472570) can0 0C2#4C80000080E10052
(1560454234.476562) can0 0D0#4AE0000C16B0
(1560454234.478904) can0 3D0#00410800006C
(1560454234.482643) can0 0C2#4C80000080F10042
(1560454234.486570) can0 0D0#5AF0000C16B0
(1560454234.492586) can0 0C2#4C80000080010032
(1560454234.496495) can0 0D0#AB00010C16B0
(1560454234.498866) can0 3D0#00410800016C
(1560454234.502594) can0 0C2#4C80000080110022
(1560454234.506541) can0 0D0#BB10010C16B0
(1560454234.512526) can0 0C2#4C80000080210012
(1560454234.516523) can0 0D0#8B20010C16B0
(1560454234.518886) can0 3D0#00410800096C
(1560454234.522564) can0 0C2#4C80000080310002
(1560454234.526581) can0 0D0#9B30010C16B0
(1560454234.532550) can0 0C2#4C800000804100F2
(1560454234.536595) can0 0D0#EA40000C16B0
(1560454234.538938) can0 3D0#00410800116C
(1560454234.542587) can0 0C2#4C800200805100E0
(1560454234.546534) can0 0D0#FA50000C16B0
(1560454234.552591) can0 0C2#4C800000806100D2
(1560454234.556567) can0 0D0#CB60010C16B0
(1560454234.558567) can0 3D0#00410800196C
(1560454234.562584) can0 0C2#4C800000807100C2
(1560454234.566525) can0 0D0#DB70010C16B0
(1560454234.572601) can0 0C2#4C800000808100B2
(1560454234.575546) can0 729#01035500040000
(1560454234.576525) can0 0D0#2A80000C16B0
(1560454234.578890) can0 3D0#00410800216C
(1560454234.582570) can0 0C2#4C800000809100A2
(1560454234.586519) can0 0D0#3A90000C16B0
(1560454234.592604) can0 0C2#4C80000080A10092
(1560454234.596535) can0 0D0#0AA0000C16B0
(1560454234.598907) can0 3D0#00410800296C
(1560454234.602576) can0 0C2#4C80020080B10080
(1560454234.606561) can0 0D0#1AB0000C16B0
(1560454234.612579) can0 0C2#4C80020080C10070
(1560454234.616554) can0 0D0#6BC0010C16B0
(1560454234.618505) can0 3D0#00410800326C
(1560454234.622539) can0 0C2#4C80020080D10060
(1560454234.626526) can0 0D0#7BD0010C16B0
(1560454234.632540) can0 0C2#4C80000080E10052
(1560454234.636521) can0 0D0#4BE0010C16B0
(1560454234.638889) can0 3D0#00410800396C
(1560454234.642558) can0 0C2#4C80000080F10042
(1560454234.646489) can0 0D0#5BF0010C16B0
(1560454234.652602) can0 0C2#4C80000080010032
(1560454234.656578) can0 0D0#AB00010C16B0
(1560454234.658923) can0 3D0#00410800416C
(1560454234.662610) can0 0C2#4C80000080110022
(1560454234.666527) can0 0D0#BB10010C16B0
(1560454234.672603) can0 0C2#4C80000080210012
(1560454234.676562) can0 0D0#8B20010C16B0
(1560454234.678560) can0 3D0#00410800496C
(1560454234.682591) can0 0C2#4C80000080310002
(1560454234.686598) can0 0D0#9B30010C16B0
(1560454234.692610) can0 0C2#4C800200804100F0
(1560454234.696538) can0 0D0#EB40010C16B0
(1560454234.698924) can0 3D0#00410800516C
(1560454234.702537) can0 0C2#4C800200805100E0
(1560454234.706519) can0 0D0#FB50010C16B0
(1560454234.712592) can0 0C2#4C800200806100D0
(1560454234.716546) can0 0D0#CB60010C16B0
(1560454234.718928) can0 3D0#00410800596C
(1560454234.722561) can0 0C2#4C800200807100C0
(1560454234.726508) can0 0D0#DB70010C16B0
(1560454234.732556) can0 0C2#4C800000808100B2
(1560454234.736533) can0 0D0#2B80010C16B0
(1560454234.738900) can0 3D0#00410800616C
(1560454234.742580) can0 0C2#4C800200809100A0
(1560454234.746537) can0 0D0#3B90010C16B0
(1560454234.752579) can0 0C2#4C80020080A10090
(1560454234.756567) can0 0D0#0BA0010C16B0
(1560454234.758905) can0 3D0#00410800696C
(1560454234.762575) can0 0C2#4C80000080B10082
(1560454234.766552) can0 0D0#1BB0010C16B0
(1560454234.772587) can0 0C2#4C80000080C10072
(1560454234.775548) can0 729#01035500040000
(1560454234.776548) can0 0D0#6BC0010C16B0
(1560454234.778924) can0 3D0#00410800716C
(1560454234.782578) can0 0C2#4C80000080D10062
(1560454234.786556) can0 0D0#7BD0010C16B0
(1560454234.792576) can0 0C2#4C80020080E10050
(1560454234.796574) can0 0D0#4EE0000816B0
(1560454234.798913) can0 3D0#00410800796C
(1560454234.802569) can0 0C2#4C80000080F10042
(1560454234.806533) can0 0D0#5EF0000816B0
(1560454234.812567) can0 0C2#4C80000080010032
(1560454234.816524) can0 0D0#AE00000816B0
(1560454234.818843) can0 3D0#00410800816C
(1560454234.822553) can0 0C2#4C80020080110020
(1560454234.826497) can0 0D0#BE10000816B0
(1560454234.832529) can0 0C2#4C80000080210012
(1560454234.836547) can0 0D0#8E20000816B0
(1560454234.838867) can0 3D0#00410800896C
(1560454234.842592) can0 0C2#4C80000080310002
(1560454234.846501) can0 0D0#9D30030816B0
(1560454234.852567) can0 0C2#4C800000804100F2
(1560454234.856496) can0 0D0#E740090816B0
(1560454234.858841) can0 3D0#00410800916C
(1560454234.862528) can0 0C2#4C800200805100E0
(1560454234.866493) can0 0D0#EC50120816B0
(1560454234.872519) can0 0C2#4C800200806100D0
(1560454234.876540) can0 0D0#D0601E0816B0
(1560454234.878877) can0 3D0#00410800996C
(1560454234.882522) can0 0C2#4C800400807100BE
(1560454234.886495) can0 0D0#F670280816B0
(1560454234.892530) can0 0C2#4A801400808100A0
(1560454234.896492) can0 0D0#00802D0815B0
(1560454234.898837) can0 3D0#00410800A16C
(1560454234.902494) can0 0C2#47802C008091007B
(1560454234.906493) can0 0D0#0D90310814B0
(1560454234.912495) can0 0C2#4380530080A10048
(1560454234.916525) can0 0D0#3EA0350813B0
(1560454234.918864) can0 3D0#00410800A96C
(1560454234.922522) can0 0C2#3D808C0080B10005
(1560454234.926500) can0 0D0#23B03A0811B0
(1560454234.932521) can0 0C2#3580DD0080C100AC
(1560454234.936510) can0 0D0#36C040080EB0
(1560454234.938877) can0 3D0#00410800B16C
(1560454234.942498) can0 0C2#2B80420180D10040
(1560454234.946509) can0 0D0#25D046080BB0
(1560454234.952521) can0 0C2#1E80C20180E100BD
(1560454234.956493) can0 0D0#16E0490807B0
(1560454234.958848) can0 3D0#00410800B96C
(1560454234.962537) can0 0C2#0E80550280F10029
(1560454234.966490) can0 0D0#00F04A0802B0
(1560454234.972532) can0 0C2#02000203800100F7
(1560454234.975591) can0 729#01035500040000
(1560454234.976526) can0 0D0#F800520802A0
(1560454234.978906) can0 3D0#01410800C16C
(1560454234.982528) can0 0C2#1600C30380110012
(1560454234.986493) can0 0D0#E910580809A0
(1560454234.992519) can0 0C2#2D00970480210016
(1560454234.996495) can0 0D0#C3205B0810A0
(1560454234.998615) can0 3D0#01410800C86C
(1560454235.002521) can0 0C2#47007C0580310006
(1560454235.006498) can0 0D0#EF30600817A0
(1560454235.012550) can0 0C2#63006906804100EC
(1560454235.016590) can0 0D0#A040680820A0
(1560454235.019014) can0 3D0#02410800C86C
(1560454235.022600) can0 0C2#80005607805100D1
(1560454235.026580) can0 0D0#BE506E0828A0
(1560454235.032621) can0 0C2#A0004108806100B5
(1560454235.036544) can0 0D0#8960730832A0
(1560454235.038942) can0 3D0#03410800C86C
(1560454235.042599) can0 0C2#C1002C0980710098
(1560454235.046576) can0 0D0#9D7079083CA0
(1560454235.052608) can0 0C2#E500100A8081007F
(1560454235.056574) can0 0D0#15807A0847A0
(1560454235.058955) can0 3D0#03410800C86C
(1560454235.062605) can0 0C2#0B01EF0A80910069
(1560454235.066545) can0 0D0#15907F0852A0
(1560454235.072575) can0 0C2#3101C70B80A1005A
(1560454235.076527) can0 0D0#D0A085085DA0
(1560454235.078933) can0 3D0#05410800C86C
(1560454235.082582) can0 0C2#5C01A20C80B10043
(1560454235.086559) can0 0D0#F5B087086AA0
(1560454235.092585) can0 0C2#8601740D80C10036
(1560454235.096578) can0 0D0#96C0890877A0
(1560454235.098943) can0 3D0#06410800C86C
(1560454235.102553) can0 0C2#B3012E0E80D1003E
(1560454235.106502) can0 0D0#6ED0920884A0
(1560454235.112606) can0 0C2#E101DD0E80E10051
(1560454235.116559) can0 0D0#4FE0960891A0
(1560454235.118944) can0 3D0#07410800C86C
(1560454235.122589) can0 0C2#0F028D0F80F10061
(1560454235.126532) can0 0D0#51F096089FA0
(1560454235.132607) can0 0C2#40022F108001007D
(1560454235.136552) can0 0D0#98009D08ADA0
(1560454235.138971) can0 3D0#08410800C86C
(1560454235.142700) can0 0C2#6F02C310801100AA
(1560454235.146570) can0 0D0#9B109F08BCA0
(1560454235.152606) can0 0C2#A3025A11802100CE
(1560454235.156577) can0 0D0#D3209108CAA0
(1560454235.158938) can0 3D0#07410800C86C
(1560454235.162598) can0 0C2#D802F011803100F3
(1560454235.166521) can0 0D0#CC308E08DAA0
(1560454235.172599) can0 0C2#08035F1280410042
(1560454235.175579) can0 729#01035500040000
(1560454235.176597) can0 0D0#96409608E8A0
(1560454235.178944) can0 3D0#08410800C86C
(1560454235.182585) can0 0C2#3C03C0128051009D
(1560454235.186562) can0 0D0#9D509208F7A0
(1560454235.192605) can0 0C2#7103101380610007
(1560454235.196535) can0 0D0#5E60910806A1
(1560454235.198953) can0 3D0#07410800C86C
(1560454235.202557) can0 0C2#A30359138071007C
(1560454235.206501) can0 0D0#5470980815A1
(1560454235.212594) can0 0C2#D8039E13808100F2
(1560454235.216582) can0 0D0#9F80930825A1
(1560454235.218888) can0 3D0#07410800C86C
(1560454235.222729) can0 0C2#0C04E31380910068
(1560454235.226560) can0 0D0#9D90910835A1
(1560454235.232576) can0 0C2#4204161480A100EE
(1560454235.236568) can0 0D0#DAA0970844A1
(1560454235.238572) can0 3D0#08410800C86C
(1560454235.242593) can0 0C2#7A04511480B1006B
(1560454235.246506) can0 0D0#DCB0910854A1
(1560454235.252598) can0 0C2#AF047F1480C100F8
(1560454235.256500) can0 0D0#9DC0900864A1
(1560454235.258954) can0 3D0#07410800C86C
(1560454235.262621) can0 0C2#E704921480D1009D
(1560454235.266550) can0 0D0#99D0940874A1
(1560454235.272576) can0 0C2#1C05CA1480E1001F
(1560454235.276535) can0 0D0#59E0940884A1
(1560454235.278922) can0 3D0#08410800C86C
(1560454235.282607) can0 0C2#5405F01480F100B1
(1560454235.286531) can0 0D0#5BF0960894A1
(1560454235.292539) can0 0C2#8E051B158001003B
(1560454235.296601) can0 0D0#9F009308A5A1
(1560454235.298994) can0 3D0#08410800C86C
(1560454235.302606) can0 0C2#C6055A15801100B4
(1560454235.306601) can0 0D0#99109508B5A1
(1560454235.312629) can0 0C2#FF0588158021003D
(1560454235.316572) can0 0D0#D2209D08C6A1
(1560454235.318939) can0 3D0#09410800C86C
(1560454235.322534) can0 0C2#3A06C215803100B7
(1560454235.326504) can0 0D0#D5309408D8A1
(1560454235.332603) can0 0C2#77060F168041001C
(1560454235.336577) can0 0D0#97409708E9A1
(1560454235.338989) can0 3D0#09410800C86C
(1560454235.342625) can0 0C2#B506461680510097
(1560454235.346536) can0 0D0#99509B08FBA1
(1560454235.352590) can0 0C2#F2069416806100FC
(1560454235.356617) can0 0D0#506097080DA2
(1560454235.358583) can0 3D0#09410800C86C
(1560454235.362550) can0 0C2#3107E6168071005A
(1560454235.366531) can0 0D0#61709B0820A2
(1560454235.372621) can0 0C2#6F073817808100B9
(1560454235.375601) can0 729#01035500040000
(1560454235.376578) can0 0D0#82809B0833A2
(1560454235.378944) can0 3D0#0A410800C86C
(1560454235.382564) can0 0C2#B107971780910008
(1560454235.386525) can0 0D0#E1909E0845A2
(1560454235.392534) can0 0C2#F507FA1780A10051
(1560454235.396522) can0 0D0#C5A0960859A2
(1560454235.398960) can0 3D0#09410800C86C
(1560454235.402599) can0 0C2#36085D1880B1009B
(1560454235.406576) can0 0D0#EBB09C086DA2
(1560454235.412570) can0 0C2#7908BB1880C100EA
(1560454235.416584) can0 0D0#74C09E0880A2
(1560454235.418957) can0 3D0#0A410800C86C
(1560454235.422579) can0 0C2#C008211980D1002C
(1560454235.426503) can0 0D0#73D09C0895A2
(1560454235.432592) can0 0C2#0309741980E10085
(1560454235.436552) can0 0D0#7DE09E08A9A2
(1560454235.438947) can0 3D0#0B410800C86C
(1560454235.442640) can0 0C2#4B09E01980F100C1
(1560454235.446562) can0 0D0#7BF09F08BEA2
(1560454235.452613) can0 0C2#9009301A8001001B
(1560454235.456574) can0 0D0#E4009D08D3A2
(1560454235.458944) can0 3D0#0A410800C86C
(1560454235.462607) can0 0C2#DB099E1A80110052
(1560454235.466569) can0 0D0#C5109708E8A2
(1560454235.472569) can0 0C2#230AE21A802100B5
(1560454235.476598) can0 0D0#E8209F08FDA2
(1560454235.478961) can0 3D0#0B410800C86C
(1560454235.482573) can0 0C2#690A311B8031000F
(1560454235.486580) can0 0D0#11309B0811A3
(1560454235.492575) can0 0C2#B10A641B80410084
(1560454235.496571) can0 0D0#6D40A00826A3
(1560454235.498953) can0 3D0#0B410800C86C
(1560454235.502604) can0 0C2#F80A9B1B805100F6
(1560454235.506534) can0 0D0#5A509D083CA3
(1560454235.512573) can0 0C2#410BD41B80610063
(1560454235.516537) can0 0D0#04609F0850A3
(1560454235.518957) can0 3D0#0B410800C86C
(1560454235.522581) can0 0C2#8B0BF21B807100EB
(1560454235.526499) can0 0D0#2470990866A3
(1560454235.532597) can0 0C2#D00B0B1C8081007C
(1560454235.536577) can0 0D0#F080A1087AA3
(1560454235.538946) can0 3D0#0B410800C86C
(1560454235.542650) can0 0C2#1A0C181C80910014
(1560454235.546544) can0 0D0#37909C0890A3
(1560454235.552616) can0 0C2#600C211C80A100B5
(1560454235.556578) can0 0D0#30A09E08A5A3
(1560454235.558942) can0 3D0#0B410800C86C
(1560454235.562603) can0 0C2#A90C121C80B1006B
(1560454235.566538) can0 0D0#3CB09E08B9A3
(1560454235.572607) can0 0C2#F20C1D1C80C10007
(1560454235.575571) can0 729#01035500040000
(1560454235.576543) can0 0D0#04C0A108CEA3
(1560454235.578587) can0 3D0#0B410800C86C
(1560454235.582588) can0 0C2#380D1D1C80D100B0
(1560454235.586552) can0 0D0#00D09808E3A3
(1560454235.592605) can0 0C2#810D201C80E10054
(1560454235.596503) can0 0D0#12E0A108F8A3
(1560454235.598949) can0 3D0#0B410800C86C
(1560454235.602566) can0 0C2#C50D011C80F1001F
(1560454235.606561) can0 0D0#CEF09F080DA4
(1560454235.612610) can0 0C2#0C0EF41B800100D5
(1560454235.616582) can0 0D0#17009B0820A4
(1560454235.618894) can0 3D0#0B410800C86C
(1560454235.622607) can0 0C2#520EC91B801100AA
(1560454235.626580) can0 0D0#15109C0835A4
(1560454235.632611) can0 0C2#940EA71B8021007A
(1560454235.636524) can0 0D0#5B209E0849A4
(1560454235.638935) can0 3D0#0B410800C86C
(1560454235.642560) can0 0C2#D70E6C1B80310062
(1560454235.646550) can0 0D0#5D309A085BA4
(1560454235.652564) can0 0C2#1B0F371B80410042
(1560454235.656580) can0 0D0#104093086FA4
(1560454235.658943) can0 3D0#09410800C86C
(1560454235.662586) can0 0C2#570FDA1A80510054
(1560454235.666537) can0 0D0#E0509C0880A4
(1560454235.672581) can0 0C2#960F791A80610066
(1560454235.676570) can0 0D0#C760990892A4
(1560454235.678907) can0 3D0#09410800C86C
(1560454235.682544) can0 0C2#D10F061A8071008E
(1560454235.686521) can0 0D0#E3709B08A4A4
(1560454235.692594) can0 0C2#0D108819808100C0
(1560454235.696533) can0 0D0#00809908B5A4
(1560454235.698951) can0 3D0#09410800C86C
(1560454235.702558) can0 0C2#48101419809100E9
(1560454235.706555) can0 0D0#60909A08C6A4
(1560454235.712607) can0 0C2#7E10811880A10037
(1560454235.716535) can0 0D0#7AA0A008D6A4
(1560454235.718941) can0 3D0#09410800C86C
(1560454235.722573) can0 0C2#B810111880B1005D
(1560454235.726552) can0 0D0#6DB09708E6A4
(1560454235.732623) can0 0C2#EE10941780C10095
(1560454235.736577) can0 0D0#07C09C08F7A4
(1560454235.738942) can0 3D0#09410800C86C
(1560454235.742592) can0 0C2#25111A1780D100C7
(1560454235.746534) can0 0D0#E5D09E0806A5
(1560454235.752594) can0 0C2#5C11A01680E100FB
(1560454235.756508) can0 0D0#C5E09E0816A5
(1560454235.758932) can0 3D0#09410800C86C
(1560454235.762573) can0 0C2#90114B1680F1000C
(1560454235.766577) can0 0D0#E6F09E0825A5
(1560454235.772599) can0 0C2#C711F3158001001E
(1560454235.775559) can0 729#01035500040000
(1560454235.776536) can0 0D0#06009E0835A5
(1560454235.778921) can0 3D0#09410800C86C
(1560454235.782578) can0 0C2#FB11AC1580110021
(1560454235.786499) can0 0D0#64109C0845A5
(1560454235.792558) can0 0C2#30126C158021001B
(1560454235.796562) can0 0D0#7B20A20854A5
(1560454235.798917) can0 3D0#09410800C86C
(1560454235.802542) can0 0C2#6612391580310008
(1560454235.806544) can0 0D0#6030990864A5
(1560454235.812620) can0 0C2#99121615804100E8
(1560454235.816569) can0 0D0#0640990872A5
(1560454235.818956) can0 3D0#09410800C86C
(1560454235.822544) can0 0C2#CC12D314805100E9
(1560454235.826546) can0 0D0#E3509F0881A5
(1560454235.832585) can0 0C2#FD12A014806100DB
(1560454235.836555) can0 0D0#C1609C0890A5
(1560454235.838963) can0 3D0#08410800C86C
(1560454235.842608) can0 0C2#30137814807100BF
(1560454235.846599) can0 0D0#DA7099089EA5
(1560454235.852654) can0 0C2#60133214808100C5
(1560454235.856569) can0 0D0#1D809C08ACA5
(1560454235.858955) can0 3D0#08410800C86C
(1560454235.862587) can0 0C2#8E13ED13809100CD
(1560454235.866548) can0 0D0#1F909808BAA5
(1560454235.872606) can0 0C2#BC13A01380A100DC
(1560454235.876546) can0 0D0#5EA09508C6A5
(1560454235.878929) can0 3D0#07400800C86C
(1560454235.882562) can0 0C2#E713321380B1000F
(1560454235.886532) can0 0D0#55B09B08D3A5
(1560454235.892579) can0 0C2#0F14C61280C10043
(1560454235.896563) can0 0D0#22C09108DEA5
(1560454235.898984) can0 3D0#07400800C86C
(1560454235.902604) can0 0C2#37143F1280D10092
(1560454235.906525) can0 0D0#1BD08F08E9A5
(1560454235.912600) can0 0C2#5A14991180E10006
(1560454235.916591) can0 0D0#2EE09008F3A5
(1560454235.918972) can0 3D0#06400800C86C
(1560454235.922639) can0 0C2#7A14E31080F1008D
(1560454235.926538) can0 0D0#30F09108FCA5
(1560454235.932589) can0 0C2#98140F1080010033
(1560454235.936580) can0 0D0#21008B0804A6
(1560454235.938951) can0 3D0#05400800C86C
(1560454235.942662) can0 0C2#AE14100F8011000D
(1560454235.946587) can0 0D0#38108C080AA6
(1560454235.952581) can0 0C2#C114F10D8021000B
(1560454235.956525) can0 0D0#0C208D080FA6
(1560454235.958972) can0 3D0#04400800C86C
(1560454235.962603) can0 0C2#CF14AA0C80310035
(1560454235.966536) can0 0D0#0A30870813A6
(1560454235.972602) can0 0C2#D8143F0B80410088
(1560454235.975778) can0 729#01035500040000
(1560454235.976564) can0 0D0#7940830814A6
(1560454235.978951) can0 3D0#02400800C86C
(1560454235.982557) can0 0C2#D914AC098051000C
(1560454235.986555) can0 0D0#6850830815A6
(1560454235.992565) can0 0C2#D9140000806100B1
(1560454235.996525) can0 0D0#BB60610814A6
(1560454235.998941) can0 3D0#00400800C86C
(1560454236.002595) can0 0C2#D714108080710013
(1560454236.006535) can0 0D0#8A70470813A6
(1560454236.012601) can0 0C2#CE146380808100B9
(1560454236.016592) can0 0D0#7A80440810A6
(1560454236.018965) can0 3D0#00400800C86C
(1560454236.022574) can0 0C2#C014ED808091002D
(1560454236.026543) can0 0D0#79904C080BA6
(1560454236.032616) can0 0C2#B014858180A10094
(1560454236.036556) can0 0D0#48A0410807A6
(1560454236.038967) can0 3D0#00400800C86C
(1560454236.042594) can0 0C2#9F14348280B100E5
(1560454236.046572) can0 0D0#2CB0330801A6
(1560454236.052555) can0 0C2#8914088380C10016
(1560454236.056544) can0 0D0#A5C03208FAA5
(1560454236.058941) can0 3D0#00400800C86C
(1560454236.062554) can0 0C2#7014088480D1001E
(1560454236.066528) can0 0D0#BDD03208F2A5
(1560454236.072555) can0 0C2#5314238580E1000F
(1560454236.076554) can0 0D0#8BE02C08EAA5
(1560454236.078952) can0 3D0#00400800C86C
(1560454236.082615) can0 0C2#3414518680F100EF
(1560454236.086596) can0 0D0#9CF02008E1A5
(1560454236.092599) can0 0C2#14149887800100B7
(1560454236.096594) can0 0D0#6F001408D6A5
(1560454236.098996) can0 3D0#00400800C86C
