(1560454233.212874) can0 728#01090400040000
(1560454233.213141) can0 392#0000008000000000
(1560454233.213454) can0 470#400300000000001F
(1560454233.213566) can0 570#01009C0000
(1560454233.213918) can0 5DC#7D00B00108000040
(1560454233.214220) can0 64F#0000000000000000
(1560454233.214493) can0 7D0#DD861D0100F0FFDF
(1560454233.219773) can0 70E#021003AAAAAAAAAA
(1560454233.220578) can0 320#0000000000000080
(1560454233.220822) can0 420#0A9FA3000000FF00
(1560454233.221093) can0 52A#0000000000000000
(1560454233.221346) can0 5D2#00FFFFFFFF394257
(1560454233.221617) can0 5F3#0000000000000000
(1560454233.221660) can0 60E#0000
(1560454233.222018) can0 621#0003180000000000
(1560454233.222247) can0 62E#0000107207BF0B
(1560454233.222498) can0 778#065003003201F4AA
(1560454233.222526) can0 676#1282
(1560454233.222669) can0 67C#1AC2
(1560454233.223012) can0 70E#10092EF198010203
(1560454233.223186) can0 727#01014400040000
(1560454233.232312) can0 778#300F05AAAAAAAAAA
(1560454233.232583) can0 70E#21040506AAAAAAAA
(1560454233.240508) can0 320#0000000100010080
(1560454233.240753) can0 629#FF0FFF3F000000FF
(1560454233.242333) can0 778#036EF198AAAAAAAA
(1560454233.242732) can0 70E#03220600AAAAAAAA
(1560454233.246966) can0 497#0000000044460000
(1560454233.247105) can0 5D6#0000
(1560454233.252165) can0 661#8000000000000000
(1560454233.252400) can0 778#1015620600DFC5D5
(1560454233.252744) can0 70E#300F05AAAAAAAAAA
(1560454233.253184) can0 390#0000410000000000
(1560454233.253446) can0 35F#0080000000000000
(1560454233.260454) can0 320#0002000100020080
(1560454233.260682) can0 62B#FE0FFF3FFF3FFE3F
(1560454233.262238) can0 778#216E87000F0F0D01
(1560454233.262801) can0 470#400300000000001F
(1560454233.270891) can0 67C#1C42
(1560454233.272296) can0 778#22997DB00100220F
(1560454233.280449) can0 320#0202000100030088
(1560454233.280718) can0 62D#FE0FFF3FFF3FFE3F
(1560454233.282318) can0 778#2317AAAAAAAAAAAA
(1560454233.282869) can0 70E#03220590AAAAAAAA
(1560454233.283092) can0 470#C00300000000001F
(1560454233.283270) can0 5BF#F0000050
(1560454233.283455) can0 5C1#F0000050
(1560454233.291599) can0 497#0000000044460000
(1560454233.292462) can0 778#05620590EF0DAAAA
(1560454233.293092) can0 1A0#004088FF00000001
(1560454233.293276) can0 2A0#0000000000001010
(1560454233.293510) can0 4A0#88FF88FF88FF88FF
(1560454233.293757) can0 4A8#FE7F0020000010B1
(1560454233.293985) can0 5A0#4089FF100000C02B
(1560454233.294223) can0 5D0#8502502F0059C000
(1560454233.300534) can0 320#0202000100040088
(1560454233.303293) can0 1A0#004088FF00000002
(1560454233.303538) can0 2A0#0000000000002020
(1560454233.303786) can0 4A0#88FF88FF88FF88FF
(1560454233.304009) can0 3A0#ABF1FDF7DF7FFF0F
(1560454233.312774) can0 570#07009B0000
(1560454233.313051) can0 392#0000008000000000
(1560454233.313299) can0 1A0#004088FF00000003
(1560454233.313546) can0 2A0#0000000000003030
(1560454233.313776) can0 4A0#88FF88FF88FF88FF
(1560454233.314045) can0 4A8#FE7F002000002081
(1560454233.314245) can0 5A0#6B89FF200000C02B
(1560454233.314498) can0 5DC#7D00B00108000040
(1560454233.320537) can0 320#0202000100050088
(1560454233.320818) can0 520#0608001918861D01
(1560454233.321093) can0 621#2019180000610000
(1560454233.323412) can0 1A0#004188FF00000004
(1560454233.323722) can0 2A0#0000000000004040
(1560454233.323876) can0 4A0#88FF88FF88FF88FF
(1560454233.324130) can0 3A0#A8F2FDF7DF7FFF0F
(1560454233.332921) can0 470#C00300000000001F
(1560454233.333112) can0 5BF#00000050
(1560454233.333289) can0 1A0#004188FF00000005
(1560454233.333563) can0 2A0#0000000000005050
(1560454233.333852) can0 4A0#88FF88FF88FF88FF
(1560454233.334085) can0 4A8#FE7F002000003091
(1560454233.334296) can0 5A0#6B89FF350000C02B
(1560454233.334404) can0 5C1#00000050
(1560454233.340605) can0 320#0202000100060088
(1560454233.341882) can0 5D6#0000
(1560454233.343419) can0 1A0#004188FF00000006
(1560454233.343610) can0 2A0#0000000000006060
(1560454233.343836) can0 4A0#88FF88FF88FF88FF
(1560454233.344092) can0 3A0#0C0300000000000F
(1560454233.352971) can0 390#0000410000000000
(1560454233.353191) can0 1A0#004188FF00000007
(1560454233.353439) can0 2A0#0000000000007070
(1560454233.353707) can0 35F#0080000000000000
(1560454233.353893) can0 4A0#88FF88FF88FF88FF
(1560454233.354095) can0 4A8#FE7F0020000040E1
(1560454233.354414) can0 5A0#6B89FF450000402B
(1560454233.356779) can0 050#00051015
(1560454233.360521) can0 320#020200010007008A
(1560454233.363598) can0 1A0#004188FF00000008
(1560454233.363845) can0 2A0#0000000000008080
(1560454233.364098) can0 4A0#88FF88FF88FF88FF
(1560454233.364314) can0 3A0#0B0400000000000F
(1560454233.373181) can0 1A0#004188FF00000009
(1560454233.373432) can0 2A0#0000000000009090
(1560454233.373746) can0 4A0#88FF88FF88FF88FF
(1560454233.373994) can0 4A8#FE7F0020000050F1
(1560454233.374124) can0 5A0#6B89FF550000402B
(1560454233.376770) can0 050#00052025
(1560454233.380505) can0 320#020200010008009A
(1560454233.382909) can0 470#C00300000000001F
(1560454233.383367) can0 1A0#004188FF0000000A
(1560454233.383634) can0 2A0#000000000000A0A0
(1560454233.383854) can0 4A0#88FF88FF88FF88FF
(1560454233.384105) can0 3A0#0A0500000000000F
(1560454233.391598) can0 497#0000000044460000
(1560454233.393013) can0 5D0#8502502F0059C000
(1560454233.393300) can0 1A0#004188FF0000000B
(1560454233.393579) can0 2A0#000000000000B0B0
(1560454233.393759) can0 4A0#88FF88FF88FF88FF
(1560454233.393951) can0 4A8#FE7F0020000060C1
(1560454233.394222) can0 5A0#6B89FF650000402B
(1560454233.396795) can0 050#00053035
(1560454233.400496) can0 320#020200010009009A
(1560454233.403376) can0 1A0#004188FF0000000C
(1560454233.403655) can0 2A0#000000000000C0C0
(1560454233.403909) can0 4A0#88FF88FF88FF88FF
(1560454233.404107) can0 3A0#090600000000000F
(1560454233.412994) can0 728#01090700040000
(1560454233.413214) can0 1A0#004188FF0000000D
(1560454233.413495) can0 2A0#000000000000D0D0
(1560454233.413698) can0 392#0000008000000000
(1560454233.413967) can0 4A0#88FF88FF88FF88FF
(1560454233.414201) can0 4A8#FE7F0020000070D1
(1560454233.414338) can0 570#07009A0000
(1560454233.414616) can0 5A0#6B89FF750000402B
(1560454233.414873) can0 5DC#7D00B00108000040
(1560454233.416734) can0 050#00054045
(1560454233.420543) can0 320#02020001000A009A
(1560454233.420703) can0 420#0A9FA4000061FF00
(1560454233.421092) can0 5D2#01414234355A3848
(1560454233.421288) can0 621#2019180002610000
(1560454233.421541) can0 727#01014500040000
(1560454233.423465) can0 1A0#004188FF0000000E
(1560454233.423726) can0 2A0#000000000000E0E0
(1560454233.423918) can0 4A0#88FF88FF88FF88FF
(1560454233.424108) can0 3A0#080700000000000F
(1560454233.432973) can0 470#C00300000000001F
(1560454233.433235) can0 1A0#004100000000000F
(1560454233.433462) can0 2A0#000000000000F0F0
(1560454233.433709) can0 4A0#0000000000000000
(1560454233.433967) can0 4A8#FE7F002000008021
(1560454233.434180) can0 5A0#6B0100850000402B
(1560454233.434349) can0 5C1#00000050
(1560454233.436767) can0 050#00055055
(1560454233.440538) can0 320#02020001000B009A
(1560454233.441782) can0 5D6#0000
(1560454233.443419) can0 1A0#0041000000000000
(1560454233.443663) can0 2A0#0000000000000000
(1560454233.443919) can0 4A0#0000000000000000
(1560454233.444165) can0 3A0#070800000000000F
(1560454233.452991) can0 390#0000410000000000
(1560454233.453240) can0 1A0#0041000000000001
(1560454233.453489) can0 2A0#0000000000001010
(1560454233.453742) can0 35F#0080000000000000
(1560454233.453965) can0 4A0#0000000000000000
(1560454233.454218) can0 4A8#FE7F002000009031
(1560454233.454480) can0 5A0#6B0100950000402B
(1560454233.456747) can0 050#00056065
(1560454233.460520) can0 320#02020001000C009A
(1560454233.463588) can0 1A0#0041000000000002
(1560454233.463834) can0 2A0#0000000000002020
(1560454233.464085) can0 4A0#0000000000000000
(1560454233.464334) can0 3A0#060900000000000F
(1560454233.473187) can0 1A0#0041000000000003
(1560454233.473433) can0 2A0#0000000000003030
(1560454233.473681) can0 4A0#0000000000000000
(1560454233.473935) can0 4A8#FE7F00200000A001
(1560454233.474171) can0 5A0#6B0100A50000402B
(1560454233.476756) can0 050#00257055
(1560454233.480557) can0 320#02020001000D009A
(1560454233.482944) can0 470#C00300000000001F
(1560454233.483390) can0 1A0#0041000000000004
(1560454233.483632) can0 2A0#0000000000004040
(1560454233.483878) can0 4A0#0000000000000000
(1560454233.484130) can0 3A0#050A00000000000F
(1560454233.491664) can0 497#0000000044460000
(1560454233.493106) can0 5D0#8502502F0059C000
(1560454233.493356) can0 1A0#0041000000000005
(1560454233.493616) can0 2A0#0000000000005050
(1560454233.493867) can0 4A0#0000000000000000
(1560454233.494110) can0 4A8#FE7F00200000B011
(1560454233.494358) can0 5A0#6B0100B50000402B
(1560454233.496773) can0 050#002580A5
(1560454233.500515) can0 320#02020001000E009A
(1560454233.503392) can0 1A0#0041000000000006
(1560454233.503565) can0 2A0#0000000000006060
(1560454233.503887) can0 4A0#0000000000000000
(1560454233.504106) can0 3A0#040B00000000000F
(1560454233.512924) can0 570#07009B0000
(1560454233.513156) can0 1A0#0041000000000007
(1560454233.513402) can0 2A0#0000000000007070
(1560454233.513625) can0 392#0000008000000000
(1560454233.513905) can0 4A0#0000000000000000
(1560454233.514123) can0 4A8#FE7F00200000C061
(1560454233.514373) can0 5A0#6B0100C50000402B
(1560454233.514624) can0 5DC#7D00B00108000040
(1560454233.516765) can0 050#002590B5
(1560454233.520545) can0 320#02020001000F009A
(1560454233.520731) can0 520#4742021918861D01
(1560454233.521100) can0 621#2019180002610000
(1560454233.523531) can0 1A0#0041000000000008
(1560454233.523780) can0 2A0#0000000000008080
(1560454233.524017) can0 4A0#0000000000000000
(1560454233.524205) can0 3A0#030C00000000000F
(1560454233.532933) can0 470#C00300000000001F
(1560454233.533184) can0 1A0#0041000000000009
(1560454233.533454) can0 2A0#0000000000009090
(1560454233.533626) can0 4A0#0000000000000000
(1560454233.533902) can0 4A8#FE7F00200000D071
(1560454233.534093) can0 5A0#6B0100D50000402B
(1560454233.534259) can0 5C1#00000050
(1560454233.536855) can0 050#0025A085
(1560454233.537105) can0 550#1000000000000010
(1560454233.540575) can0 320#020200010000009A
(1560454233.541841) can0 5D6#0000
(1560454233.543384) can0 1A0#004100000000000A
(1560454233.543631) can0 2A0#000000000000A0A0
(1560454233.543885) can0 4A0#0000000000000000
(1560454233.544118) can0 3A0#020D00000000000F
(1560454233.552210) can0 536#009FE60B39
(1560454233.552589) can0 526#B243D8D839
(1560454233.553097) can0 390#0000410000000000
(1560454233.553337) can0 1A0#004100000000000B
(1560454233.553590) can0 2A0#000000000000B0B0
(1560454233.553841) can0 35F#0080000000000000
(1560454233.554092) can0 4A0#0000000000000000
(1560454233.554316) can0 4A8#FE7F00200000E041
(1560454233.554558) can0 5A0#6B0100E50000402B
(1560454233.556768) can0 050#0025B095
(1560454233.560524) can0 320#020200010001009A
(1560454233.562195) can0 661#8200000000000000
(1560454233.563681) can0 1A0#004100000000000C
(1560454233.563929) can0 2A0#000000000000C0C0
(1560454233.564186) can0 4A0#0000000000000000
(1560454233.564431) can0 3A0#010E00000000000F
(1560454233.573184) can0 1A0#004100000000000D
(1560454233.573431) can0 2A0#000000000000D0D0
(1560454233.573660) can0 4A0#0000000000000000
(1560454233.573929) can0 4A8#FE7F00200000F051
(1560454233.574126) can0 5A0#6B0100F50000402B
(1560454233.576785) can0 050#0025C0E5
(1560454233.580518) can0 320#020200010002009A
(1560454233.582986) can0 470#C00300000000001F
(1560454233.583305) can0 1A0#004100000000000E
(1560454233.583612) can0 2A0#000000000000E0E0
(1560454233.583877) can0 4A0#0000000000000000
(1560454233.584132) can0 3A0#000F00000000000F
(1560454233.591669) can0 497#0000000044460000
(1560454233.593117) can0 5D0#8502502F0059C000
(1560454233.593345) can0 1A0#004100000000000F
(1560454233.593613) can0 2A0#000000000000F0F0
(1560454233.593863) can0 4A0#0000000000000000
(1560454233.594123) can0 4A8#FE7F0020000000A1
(1560454233.594335) can0 5A0#6B0100050000402B
(1560454233.596812) can0 050#0025D0F5
(1560454233.600547) can0 320#020200010003009A
(1560454233.603404) can0 1A0#0041000000000000
(1560454233.603634) can0 2A0#0000000000000000
(1560454233.603887) can0 4A0#0000000000000000
(1560454233.604131) can0 3A0#0F0000000000000F
(1560454233.612934) can0 728#01090700040000
(1560454233.613219) can0 392#0000008000000000
(1560454233.613471) can0 1A0#0041000000000001
(1560454233.613719) can0 2A0#0000000000001010
(1560454233.613973) can0 4A0#0000000000000000
(1560454233.614222) can0 4A8#FE7F0020000010B1
(1560454233.614353) can0 570#0700970000
(1560454233.614638) can0 5A0#6B0100150000402B
(1560454233.614884) can0 5DC#7D00B00108000040
(1560454233.616833) can0 050#0025E0C5
(1560454233.620528) can0 320#020200010004009A
(1560454233.620777) can0 420#0A9FA4000061FF00
(1560454233.621075) can0 5D2#0234303134333333
(1560454233.621274) can0 621#2019180002610000
(1560454233.621500) can0 727#01014500040000
(1560454233.623487) can0 1A0#0041000000000002
(1560454233.623714) can0 2A0#0000000000002020
(1560454233.623989) can0 4A0#0000000000000000
(1560454233.624206) can0 3A0#0E0100000000000F
(1560454233.632960) can0 470#C00300000000001F
(1560454233.633149) can0 5C1#00000050
(1560454233.633448) can0 1A0#0041000000000003
(1560454233.633605) can0 2A0#0000000000003030
(1560454233.633882) can0 4A0#0000000000000000
(1560454233.634089) can0 4A8#FE7F002000002081
(1560454233.634411) can0 5A0#6B0100250000402B
(1560454233.636959) can0 050#0025F0D5
(1560454233.640513) can0 320#020200010005009A
(1560454233.641706) can0 5D6#0000
(1560454233.643416) can0 1A0#0041000000000004
(1560454233.643610) can0 2A0#0000000000004040
(1560454233.643856) can0 4A0#0000000000000000
(1560454233.644095) can0 3A0#0D0200000000000F
(1560454233.652942) can0 390#0000410000000000
(1560454233.653228) can0 35F#0080000000000000
(1560454233.653470) can0 1A0#0041000000000005
(1560454233.653720) can0 2A0#0000000000005050
(1560454233.653996) can0 4A0#0000000000000000
(1560454233.654196) can0 4A8#FE7F002000003091
(1560454233.654465) can0 5A0#6B0100350000402B
(1560454233.656720) can0 050#00250025
(1560454233.658493) can0 280#0926000000000000
(1560454233.660524) can0 320#020200010006009A
(1560454233.663446) can0 380#0000000000000011
(1560454233.663690) can0 488#58000000A6FF1110
(1560454233.663934) can0 1A0#0041000000000006
(1560454233.664189) can0 2A0#0000000000006060
(1560454233.664432) can0 4A0#0000000000000000
(1560454233.664719) can0 3A0#0C0300000000000F
(1560454233.664966) can0 540#1000000000002000
(1560454233.668728) can0 280#0926000000000000
(1560454233.669010) can0 288#1100000000005A19
(1560454233.669183) can0 480#0F2000000000002F
(1560454233.669494) can0 48A#1200000000020010
(1560454233.673476) can0 380#0000000000000011
(1560454233.673699) can0 488#06000000A6FF7F20
(1560454233.673943) can0 1A0#0041000000000007
(1560454233.674204) can0 2A0#0000000000007070
(1560454233.674452) can0 4A0#0000000000000000
(1560454233.674705) can0 4A8#FE7F0020000040E1
(1560454233.674945) can0 540#2000000000002000
(1560454233.675181) can0 588#E000008000000001
(1560454233.675404) can0 5A0#6B0100450000402B
(1560454233.676750) can0 050#00251035
(1560454233.678432) can0 280#0926000000000000
(1560454233.680528) can0 320#020200010007009A
(1560454233.682934) can0 470#C00300000000001F
(1560454233.683449) can0 380#0000000000000011
(1560454233.683712) can0 488#96000000A6FFFF30
(1560454233.683959) can0 1A0#0041000000000008
(1560454233.684223) can0 2A0#0000000000008080
(1560454233.684474) can0 4A0#0000000000000000
(1560454233.684720) can0 3A0#0B0400000000000F
(1560454233.684964) can0 540#3000000000002000
(1560454233.688714) can0 280#0926000000000000
(1560454233.688961) can0 288#1100000000005A19
(1560454233.689221) can0 480#0F2000000000002F
(1560454233.689456) can0 48A#2200000000020020
(1560454233.691715) can0 497#0000000044460000
(1560454233.693095) can0 5D0#8502502F0059C000
(1560454233.693491) can0 380#0000000000000011
(1560454233.693724) can0 488#E6000000A6FFFF40
(1560454233.693966) can0 1A0#0041000000000009
(1560454233.694228) can0 2A0#0000000000009090
(1560454233.694475) can0 4A0#0000000000000000
(1560454233.694682) can0 4A8#FE7F0020000050F1
(1560454233.694917) can0 540#4000000000002000
(1560454233.695160) can0 588#E000008000000001
(1560454233.695406) can0 5A0#6B0100550000402B
(1560454233.696769) can0 050#00252005
(1560454233.698499) can0 280#0926000000000000
(1560454233.700603) can0 320#020200010008009A
(1560454233.703490) can0 380#0000000000000011
(1560454233.703700) can0 488#F6000000A6FFFF50
(1560454233.703924) can0 1A0#004100000000000A
(1560454233.704229) can0 2A0#000000000000A0A0
(1560454233.704467) can0 4A0#0000000000000000
(1560454233.704714) can0 3A0#0A0500000000000F
(1560454233.704969) can0 540#5000000000002000
(1560454233.708733) can0 280#0926000000000000
(1560454233.708983) can0 288#1100000000005A19
(1560454233.709241) can0 480#0F2000000000002F
(1560454233.709427) can0 48A#3200000000020030
(1560454233.713016) can0 570#0700900000
(1560454233.713302) can0 392#0000008000000000
(1560454233.713552) can0 380#0000000000000011
(1560454233.713761) can0 488#C6000000A6FFFF60
(1560454233.714069) can0 1A0#004100000000000B
(1560454233.714295) can0 2A0#000000000000B0B0
(1560454233.714544) can0 4A0#0000000000000000
(1560454233.714786) can0 4A8#FE7F0020000060C1
(1560454233.715063) can0 540#6000000000002000
(1560454233.715260) can0 588#E000008000000001
(1560454233.715439) can0 5A0#6B0100650000402B
(1560454233.715692) can0 5DC#7D00B00108000040
(1560454233.716105) can0 64F#0000000000000000
(1560454233.716790) can0 050#00253015
(1560454233.718510) can0 280#0926000000000000
(1560454233.720577) can0 320#020200010009009A
(1560454233.720838) can0 520#1787021918861D01
(1560454233.721084) can0 5F3#00006A0100000000
(1560454233.721360) can0 621#2019180002610000
(1560454233.721425) can0 676#1282
(1560454233.721617) can0 67C#1AC2
(1560454233.723488) can0 380#0000000000000011
(1560454233.723701) can0 488#D6000000A6FFFF70
(1560454233.723961) can0 540#7000000000002000
(1560454233.724209) can0 1A0#004100000000000C
(1560454233.724459) can0 2A0#000000000000C0C0
(1560454233.724896) can0 4A0#0000000000000000
(1560454233.724904) can0 3A0#090600000000000F
(1560454233.728781) can0 280#0926000000000000
(1560454233.729065) can0 288#1100000000005A19
(1560454233.729243) can0 480#0F2000000000002F
(1560454233.729455) can0 48A#4200000000020040
(1560454233.732867) can0 470#C00300000000001F
(1560454233.733091) can0 5C1#00000050
(1560454233.733403) can0 5D0#8502502F00594000
(1560454233.733616) can0 380#0000000000000011
(1560454233.733818) can0 488#26000000A6FFFF80
(1560454233.734049) can0 1A0#004100000000000D
(1560454233.734296) can0 2A0#000000000000D0D0
(1560454233.734592) can0 4A0#0000000000000000
(1560454233.734845) can0 4A8#FE7F0020000070D1
(1560454233.735016) can0 540#8000000000002000
(1560454233.735333) can0 588#E000008000000001
(1560454233.735532) can0 5A0#6B0100750000402B
(1560454233.736808) can0 050#00254065
(1560454233.737094) can0 550#2000000000000020
(1560454233.738511) can0 280#0926000000000000
(1560454233.740596) can0 320#02020001000A009A
(1560454233.742095) can0 5D6#0000
(1560454233.743492) can0 380#0000000000000011
(1560454233.743718) can0 488#36000000A6FFFF90
(1560454233.743965) can0 1A0#004100000000000E
(1560454233.744225) can0 2A0#000000000000E0E0
(1560454233.744461) can0 4A0#0000000000000000
(1560454233.744721) can0 3A0#080700000000000F
(1560454233.744891) can0 540#9000000000002000
(1560454233.748685) can0 280#0926000000000000
(1560454233.748938) can0 288#5900000000005A19
(1560454233.749195) can0 480#5920000000000079
(1560454233.749415) can0 48A#5200000000020050
(1560454233.752886) can0 390#0000410000000000
(1560454233.753161) can0 35F#0080000000000000
(1560454233.753414) can0 380#008A000000000011
(1560454233.753668) can0 488#7A00007FA5FFFFA0
(1560454233.753915) can0 1A0#004100000000000F
(1560454233.754162) can0 2A0#000000000000F0F0
(1560454233.754407) can0 4A0#0000000000000000
(1560454233.754633) can0 4A8#FE7F002000008021
(1560454233.754885) can0 540#A000000000002000
(1560454233.755139) can0 588#E0007F800000008C
(1560454233.755367) can0 5A0#6B0100850000402B
(1560454233.756756) can0 050#00255075
(1560454233.758467) can0 280#0926000000000019
(1560454233.760491) can0 320#02020001000B009A
(1560454233.763411) can0 380#008A000000000011
(1560454233.763656) can0 488#6A00007FA5FFFFB0
(1560454233.763929) can0 540#B000000000002000
(1560454233.764162) can0 1A0#0041000000000000
(1560454233.764408) can0 2A0#0000000000000000
(1560454233.764656) can0 4A0#0000000000000000
(1560454233.764910) can0 3A0#070800000000000F
(1560454233.768663) can0 280#0926140100000019
(1560454233.768885) can0 288#59B4000000005A19
(1560454233.769136) can0 480#592C000000000277
(1560454233.769383) can0 48A#6200000000020060
(1560454233.771026) can0 67C#1C42
(1560454233.773424) can0 380#008A000000000011
(1560454233.773649) can0 488#1A00007FA5FFFFC0
(1560454233.773898) can0 1A0#0041000000000001
(1560454233.774157) can0 2A0#0000000000001010
(1560454233.774400) can0 4A0#0000000000000000
(1560454233.774658) can0 4A8#FE7F002000009031
(1560454233.774903) can0 540#C000000000002000
(1560454233.775151) can0 588#E0007F590000008C
(1560454233.775371) can0 5A0#6B0100950000402B
(1560454233.776743) can0 050#00256045
(1560454233.778440) can0 280#0926640100000019
(1560454233.778691) can0 58C#10000000FE000000
(1560454233.780485) can0 320#02020001000C009A
(1560454233.782940) can0 470#C00300000000001F
(1560454233.783398) can0 380#008A000000000011
(1560454233.783646) can0 488#0A00007FA5FFFFD0
(1560454233.783890) can0 1A0#0041000000000002
(1560454233.784144) can0 2A0#0000000000002020
(1560454233.784399) can0 4A0#0000000000000000
(1560454233.784645) can0 3A0#060900000000000F
(1560454233.784938) can0 540#D000000000002000
(1560454233.788801) can0 280#09267C0100000019
(1560454233.789084) can0 288#59B4000000005A19
(1560454233.789287) can0 480#592C000000000277
(1560454233.789528) can0 48A#7200000000020070
(1560454233.791547) can0 497#0000000044460000
(1560454233.793415) can0 380#008A00000000000E
(1560454233.793682) can0 488#3A00007FA5FFFFE0
(1560454233.793903) can0 1A0#0041000000000003
(1560454233.794140) can0 2A0#0000000000003030
(1560454233.794403) can0 4A0#0000000000000000
(1560454233.794636) can0 4A8#FE7F00200000A001
(1560454233.794884) can0 540#E000000000002000
(1560454233.795139) can0 588#E0007F0E0000008C
(1560454233.795362) can0 5A0#6B0100A50000402B
(1560454233.796778) can0 050#00257055
(1560454233.798434) can0 280#09269C0100000019
(1560454233.800495) can0 320#02020001000D009A
(1560454233.803413) can0 380#008A00000000000B
(1560454233.803636) can0 488#2A00007FA5FFFFF0
(1560454233.803885) can0 1A0#0041000000000004
(1560454233.804138) can0 2A0#0000000000004040
(1560454233.804387) can0 4A0#0000000000000000
(1560454233.804635) can0 3A0#050A00000000000F
(1560454233.804884) can0 540#F000000000002000
(1560454233.808664) can0 280#0926D00100000019
(1560454233.808887) can0 288#59B4000000005A19
(1560454233.809171) can0 480#592C000000000277
(1560454233.809439) can0 48A#8200000000020080
(1560454233.812823) can0 728#01090700040000
(1560454233.813112) can0 392#0000008000000000
(1560454233.813330) can0 570#0B00400500
(1560454233.813578) can0 380#008A000000000009
(1560454233.813826) can0 1A0#0041000000000005
(1560454233.814086) can0 2A0#0000000000005050
(1560454233.814310) can0 488#2500007FA5FF0000
(1560454233.814558) can0 4A0#0000000000000000
(1560454233.814810) can0 4A8#FE7F00200000B011
(1560454233.815062) can0 540#0000000000002000
(1560454233.815309) can0 588#E0007F0D0000008C
(1560454233.815533) can0 5A0#6B0100B50000402B
(1560454233.815784) can0 5DC#7D00B00108000040
(1560454233.816708) can0 050#002580A5
(1560454233.818446) can0 280#0926D00100000019
(1560454233.820514) can0 320#02020001000E009A
(1560454233.820764) can0 420#0A9FA4000061FF00
(1560454233.821014) can0 5D2#00FFFFFFFF394257
(1560454233.821289) can0 621#2019180002610000
(1560454233.821510) can0 727#01014500040000
(1560454233.823363) can0 010#E59AA838BD7101
(1560454233.823616) can0 380#008A000000000009
(1560454233.823880) can0 1A0#0041000000000006
(1560454233.824114) can0 2A0#0000000000006060
(1560454233.824394) can0 488#3C00007FA5FF0910
(1560454233.824634) can0 4A0#0000000000000000
(1560454233.824837) can0 011#6928659671661F
(1560454233.825103) can0 3A0#040B00000000000F
(1560454233.825343) can0 540#1000000000002000
(1560454233.828710) can0 280#0926E40100000019
(1560454233.828900) can0 288#8FB4000000005A19
(1560454233.829174) can0 480#942C0000000002BA
(1560454233.829415) can0 48A#9200000000020090
(1560454233.832901) can0 470#C00300000000001F
(1560454233.833186) can0 5D0#8502502F00594000
(1560454233.833496) can0 380#008A000000000008
(1560454233.833731) can0 488#7A00007FA5FF7F20
(1560454233.833978) can0 1A0#0041000000000007
(1560454233.834202) can0 2A0#0000000000007070
(1560454233.834535) can0 4A0#0000000000000000
(1560454233.834684) can0 4A8#FE7F00200000C061
(1560454233.835021) can0 540#2000000000002000
(1560454233.835277) can0 588#E0007F080000008C
(1560454233.835465) can0 5A0#6B0100C50000402B
(1560454233.836802) can0 050#002590B5
(1560454233.838550) can0 280#0926F00100000019
(1560454233.840597) can0 320#02020001000F009A
(1560454233.842125) can0 497#0000000094960000
(1560454233.842599) can0 66C#0C42030031000301
(1560454233.843302) can0 678#40000105
(1560454233.843537) can0 380#008A000000000007
(1560454233.843743) can0 488#EA00007FA5FFFF30
(1560454233.843997) can0 1A0#0041000000000008
(1560454233.844280) can0 2A0#0000000000008080
(1560454233.844524) can0 4A0#0000000000000000
(1560454233.844778) can0 3A0#030C00000000000F
(1560454233.845023) can0 540#3000000000002000
(1560454233.845026) can0 5D6#0000
(1560454233.846523) can0 6DA#028203000A000303
(1560454233.848778) can0 280#0926F00100000019
(1560454233.849127) can0 288#8FB4000000005A19
(1560454233.849309) can0 480#942C0000000002BA
(1560454233.851947) can0 676#1281
(1560454233.852107) can0 67A#1282
(1560454233.853037) can0 390#0000410000000000
(1560454233.853240) can0 35F#0080000000000000
(1560454233.853907) can0 1A0#0041000000000009
(1560454233.854109) can0 2A0#0000000000009090
(1560454233.854346) can0 4A0#0000000000000000
(1560454233.854607) can0 4A8#FE7F00200000D071
(1560454233.854837) can0 5A0#6B0100D50000402B
(1560454233.856763) can0 050#0025A085
(1560454233.860494) can0 320#020200010000009A
(1560454233.860983) can0 67C#1C41
(1560454233.862079) can0 67A#1283
(1560454233.863896) can0 1A0#004100000000000A
(1560454233.864089) can0 2A0#000000000000A0A0
(1560454233.864389) can0 4A0#0000000000000000
(1560454233.864644) can0 3A0#020D00000000000F
(1560454233.868751) can0 280#0926DC0100000019
(1560454233.872240) can0 66C#801F4C4103003100
(1560454233.873490) can0 380#008A000000000007
(1560454233.873710) can0 488#9A00007FA5FFFF40
(1560454233.873957) can0 1A0#004100000000000B
(1560454233.874221) can0 2A0#000000000000B0B0
(1560454233.874469) can0 4A0#0000000000000000
(1560454233.874716) can0 4A8#FE7F00200000E041
(1560454233.874936) can0 540#4000000000002000
(1560454233.875162) can0 5A0#6B0100E50000402B
(1560454233.876749) can0 050#0025B095
(1560454233.878517) can0 280#0926D80100000019
(1560454233.878751) can0 288#8FB4000000005A19
(1560454233.878996) can0 480#942C0000000002BA
(1560454233.879248) can0 48A#B2000000000200B0
(1560454233.880554) can0 320#020200010001009A
(1560454233.882890) can0 470#C00300000000001F
(1560454233.883478) can0 380#008A000000000007
(1560454233.883674) can0 488#8A00007FA5FFFF50
(1560454233.883971) can0 540#5000000000002000
(1560454233.884221) can0 1A0#004100000000000C
(1560454233.884441) can0 2A0#000000000000C0C0
(1560454233.884697) can0 4A0#0000000000000000
(1560454233.884944) can0 3A0#010E00000000000F
(1560454233.885190) can0 588#E0007F8D0000008A
(1560454233.888695) can0 280#0926BC0100000019
(1560454233.891888) can0 497#0000000094960020
(1560454233.893480) can0 380#008A000000000006
(1560454233.893692) can0 488#BA00007FA5FFFF60
(1560454233.893948) can0 1A0#004100000000000D
(1560454233.894158) can0 2A0#000000000000D0D0
(1560454233.894424) can0 4A0#0000000000000000
(1560454233.894737) can0 4A8#FE7F00200000F051
(1560454233.894935) can0 540#6000000000002000
(1560454233.895136) can0 5A0#6B0100F50000402B
(1560454233.896162) can0 6DA#8023428103000A00
(1560454233.896687) can0 050#0025C0E5
(1560454233.898474) can0 280#0926980100000019
(1560454233.898755) can0 288#8FB4000000005A19
(1560454233.898977) can0 480#942C0000000002BA
(1560454233.899237) can0 48A#C2000000000200C0
(1560454233.899485) can0 56A#0900000018000011
(1560454233.900723) can0 320#02020001000200BA
(1560454233.902180) can0 66C#C003010800780384
(1560454233.903472) can0 380#008A000000000006
(1560454233.903721) can0 488#AA00007FA5FFFF70
(1560454233.903955) can0 1A0#004100000000000E
(1560454233.904213) can0 2A0#000000000000E0E0
(1560454233.904460) can0 4A0#0000000000000000
(1560454233.904709) can0 3A0#000F00000000000F
(1560454233.904953) can0 540#7000000000002000
(1560454233.905205) can0 588#E0007F920000008A
(1560454233.908747) can0 280#0926740100000019
(1560454233.912849) can0 570#0B00330500
(1560454233.913177) can0 392#0000008000000000
(1560454233.913454) can0 5DC#7D00B00108000040
(1560454233.913707) can0 380#008A000000000005
(1560454233.913950) can0 1A0#004100000000000F
(1560454233.914214) can0 2A0#000000000000F0F0
(1560454233.914432) can0 488#5A00007FA5FFFF80
(1560454233.914703) can0 4A0#0000000000000000
(1560454233.914927) can0 4A8#FE7F0030000000B1
(1560454233.915124) can0 540#8000000000002000
(1560454233.915370) can0 5A0#6B0100050000402B
(1560454233.916807) can0 050#0025D0F5
(1560454233.918509) can0 280#0926440100000019
(1560454233.918687) can0 288#D4B4000000005A19
(1560454233.918989) can0 480#E22C0000000002CC
(1560454233.919222) can0 48A#D2000000000200D0
(1560454233.920562) can0 320#02020001000300BA
(1560454233.920819) can0 520#55C4021918861D01
(1560454233.921073) can0 621#2019180002610000
(1560454233.923484) can0 380#008A000000000005
(1560454233.923733) can0 488#4A00007FA5FFFF90
(1560454233.923954) can0 540#9000000000002000
(1560454233.924213) can0 1A0#0041000000000000
(1560454233.924467) can0 2A0#0000000000000000
(1560454233.924716) can0 4A0#0000000000000000
(1560454233.924926) can0 3A0#0F0000000000000F
(1560454233.925144) can0 588#E0007F8C0000008A
(1560454233.928674) can0 280#0926440100000019
(1560454233.932230) can0 66C#C100000000000AFF
(1560454233.932899) can0 470#C00300000000001F
(1560454233.933159) can0 5D0#8502502F00594000
(1560454233.933709) can0 380#008A000000000005
(1560454233.933720) can0 1A0#0041000000000001
(1560454233.933944) can0 2A0#0000000000001010
(1560454233.934206) can0 488#7A00007FA5FFFFA0
(1560454233.934455) can0 4A0#0000000000000000
(1560454233.934724) can0 4A8#FE7F0030000010A1
(1560454233.934921) can0 540#A000000000002000
(1560454233.935209) can0 5A0#6B0100150000402B
(1560454233.936766) can0 050#0025E0C5
(1560454233.937083) can0 550#3000000000000030
(1560454233.938487) can0 280#0926140100000019
(1560454233.938736) can0 288#D4B4000000005A19
(1560454233.938957) can0 480#E22C0000000002CC
(1560454233.939220) can0 48A#E2000000000200E0
(1560454233.939441) can0 56A#3900000018000021
(1560454233.940580) can0 320#02020001000400BA
(1560454233.942379) can0 5D6#0000
(1560454233.943498) can0 380#008A000000000005
(1560454233.943723) can0 488#6A00007FA5FFFFB0
(1560454233.943972) can0 1A0#0041000000000002
(1560454233.944228) can0 2A0#0000000000002020
(1560454233.944477) can0 4A0#0000000000000000
(1560454233.944726) can0 3A0#0E0100000000000F
(1560454233.944892) can0 540#B000000000002000
(1560454233.945143) can0 588#E0007F8C0000008A
(1560454233.946069) can0 6DA#428203000A000303
(1560454233.948740) can0 280#0926F00000000019
(1560454233.952945) can0 390#0000410000000000
(1560454233.953257) can0 35F#0080000000000000
(1560454233.953672) can0 1A0#0041000000000003
(1560454233.953991) can0 2A0#0000000000003030
(1560454233.954264) can0 4A0#0000000000000000
(1560454233.954493) can0 4A8#FE7F003000002091
(1560454233.954722) can0 5A0#6B0100250000402B
(1560454233.956828) can0 050#0025F0D5
(1560454233.960441) can0 320#02020001000500BA
(1560454233.962243) can0 66C#C201000000000600
(1560454233.963972) can0 1A0#0041000000000004
(1560454233.964186) can0 2A0#0000000000004040
(1560454233.964440) can0 4A0#0000000000000000
(1560454233.964692) can0 3A0#0D0200000000000F
(1560454233.968850) can0 280#0926FC0000000019
(1560454233.973506) can0 380#008A000000000004
(1560454233.973723) can0 488#1A00007FA5FFFFC0
(1560454233.973971) can0 1A0#0041000000000005
(1560454233.974230) can0 2A0#0000000000005050
(1560454233.974478) can0 4A0#0000000000000000
(1560454233.974726) can0 4A8#FE7F003000003081
(1560454233.974983) can0 540#C000000000002000
(1560454233.975187) can0 5A0#6B0100350000402B
(1560454233.976780) can0 050#00250025
(1560454233.978510) can0 280#0926340100000019
(1560454233.978747) can0 288#D4B4000000005A19
(1560454233.978973) can0 480#E22C0000000002CC
(1560454233.979206) can0 48A#F2000000000200F0
(1560454233.980470) can0 320#02020001000600BA
(1560454233.982854) can0 470#C00300000000001F
(1560454233.983443) can0 380#008A000000000004
(1560454233.983673) can0 488#0A00007FA5FFFFD0
(1560454233.983920) can0 540#D000000000002000
(1560454233.984165) can0 1A0#0041000000000006
(1560454233.984417) can0 2A0#0000000000006060
(1560454233.984689) can0 4A0#0000000000000000
(1560454233.984935) can0 3A0#0C0300000000000F
(1560454233.985197) can0 588#E0007F080000008A
(1560454233.988717) can0 280#0926940100000019
(1560454233.991903) can0 497#0000000094960020
(1560454233.992202) can0 66C#C3000000000000
(1560454233.993475) can0 380#008A000000000004
(1560454233.993732) can0 488#3A00007FA5FFFFE0
(1560454233.993981) can0 1A0#0041000000000007
(1560454233.994190) can0 2A0#0000000000007070
(1560454233.994441) can0 4A0#0000000000000000
(1560454233.994673) can0 4A8#FE7F0030000040F1
(1560454233.994931) can0 540#E000000000002000
(1560454233.995161) can0 5A0#6B0100450000402B
(1560454233.996181) can0 6DA#C003033803FB0000
(1560454233.996750) can0 050#00251035
(1560454233.998482) can0 280#0926840200000019
(1560454233.998767) can0 288#D4B4000000005A19
(1560454233.998972) can0 480#E22C0000000002CC
(1560454233.999231) can0 48A#0200000000020000
(1560454233.999459) can0 56A#2900000018000031
(1560454234.000563) can0 320#02020001000700BA
(1560454234.003482) can0 380#008A000000000004
(1560454234.003704) can0 488#2A00007FA5FFFFF0
(1560454234.003955) can0 1A0#0041000000000008
(1560454234.004208) can0 2A0#0000000000008080
(1560454234.004456) can0 4A0#0000000000000000
(1560454234.004703) can0 3A0#0B0400000000000F
(1560454234.004952) can0 540#F000000000002000
(1560454234.005183) can0 588#E0007F6D0000008A
(1560454234.008680) can0 280#0926340300000019
(1560454234.012950) can0 728#01090700040000
(1560454234.013234) can0 392#0000008000000000
(1560454234.013446) can0 380#008A000000000004
(1560454234.013666) can0 1A0#0041000000000009
(1560454234.013913) can0 2A0#0000000000009090
(1560454234.014202) can0 488#2500007FA5FF0000
(1560454234.014436) can0 4A0#0000000000000000
(1560454234.014675) can0 4A8#FE7F0030000050E1
(1560454234.014901) can0 540#0000000000002000
(1560454234.015062) can0 570#0B003F0500
(1560454234.015314) can0 5A0#6B0100550000402B
(1560454234.015565) can0 5DC#7D00B00108000040
(1560454234.016718) can0 050#00252005
(1560454234.018558) can0 280#09269C0300000019
(1560454234.018771) can0 288#11B4000000005A19
(1560454234.019028) can0 480#0F2C000000000221
(1560454234.019238) can0 48A#1200000000020010
(1560454234.020631) can0 320#02020001000800BA
(1560454234.020852) can0 420#0A9FA4000061FF00
(1560454234.021126) can0 5D2#01414234355A3848
(1560454234.021354) can0 621#2019180002610000
(1560454234.021607) can0 727#01014500040000
(1560454234.023485) can0 380#008A000000000004
(1560454234.023714) can0 488#3100007FA5FF0410
(1560454234.023985) can0 540#1000000000002000
(1560454234.024144) can0 1A0#004100000000000A
(1560454234.024428) can0 2A0#000000000000A0A0
(1560454234.024712) can0 4A0#0000000000000000
(1560454234.024962) can0 3A0#0A0500000000000F
(1560454234.025216) can0 588#E0007F340000008A
(1560454234.028750) can0 280#0926C80300000019
(1560454234.032906) can0 470#C00300000000001F
(1560454234.033202) can0 5D0#8502502F00594000
(1560454234.033522) can0 380#008A000000000004
(1560454234.033737) can0 488#7B00007FA5FF7E20
(1560454234.033976) can0 1A0#004100000000000B
(1560454234.034198) can0 2A0#000000000000B0B0
(1560454234.034481) can0 4A0#0000000000000000
(1560454234.034736) can0 4A8#FE7F0030000060D1
(1560454234.034943) can0 540#2000000000002000
(1560454234.035174) can0 5A0#6B0100650000402B
(1560454234.036781) can0 050#00253015
(1560454234.038514) can0 280#0926C80300000019
(1560454234.038763) can0 288#11B4000000005A19
(1560454234.039011) can0 480#0F2C000000000221
(1560454234.039241) can0 48A#2200000000020020
(1560454234.039416) can0 56A#5900000018000041
(1560454234.040580) can0 320#02020001000900BA
(1560454234.042327) can0 5D6#0000
(1560454234.043491) can0 380#008A000000000004
(1560454234.043697) can0 488#EA00007FA5FFFF30
(1560454234.043923) can0 540#3000000000002000
(1560454234.044230) can0 1A0#004100000000000C
(1560454234.044477) can0 2A0#000000000000C0C0
(1560454234.044718) can0 4A0#0000000000000000
(1560454234.044962) can0 3A0#090600000000000F
(1560454234.045228) can0 588#E0007F010000008A
(1560454234.046402) can0 6DA#C10000000A0F0303
(1560454234.048747) can0 280#0926BC0300000019
(1560454234.052854) can0 390#0000410000000000
(1560454234.053127) can0 35F#0080000000000000
(1560454234.053502) can0 380#008A000000000004
(1560454234.053751) can0 488#9A00007FA5FFFF40
(1560454234.053973) can0 1A0#004100000000000D
(1560454234.054239) can0 2A0#000000000000D0D0
(1560454234.054477) can0 4A0#0000000000000000
(1560454234.054725) can0 4A8#FE7F0030000070C1
(1560454234.054955) can0 540#4000000000002000
(1560454234.055125) can0 5A0#6B0100750000402B
(1560454234.056890) can0 050#00254065
(1560454234.058506) can0 280#0926BC0300000019
(1560454234.058702) can0 288#11B4000000005A19
(1560454234.059133) can0 480#0F2C000000000221
(1560454234.059395) can0 48A#3200000000020030
(1560454234.060525) can0 320#02020001000A00BA
(1560454234.063493) can0 380#008A000000000004
(1560454234.063722) can0 488#8A00007FA5FFFF50
(1560454234.063966) can0 540#5000000000002000
(1560454234.064184) can0 1A0#004100000000000E
(1560454234.064443) can0 2A0#000000000000E0E0
(1560454234.064689) can0 4A0#0000000000000000
(1560454234.064933) can0 3A0#080700000000000F
(1560454234.065143) can0 588#E0007F800000008A
(1560454234.068990) can0 280#0926BC0300000019
(1560454234.073491) can0 380#008A000000000004
(1560454234.073730) can0 1A0#004100000000000F
(1560454234.073991) can0 2A0#000000000000F0F0
(1560454234.074198) can0 488#BA00007FA5FFFF60
(1560454234.074397) can0 4A0#0000000000000000
(1560454234.074713) can0 4A8#FE7F003000008031
(1560454234.074966) can0 540#6000000000002000
(1560454234.075214) can0 5A0#6B0100850000402B
(1560454234.076788) can0 050#00255075
(1560454234.078496) can0 280#0926BC0300000019
(1560454234.078716) can0 288#11B4000000005A19
(1560454234.079170) can0 480#0F2C000000000221
(1560454234.079418) can0 48A#4200000000020040
(1560454234.079662) can0 56A#4900000018000051
(1560454234.080479) can0 320#02020001000B00BA
(1560454234.082797) can0 470#C00300000000001F
(1560454234.083471) can0 380#008A000000000004
(1560454234.083687) can0 488#AA00007FA5FFFF70
(1560454234.083941) can0 1A0#0041000000000000
(1560454234.084199) can0 2A0#0000000000000000
(1560454234.084445) can0 4A0#0000000000000000
(1560454234.084692) can0 3A0#070800000000000F
(1560454234.084919) can0 540#7000000000002000
(1560454234.085169) can0 588#E0007F800000008A
(1560454234.088722) can0 280#0926BC0300000019
(1560454234.088966) can0 58C#10000000FE000000
(1560454234.092043) can0 497#0000000094960020
(1560454234.093457) can0 380#008A000000000004
(1560454234.093700) can0 1A0#0041000000000001
(1560454234.093950) can0 2A0#0000000000001010
(1560454234.094190) can0 488#5A00007FA5FFFF80
(1560454234.094436) can0 4A0#0000000000000000
(1560454234.094682) can0 4A8#FE7F003000009021
(1560454234.094936) can0 540#8000000000002000
(1560454234.095148) can0 5A0#6B0100950000402B
(1560454234.096461) can0 6DA#C20006090409FFFF
(1560454234.096759) can0 050#00256045
(1560454234.098455) can0 280#0926BC0300000019
(1560454234.098723) can0 288#59B4000000005A19
(1560454234.099022) can0 480#592C000000000277
(1560454234.099235) can0 48A#5200000000020050
(1560454234.100500) can0 320#02020001000C00BA
(1560454234.103472) can0 380#008A000000000004
(1560454234.103726) can0 488#4A00007FA5FFFF90
(1560454234.103969) can0 540#9000000000002000
(1560454234.104262) can0 1A0#0041000000000002
(1560454234.104468) can0 2A0#0000000000002020
(1560454234.104697) can0 4A0#0000000000000000
(1560454234.104961) can0 3A0#060900000000000F
(1560454234.105225) can0 588#E0007F800000008A
(1560454234.108702) can0 280#0926BC0300000019
(1560454234.112904) can0 570#0B004A0500
(1560454234.113151) can0 392#0000008000000000
(1560454234.113468) can0 5DC#7D00B00108000040
(1560454234.113649) can0 380#008A000000000004
(1560454234.113960) can0 1A0#0041000000000003
(1560454234.114222) can0 2A0#0000000000003030
(1560454234.114471) can0 488#7A00007FA5FFFFA0
(1560454234.114689) can0 4A0#0000000000000000
(1560454234.114903) can0 4A8#FE7F00300000A011
(1560454234.115185) can0 540#A000000000002000
(1560454234.115408) can0 5A0#6B0100A50000402B
(1560454234.116822) can0 050#00257055
(1560454234.118516) can0 280#0926BC0300000019
(1560454234.118746) can0 288#59B4000000005A19
(1560454234.119002) can0 480#592C000000000277
(1560454234.119195) can0 48A#6200000000020060
(1560454234.119434) can0 56A#7900000018000061
(1560454234.120580) can0 320#02020001000D00BA
(1560454234.120800) can0 520#0608021918861D01
(1560454234.121086) can0 621#2019180002610000
(1560454234.123481) can0 380#008A000000000004
(1560454234.123719) can0 488#6A00007FA5FFFFB0
(1560454234.123963) can0 540#B000000000002000
(1560454234.124220) can0 1A0#0041000000000004
(1560454234.124469) can0 2A0#0000000000004040
(1560454234.124719) can0 4A0#0000000000000000
(1560454234.124936) can0 3A0#050A00000000000F
(1560454234.125192) can0 588#E0007F800000008A
(1560454234.128721) can0 280#0926BC0300000019
(1560454234.132853) can0 470#C00300000000001F
(1560454234.133107) can0 5D0#8502502F00594000
(1560454234.133567) can0 380#008A000000000004
(1560454234.133812) can0 1A0#0041000000000005
(1560454234.134088) can0 2A0#0000000000005050
(1560454234.134306) can0 488#1A00007FA5FFFFC0
(1560454234.134561) can0 4A0#0000000000000000
(1560454234.134786) can0 4A8#FE7F00300000B001
(1560454234.135059) can0 540#C000000000002000
(1560454234.135281) can0 5A0#6B0100B50000402B
(1560454234.136754) can0 050#002580A5
(1560454234.137056) can0 550#4000000000000040
(1560454234.138508) can0 280#0900000206000016
(1560454234.138757) can0 288#59B40000004E5A6D
(1560454234.138937) can0 480#592C2E0000000259
(1560454234.139216) can0 48A#7200000000020070
(1560454234.140581) can0 320#02020001000E00BA
(1560454234.142081) can0 5D6#0000
(1560454234.143467) can0 380#008A000000000004
(1560454234.143716) can0 488#0A06067FA5FFFFD0
(1560454234.143955) can0 1A0#0041000000000006
(1560454234.144166) can0 2A0#0000000000006060
(1560454234.144417) can0 4A0#0000000000000000
(1560454234.144749) can0 3A0#040B00000000000F
(1560454234.144954) can0 540#D000000000002000
(1560454234.145198) can0 588#E1007FEF0080008A
(1560454234.146139) can0 6DA#C3FFFFFFFFFFFF00
(1560454234.148753) can0 280#090000020C000016
(1560454234.152961) can0 390#0000410000000000
(1560454234.153221) can0 35F#0080000000000000
(1560454234.153521) can0 380#008A000000000004
(1560454234.153743) can0 1A0#0041000000000007
(1560454234.153955) can0 2A0#0000000000007070
(1560454234.154278) can0 488#300C067FA5FFFFE0
(1560454234.154520) can0 4A0#0000000000000000
(1560454234.154773) can0 4A8#FE7F00300000C071
(1560454234.154947) can0 540#E000000000002000
(1560454234.155236) can0 5A0#6B0100C50000402B
(1560454234.156959) can0 050#002590B5
(1560454234.158486) can0 280#090000020C000016
(1560454234.158734) can0 288#59B40000004E766D
(1560454234.158957) can0 480#592C2E0000000259
(1560454234.159211) can0 48A#8200000000020080
(1560454234.159400) can0 56A#6900000018000071
(1560454234.160513) can0 320#02020001000F00BA
(1560454234.163489) can0 380#008A000000000004
(1560454234.163712) can0 488#3F13067FA5FFFFF0
(1560454234.163962) can0 540#F000000000002000
(1560454234.164215) can0 588#E1007F800080008A
(1560454234.164464) can0 1A0#0041000000000008
(1560454234.164673) can0 2A0#0000000000008080
(1560454234.164893) can0 4A0#0000000000000000
(1560454234.165210) can0 3A0#030C00000000000F
(1560454234.168754) can0 280#0900000213000016
(1560454234.173486) can0 380#008A000000000004
(1560454234.173719) can0 488#D019067FA5FFEA00
(1560454234.173954) can0 1A0#0041000000000009
(1560454234.174219) can0 2A0#0000000000009090
(1560454234.174475) can0 4A0#0000000000000000
(1560454234.174708) can0 4A8#FE7F00300000D061
(1560454234.174900) can0 540#0000000000002000
(1560454234.175119) can0 5A0#6B0100D50000402B
(1560454234.176755) can0 050#0025A085
(1560454234.178512) can0 280#0900000219000016
(1560454234.178742) can0 288#8FB40000004E766D
(1560454234.178988) can0 480#942C2E0000000294
(1560454234.179242) can0 48A#9200000000020090
(1560454234.180536) can0 320#02020001000000BA
(1560454234.182909) can0 470#C00300000000001F
(1560454234.183486) can0 380#008A000000000004
(1560454234.183732) can0 488#2E19067FA5FF0410
(1560454234.183956) can0 540#1000000000002000
(1560454234.184180) can0 1A0#004100000000000A
(1560454234.184469) can0 2A0#000000000000A0A0
(1560454234.184706) can0 4A0#0000000000000000
(1560454234.184954) can0 3A0#020D00000000000F
(1560454234.185160) can0 588#E1007F800080008A
(1560454234.188747) can0 280#0900000219000016
(1560454234.189001) can0 58C#10000000FE000000
(1560454234.191897) can0 497#0000000094960020
(1560454234.193497) can0 380#008A000000000004
(1560454234.193762) can0 1A0#004100000000000B
(1560454234.193996) can0 2A0#000000000000B0B0
(1560454234.194233) can0 488#6519067FA5FF7F20
(1560454234.194476) can0 4A0#0000000000000000
(1560454234.194721) can0 4A8#FE7F00300000E051
(1560454234.194968) can0 540#2000000000002000
(1560454234.195126) can0 5A0#6B0100E50000402B
(1560454234.196094) can0 6DA#C4000001
(1560454234.196686) can0 050#0025B095
(1560454234.198505) can0 280#0900000219000016
(1560454234.198656) can0 288#8FB40000004E766D
(1560454234.199101) can0 480#942C2E0000000294
(1560454234.199376) can0 48A#A2000000000200A0
(1560454234.199622) can0 56A#9900000018000081
(1560454234.200520) can0 320#02020001000100BA
(1560454234.203455) can0 380#008A000000000004
(1560454234.203714) can0 488#F519067FA5FFFF30
(1560454234.203964) can0 1A0#004100000000000C
(1560454234.204227) can0 2A0#000000000000C0C0
(1560454234.204473) can0 4A0#0000000000000000
(1560454234.204720) can0 3A0#010E00000000000F
(1560454234.204959) can0 540#3000000000002000
(1560454234.205151) can0 588#E1007F800080008A
(1560454234.208734) can0 280#0900000219000016
(1560454234.212938) can0 728#04090700040000
(1560454234.213222) can0 392#0000008000000000
(1560454234.213492) can0 380#008A000000000004
(1560454234.213742) can0 1A0#004100000000000D
(1560454234.213964) can0 2A0#000000000000D0D0
(1560454234.214182) can0 488#8519067FA5FFFF40
(1560454234.214454) can0 4A0#0000000000000000
(1560454234.214719) can0 4A8#FE7F00300000F041
(1560454234.214971) can0 540#4000000000002000
(1560454234.215071) can0 570#0B00550500
(1560454234.215318) can0 5A0#6B0100F50000402B
(1560454234.215542) can0 5DC#7D00B00108000040
(1560454234.215913) can0 64F#0000000000000000
(1560454234.216193) can0 7D0#DD0000107207BF0B
(1560454234.216780) can0 050#0025C0E5
(1560454234.218495) can0 280#0900000219000016
(1560454234.218737) can0 288#8FB40000004E766D
(1560454234.219166) can0 480#942C2E0000000294
(1560454234.219420) can0 48A#B2000000000200B0
(1560454234.220567) can0 320#02020001000200BA
(1560454234.220865) can0 420#0A9FA4000061FF00
(1560454234.221117) can0 52A#0000000000000000
(1560454234.221364) can0 5D2#0234303134333333
(1560454234.221616) can0 5F3#00006A0100000000
(1560454234.221754) can0 60E#0000
(1560454234.222004) can0 621#2019180002610000
(1560454234.222250) can0 62E#861D1172073F0C
(1560454234.222354) can0 67C#1AC2
(1560454234.222827) can0 727#04014100040000
(1560454234.223463) can0 380#008A000000000004
(1560454234.223682) can0 488#9519067FA5FFFF50
(1560454234.223935) can0 540#5000000000002000
(1560454234.224191) can0 1A0#004100000000000E
(1560454234.224447) can0 2A0#000000000000E0E0
(1560454234.224693) can0 4A0#0000000000000000
(1560454234.224940) can0 3A0#000F00000000000F
(1560454234.225190) can0 588#E1007F800080008A
(1560454234.228732) can0 280#0900000219000016
(1560454234.232949) can0 470#C00300000000001F
(1560454234.233216) can0 5D0#8502502F00594000
(1560454234.233508) can0 380#008A000000000004
(1560454234.233741) can0 1A0#004100000000000F
(1560454234.233968) can0 2A0#000000000000F0F0
(1560454234.234202) can0 488#A519067FA5FFFF60
(1560454234.234444) can0 4A0#0000000000000000
(1560454234.234717) can0 4A8#FE7F0030000000B1
(1560454234.235008) can0 540#6000000000002000
(1560454234.235185) can0 5A0#6B0100050000402B
(1560454234.236827) can0 050#0025D0F5
(1560454234.238462) can0 280#0900000219000016
(1560454234.238698) can0 288#8FB40000004E766D
(1560454234.239121) can0 480#942C2E0000000294
(1560454234.239364) can0 48A#C2000000000200C0
(1560454234.239640) can0 56A#8900000018000091
(1560454234.240613) can0 320#02020001000300BA
(1560454234.240861) can0 629#FE2FFE7F00000000
(1560454234.242280) can0 5D6#0000
(1560454234.243491) can0 380#008A000000000004
(1560454234.243718) can0 488#B519067FA5FFFF70
(1560454234.243964) can0 540#7000000000002000
(1560454234.244218) can0 1A0#0041000000000000
(1560454234.244465) can0 2A0#0000000000000000
(1560454234.244713) can0 4A0#0000000000000000
(1560454234.244963) can0 3A0#0F0000000000000F
(1560454234.245216) can0 588#E1007F800080008A
(1560454234.246164) can0 6DA#42833803FB000000
(1560454234.248639) can0 280#0900000219000016
(1560454234.252243) can0 661#8200000000000000
(1560454234.253103) can0 390#0000410000000000
(1560454234.253333) can0 35F#0080000000000000
(1560454234.253542) can0 380#008A000000000004
(1560454234.253792) can0 1A0#0041000000000001
(1560454234.254068) can0 2A0#0000000000001010
(1560454234.254267) can0 488#4519067FA5FFFF80
(1560454234.254521) can0 4A0#0000000000000000
(1560454234.254732) can0 4A8#FE7F0030000010A1
(1560454234.255064) can0 540#8000000000002000
(1560454234.255227) can0 5A0#6B0100150000402B
(1560454234.257010) can0 050#0025E0C5
(1560454234.258474) can0 280#0900D80219000016
(1560454234.258716) can0 288#D4B40000004E766D
(1560454234.258978) can0 480#E22C5D0000000291
(1560454234.259198) can0 48A#D2000000000200D0
(1560454234.260542) can0 320#02020001000400BA
(1560454234.260786) can0 62B#50201C404A001740
(1560454234.263505) can0 380#008A000000000004
(1560454234.263731) can0 488#5E180C7FA5FFFF90
(1560454234.263975) can0 540#9000000000002000
(1560454234.264233) can0 1A0#0041000000000002
(1560454234.264482) can0 2A0#0000000000002020
(1560454234.264731) can0 4A0#0000000000000000
(1560454234.264981) can0 3A0#0E0100000000000F
(1560454234.265156) can0 588#E1007F360080008A
(1560454234.268833) can0 280#0900D80218000014
(1560454234.273497) can0 380#008A000000000004
(1560454234.273746) can0 1A0#0041000000000003
(1560454234.274001) can0 2A0#0000000000003030
(1560454234.274218) can0 488#6E180C7FA5FFFFA0
(1560454234.274486) can0 4A0#0000000000000000
(1560454234.274724) can0 4A8#FE7F003000002091
(1560454234.274966) can0 540#A000000000002000
(1560454234.275181) can0 5A0#6B0100250000402B
(1560454234.276798) can0 050#0025F0D5
(1560454234.278474) can0 280#0900D80218000014
(1560454234.278711) can0 288#D4B40000004E764E
(1560454234.279153) can0 480#E22C5D0000000291
(1560454234.279426) can0 48A#E2000000000200E0
(1560454234.279635) can0 56A#B9000000180000A1
(1560454234.280550) can0 320#02020001000500BA
(1560454234.280770) can0 62D#562037409A001540
(1560454234.282802) can0 470#C00300000000001F
(1560454234.283438) can0 380#008A000000000004
(1560454234.283708) can0 488#71170C7FA5FFFFB0
(1560454234.283965) can0 1A0#0041000000000004
(1560454234.284220) can0 2A0#0000000000004040
(1560454234.284469) can0 4A0#0000000000000000
(1560454234.284715) can0 3A0#0D0200000000000F
(1560454234.284965) can0 540#B000000000002000
(1560454234.285228) can0 588#E1007F800080008A
(1560454234.287059) can0 70E#021001AAAAAAAAAA
(1560454234.288710) can0 280#0900D80218000014
(1560454234.288998) can0 58C#10000000FE000000
(1560454234.292125) can0 497#0000000094960020
(1560454234.292550) can0 778#065001003201F4AA
(1560454234.293499) can0 380#008A000000000004
(1560454234.293740) can0 1A0#0041000000000005
(1560454234.293995) can0 2A0#0000000000005050
(1560454234.294231) can0 488#00160C7FA5FFFFC0
(1560454234.294471) can0 4A0#0000000000000000
(1560454234.294690) can0 4A8#FE7F003000003081
(1560454234.294894) can0 540#C000000000002000
(1560454234.295145) can0 5A0#6B0100350000402B
(1560454234.296743) can0 050#00250025
(1560454234.298495) can0 280#0900D80217000014
(1560454234.298719) can0 288#D4B40000004E764E
(1560454234.299167) can0 480#E22C5D0000000291
(1560454234.299416) can0 48A#F2000000000200F0
(1560454234.300512) can0 320#02020001000600BA
(1560454234.303511) can0 380#008A000000000004
(1560454234.303743) can0 488#10160C7FA5FFFFD0
(1560454234.304002) can0 1A0#0041000000000006
(1560454234.304246) can0 2A0#0000000000006060
(1560454234.304491) can0 4A0#0000000000000000
(1560454234.304744) can0 3A0#0C0300000000000F
(1560454234.304995) can0 540#D000000000002000
(1560454234.305151) can0 588#E1007F800080008A
(1560454234.308671) can0 280#0900D80216000014
(1560454234.312927) can0 570#0B00590500
(1560454234.313244) can0 392#0000008000000000
(1560454234.313522) can0 380#008A000000000004
(1560454234.313733) can0 1A0#0041000000000007
(1560454234.313985) can0 2A0#0000000000007070
(1560454234.314247) can0 488#20160C7FA5FFFFE0
(1560454234.314461) can0 4A0#0000000000000000
(1560454234.314705) can0 4A8#FE7F0030000040F1
(1560454234.314991) can0 540#E000000000002000
(1560454234.315220) can0 5A0#6B0100450000402B
(1560454234.315458) can0 5DC#7D00B00108000040
(1560454234.316756) can0 050#00251035
(1560454234.318474) can0 280#0900D80216000014
(1560454234.318717) can0 288#D4B40000004E764E
(1560454234.319167) can0 480#E22C5D0000000291
(1560454234.319419) can0 48A#0200000000020000
(1560454234.319603) can0 56A#A9000000180000B1
(1560454234.320548) can0 320#02020001000700BA
(1560454234.320765) can0 520#4742021918861D01
(1560454234.321066) can0 621#2019180002610000
(1560454234.323496) can0 380#008A000000000004
(1560454234.323708) can0 488#30160C7FA5FFFFF0
(1560454234.323958) can0 540#F000000000002000
(1560454234.324189) can0 1A0#0041000000000008
(1560454234.324443) can0 2A0#0000000000008080
(1560454234.324688) can0 4A0#0000000000000000
(1560454234.324934) can0 3A0#0B0400000000000F
(1560454234.325192) can0 588#E1007F800080008A
(1560454234.328839) can0 280#0900D80216000014
(1560454234.332941) can0 470#C00300000000001F
(1560454234.333139) can0 5BF#00000050
(1560454234.333480) can0 5D0#8502502F00594000
(1560454234.333690) can0 380#008A000000000004
(1560454234.333914) can0 1A0#0041000000000009
(1560454234.334186) can0 2A0#0000000000009090
(1560454234.334422) can0 488#D5160C7FA5FFEA00
(1560454234.334619) can0 4A0#0000000000000000
(1560454234.334916) can0 4A8#FE7F0030000050E1
(1560454234.335144) can0 540#0000000000002000
(1560454234.335390) can0 5A0#6B0100550000402B
(1560454234.336810) can0 050#00252005
(1560454234.337093) can0 550#5000000000000050
(1560454234.338488) can0 280#0900D80216000014
(1560454234.338715) can0 288#11B40000004E764E
(1560454234.339167) can0 480#0F2C5D000000027C
(1560454234.339414) can0 48A#1200000000020010
(1560454234.340564) can0 320#02020001000800BA
(1560454234.342643) can0 5D6#0000
(1560454234.343493) can0 380#008A000000000004
(1560454234.343728) can0 488#2B160C7FA5FF0410
(1560454234.343969) can0 1A0#004100000000000A
(1560454234.344222) can0 2A0#000000000000A0A0
(1560454234.344477) can0 4A0#0000000000000000
(1560454234.344730) can0 3A0#0A0500000000000F
(1560454234.344972) can0 540#1000000000002000
(1560454234.345221) can0 588#E1007F800080008A
(1560454234.348722) can0 280#0900D80216000014
(1560454234.352814) can0 390#0000410000000000
(1560454234.353103) can0 35F#0080000000000000
(1560454234.353493) can0 380#008A000000000004
(1560454234.353698) can0 1A0#004100000000000B
(1560454234.353975) can0 2A0#000000000000B0B0
(1560454234.354211) can0 488#60160C7FA5FF7F20
(1560454234.354463) can0 4A0#0000000000000000
(1560454234.354657) can0 4A8#FE7F0030000060D1
(1560454234.354902) can0 540#2000000000002000
(1560454234.355128) can0 5A0#6B0100650000402B
(1560454234.356951) can0 050#00253015
(1560454234.358473) can0 280#0900D80216000014
(1560454234.358697) can0 288#11B40000004E764E
(1560454234.359147) can0 480#0F2C5D000000027C
(1560454234.359400) can0 48A#2200000000020020
(1560454234.359645) can0 56A#D9000000180000C1
(1560454234.360543) can0 320#02020001000900BA
(1560454234.363463) can0 380#008A000000000004
(1560454234.363713) can0 488#F0160C7FA5FFFF30
(1560454234.363962) can0 540#3000000000002000
(1560454234.364173) can0 1A0#004100000000000C
(1560454234.364440) can0 2A0#000000000000C0C0
(1560454234.364685) can0 4A0#0000000000000000
(1560454234.364938) can0 3A0#090600000000000F
(1560454234.365178) can0 588#E1007F800080008A
(1560454234.368724) can0 280#0900D80216000014
(1560454234.373460) can0 380#008A000000000004
(1560454234.373700) can0 1A0#004100000000000D
(1560454234.373948) can0 2A0#000000000000D0D0
(1560454234.374204) can0 488#9D16117FA5FFFF40
(1560454234.374427) can0 4A0#0000000000000000
(1560454234.374742) can0 4A8#FE7F0030000070C1
(1560454234.374995) can0 540#4000000000002000
(1560454234.375245) can0 5A0#6B0100750000402B
(1560454234.376735) can0 050#00254065
(1560454234.378531) can0 280#09183C0316000012
(1560454234.378722) can0 288#11B40000004E7640
(1560454234.379199) can0 480#0F2C8C00000002AD
(1560454234.379446) can0 48A#3200000000020030
(1560454234.380545) can0 320#02020001000A00BA
(1560454234.383014) can0 470#C00300000000001F
(1560454234.383500) can0 380#008A000000000004
(1560454234.383672) can0 488#8E15117FA5FFFF50
(1560454234.383949) can0 1A0#004100000000000E
(1560454234.384248) can0 2A0#000000000000E0E0
(1560454234.384494) can0 4A0#0000000000000000
(1560454234.384778) can0 3A0#080700000000000F
(1560454234.384943) can0 540#5000000000002000
(1560454234.385126) can0 588#E1007F190080008A
(1560454234.388788) can0 280#09183C0315000012
(1560454234.389088) can0 58C#10000000FE000000
(1560454234.391953) can0 497#0000000094960020
(1560454234.393544) can0 380#008A000000000004
(1560454234.393732) can0 1A0#004100000000000F
(1560454234.393963) can0 2A0#000000000000F0F0
(1560454234.394209) can0 488#BF14117FA5FFFF60
(1560454234.394423) can0 4A0#0000000000000000
(1560454234.394725) can0 4A8#FE7F003000008031
(1560454234.394979) can0 540#6000000000002000
(1560454234.395195) can0 5A0#6B0100850000402B
(1560454234.396795) can0 050#00255075
(1560454234.398485) can0 280#09183C0315000012
(1560454234.398694) can0 288#11B40000004E7640
(1560454234.399157) can0 480#0F2C8C00000002AD
(1560454234.399414) can0 48A#4200000000020040
(1560454234.399653) can0 56A#C9000000180000D1
(1560454234.400489) can0 320#02020001000B00BA
(1560454234.403511) can0 380#008A000000000004
(1560454234.403715) can0 488#AF14117FA5FFFF70
(1560454234.403942) can0 540#7000000000002000
(1560454234.404200) can0 1A0#0041000000000000
(1560454234.404448) can0 2A0#0000000000000000
(1560454234.404694) can0 4A0#0000000000000000
(1560454234.404942) can0 3A0#070800000000000F
(1560454234.405185) can0 588#E1007F800080008A
(1560454234.408735) can0 280#09183C0314000012
(1560454234.412928) can0 728#04090700040000
(1560454234.413212) can0 392#0000008000000000
(1560454234.413494) can0 380#008A000000000004
(1560454234.413745) can0 1A0#0041000000000001
(1560454234.413989) can0 2A0#0000000000001010
(1560454234.414203) can0 488#5F14117FA5FFFF80
(1560454234.414446) can0 4A0#0000000000000000
(1560454234.414674) can0 4A8#FE7F003000009021
(1560454234.414951) can0 540#8000000000002000
(1560454234.415141) can0 570#0B005B0500
(1560454234.415371) can0 5A0#6B0100950000402B
(1560454234.415619) can0 5DC#7D00B00108000040
(1560454234.416779) can0 050#00256045
(1560454234.418518) can0 280#09183C0314000012
(1560454234.418751) can0 288#59B40000004E7640
(1560454234.419171) can0 480#592C8C00000002FB
(1560454234.419424) can0 48A#5200000000020050
(1560454234.420562) can0 320#02020001000C00BA
(1560454234.420740) can0 420#0A9FA4000061FF00
(1560454234.421026) can0 5D2#00FFFFFFFF394257
(1560454234.421297) can0 621#2019180002610000
(1560454234.421547) can0 727#04014100040000
(1560454234.423511) can0 380#008A000000000004
(1560454234.423741) can0 488#4F14117FA5FFFF90
(1560454234.423971) can0 540#9000000000002000
(1560454234.424231) can0 1A0#0041000000000002
(1560454234.424470) can0 2A0#0000000000002020
(1560454234.424648) can0 4A0#0000000000000000
(1560454234.424895) can0 3A0#060900000000000F
(1560454234.425226) can0 588#E1007F800080008A
(1560454234.428783) can0 280#09183C0314000012
(1560454234.432968) can0 470#C00300000000001F
(1560454234.433228) can0 5D0#8502502F00594000
(1560454234.433559) can0 380#008A000000000004
(1560454234.433801) can0 1A0#0041000000000003
(1560454234.434096) can0 2A0#0000000000003030
(1560454234.434327) can0 488#7F14117FA5FFFFA0
(1560454234.434545) can0 4A0#0000000000000000
(1560454234.434780) can0 4A8#FE7F00300000A011
(1560454234.435061) can0 540#A000000000002000
(1560454234.435206) can0 5A0#6B0100A50000402B
(1560454234.436869) can0 050#00257055
(1560454234.438496) can0 280#09183C0314000012
(1560454234.438740) can0 288#59B40000004E7640
(1560454234.439170) can0 480#592C8C00000002FB
(1560454234.439425) can0 48A#6200000000020060
(1560454234.439668) can0 56A#F9000000180000E1
(1560454234.440564) can0 320#02020001000D00BA
(1560454234.442186) can0 5D6#0000
(1560454234.443487) can0 380#008A000000000004
(1560454234.443735) can0 488#6C13157FA5FFFFB0
(1560454234.443985) can0 1A0#0041000000000004
(1560454234.444217) can0 2A0#0000000000004040
(1560454234.444461) can0 4A0#0000000000000000
(1560454234.444710) can0 3A0#050A00000000000F
(1560454234.444962) can0 540#B000000000002000
(1560454234.445232) can0 588#E1007F7E0080008A
(1560454234.448809) can0 280#092EC00613000011
(1560454234.452840) can0 390#0000410000000000
(1560454234.453087) can0 35F#0080000000000000
(1560454234.453468) can0 380#008A000000000004
(1560454234.453730) can0 1A0#0041000000000005
(1560454234.453989) can0 2A0#0000000000005050
(1560454234.454194) can0 488#1C13157FA5FFFFC0
(1560454234.454466) can0 4A0#0000000000000000
(1560454234.454714) can0 4A8#FE7F00300000B001
(1560454234.454928) can0 540#C000000000002000
(1560454234.455169) can0 5A0#6B0100B50000402B
(1560454234.456866) can0 050#002580A5
(1560454234.458440) can0 280#092EC00613000011
(1560454234.458673) can0 288#59B40000004E7635
(1560454234.459155) can0 480#592CBB00000002CC
(1560454234.459409) can0 48A#4D3F000000020070
(1560454234.460539) can0 320#02020001000E00BA
(1560454234.463477) can0 380#008A000000000004
(1560454234.463743) can0 488#0C13157FA5FFFFD0
(1560454234.463987) can0 540#D000000000002000
(1560454234.464214) can0 1A0#0041000000000006
(1560454234.464465) can0 2A0#0000000000006060
(1560454234.464713) can0 4A0#0000000000000000
(1560454234.464896) can0 3A0#040B00000000000F
(1560454234.465178) can0 588#E1007F800080008A
(1560454234.468783) can0 280#092EC00613000011
(1560454234.468965) can0 58F#00FEFF7F00000018
(1560454234.472830) can0 470#400300000000001F
(1560454234.473527) can0 380#008A000000000004
(1560454234.473743) can0 1A0#0041000000000007
(1560454234.473983) can0 2A0#0000000000007070
(1560454234.474209) can0 488#3D12157FA5FFFFE0
(1560454234.474465) can0 4A0#0000000000000000
(1560454234.474724) can0 4A8#FE7F00300000C071
(1560454234.474967) can0 540#E000000000002000
(1560454234.475190) can0 5A0#6B0100C50000402B
(1560454234.476694) can0 050#002590B5
(1560454234.478489) can0 280#092EC00613000011
(1560454234.478690) can0 288#59B40000004E7635
(1560454234.479100) can0 480#592CBB00000002CC
(1560454234.479429) can0 48A#E163000000020080
(1560454234.479651) can0 56A#E9000000180000F1
(1560454234.480589) can0 320#02020001000F00BA
(1560454234.483484) can0 380#008A000000000004
(1560454234.483716) can0 488#2D12157FA5FFFFF0
(1560454234.483979) can0 1A0#0041000000000008
(1560454234.484237) can0 2A0#0000000000008080
(1560454234.484474) can0 4A0#0000000000000000
(1560454234.484721) can0 3A0#030C00000000000F
(1560454234.484969) can0 540#F000000000002000
(1560454234.485219) can0 588#E1007F800080008A
(1560454234.488701) can0 280#092ED80912000011
(1560454234.488927) can0 58C#10000000FE000000
(1560454234.492118) can0 497#0000000094960020
(1560454234.493483) can0 380#008A000000000004
(1560454234.493737) can0 1A0#0041000000000009
(1560454234.493979) can0 2A0#0000000000009090
(1560454234.494217) can0 488#9612137FA5FFB200
(1560454234.494487) can0 4A0#0000000000000000
(1560454234.494719) can0 4A8#FE7F00300000D061
(1560454234.494961) can0 540#0000000000002000
(1560454234.495127) can0 5A0#6B0100D50000402B
(1560454234.496693) can0 050#0025A085
(1560454234.498422) can0 280#0940D8091200000B
(1560454234.498685) can0 288#8FB40000004E761A
(1560454234.499121) can0 480#942CEA0000000250
(1560454234.499375) can0 48A#E775000000020090
(1560454234.500492) can0 320#02020001000000BA
(1560454234.503494) can0 380#008A000000000004
(1560454234.503747) can0 488#3012137FA5FF0410
(1560454234.503970) can0 1A0#004100000000000A
(1560454234.504223) can0 2A0#000000000000A0A0
(1560454234.504471) can0 4A0#0000000000000000
(1560454234.504721) can0 3A0#020D00000000000F
(1560454234.504967) can0 540#1000000000002000
(1560454234.505153) can0 588#E1007F7E0080008A
(1560454234.508867) can0 280#0940D80912000009
(1560454234.512788) can0 570#8B00680500
(1560454234.513119) can0 392#0000008000000000
(1560454234.513396) can0 5DC#7D00B00108000040
(1560454234.513648) can0 1A0#004100000000000B
(1560454234.513897) can0 2A0#000000000000B0B0
(1560454234.514144) can0 380#008A000000000004
(1560454234.514393) can0 488#7811137FA5FF7F20
(1560454234.514642) can0 4A0#0000000000000000
(1560454234.514870) can0 4A8#FE7F00300000E051
(1560454234.515126) can0 540#2000000000002000
(1560454234.515354) can0 5A0#6B0100E50000402B
(1560454234.516693) can0 050#0025B095
(1560454234.518455) can0 280#0940D80912000009
(1560454234.518755) can0 288#8FB40000004E7B1A
(1560454234.519169) can0 480#942CEA0000000250
(1560454234.519353) can0 48A#3D9F0000000200A0
(1560454234.519629) can0 56A#1900000018000001
(1560454234.520515) can0 320#02020001000100BA
(1560454234.520716) can0 520#1787021918861D01
(1560454234.521096) can0 621#2019180002610000
(1560454234.522808) can0 470#400300000000001F
(1560454234.523489) can0 380#008A000000000004
(1560454234.523695) can0 488#E811137FA5FFFF30
(1560454234.523974) can0 540#3000000000002000
(1560454234.524187) can0 1A0#004100000000000C
(1560454234.524436) can0 2A0#000000000000C0C0
(1560454234.524684) can0 4A0#0000000000000000
(1560454234.524932) can0 3A0#010E00000000000F
(1560454234.525196) can0 588#E1007F800080008A
(1560454234.528817) can0 280#09405C0C11000009
(1560454234.532937) can0 5D0#8502502F00594000
(1560454234.533438) can0 380#008A000000000004
(1560454234.533683) can0 1A0#004100000000000D
(1560454234.533901) can0 2A0#000000000000D0D0
(1560454234.534143) can0 488#850F107FA5FFFF40
(1560454234.534391) can0 4A0#0000000000000000
(1560454234.534647) can0 4A8#FE7F00300000F041
(1560454234.534943) can0 540#4000000000002000
(1560454234.535144) can0 5A0#6B0100F50000402B
(1560454234.536738) can0 050#0025C0E5
(1560454234.537121) can0 550#6000000000000060
(1560454234.538538) can0 280#09505C0C0F000006
(1560454234.538693) can0 288#8FB40000004E7B13
(1560454234.539208) can0 480#942C1401000002AF
(1560454234.539505) can0 48A#06B40000000200B0
(1560454234.540539) can0 320#02020001000200BA
(1560454234.542333) can0 5D6#0000
(1560454234.543468) can0 380#008A000000000004
(1560454234.543720) can0 488#970D107FA5FFFF50
(1560454234.543964) can0 1A0#004100000000000E
(1560454234.544198) can0 2A0#000000000000E0E0
(1560454234.544439) can0 4A0#0000000000000000
(1560454234.544706) can0 3A0#000F00000000000F
(1560454234.544946) can0 540#5000000000002000
(1560454234.545182) can0 588#E1007F7E0080008A
(1560454234.548754) can0 280#09505C0C0D000006
(1560454234.552955) can0 390#0000410000000000
(1560454234.553230) can0 35F#0080000000000000
(1560454234.553504) can0 380#008A000000000004
(1560454234.553752) can0 1A0#004100000000000F
(1560454234.554003) can0 2A0#000000000000F0F0
(1560454234.554225) can0 488#A10B107FA5FFFF60
(1560454234.554467) can0 4A0#0000000000000000
(1560454234.554712) can0 4A8#FE7F0030000000B1
(1560454234.554966) can0 540#6000000000002000
(1560454234.555199) can0 5A0#6B0100050000402B
(1560454234.556991) can0 050#0025D0F5
(1560454234.559082) can0 280#0950500E0B000006
(1560454234.559307) can0 288#8FB40000004E8413
(1560454234.559557) can0 480#942C1401000002AF
(1560454234.559790) can0 48A#18DA0000000200C0
(1560454234.560093) can0 56A#0900000018000011
(1560454234.560600) can0 320#02020001000300BA
(1560454234.563500) can0 380#008A000000000004
(1560454234.563715) can0 488#A7161B7FA5FFFF70
(1560454234.563968) can0 540#7000000000002000
(1560454234.564213) can0 1A0#0041000000000000
(1560454234.564457) can0 2A0#0000000000000000
(1560454234.564764) can0 4A0#0000000000000000
(1560454234.564969) can0 3A0#0F0000000000000F
(1560454234.565224) can0 588#E1007F7D0080008A
(1560454234.568779) can0 280#0948500E16000005
(1560454234.572804) can0 470#400300000000001F
(1560454234.573589) can0 380#008A000000000004
(1560454234.573860) can0 1A0#0041000000000001
(1560454234.574087) can0 2A0#0000000000001010
(1560454234.574339) can0 488#65241B7FA5FFFF80
(1560454234.574576) can0 4A0#0000000000000000
(1560454234.574831) can0 4A8#FE7F0030000010A1
(1560454234.575077) can0 540#8000000000002000
(1560454234.575279) can0 5A0#6B0100150000402B
(1560454234.576749) can0 050#0025E0C5
(1560454234.578448) can0 280#0948500E16000005
(1560454234.578689) can0 288#D4B40000004E840D
(1560454234.579148) can0 480#E22C3A01000002F7
(1560454234.579391) can0 48A#D2010100000200D0
(1560454234.580543) can0 320#02020001000400BA
(1560454234.583455) can0 380#008A000000000004
(1560454234.583670) can0 488#60311B7FA5FFFF90
(1560454234.583942) can0 1A0#0041000000000002
(1560454234.584193) can0 2A0#0000000000002020
(1560454234.584440) can0 4A0#0000000000000000
(1560454234.584690) can0 3A0#0E0100000000000F
(1560454234.584942) can0 540#9000000000002000
(1560454234.585181) can0 588#E1007F800080008A
(1560454234.589475) can0 280#09488C0F24000005
(1560454234.589731) can0 58C#10000000FE000000
(1560454234.592096) can0 497#0000000094960020
(1560454234.593497) can0 380#008A000000000004
(1560454234.593690) can0 1A0#0041000000000003
(1560454234.593950) can0 2A0#0000000000003030
(1560454234.594183) can0 488#633F267FA5FFFFA0
(1560454234.594468) can0 4A0#0000000000000000
(1560454234.594667) can0 4A8#FE7F003000002091
(1560454234.594932) can0 540#A000000000002000
(1560454234.595182) can0 5A0#6B0100250000402B
(1560454234.596790) can0 050#0025F0D5
(1560454234.598514) can0 280#093F8C0F2D000D0C
(1560454234.598714) can0 288#D4B40000004E9D0D
(1560454234.599175) can0 480#E22C57010000029A
(1560454234.599431) can0 48A#C1220100000200E0
(1560454234.599593) can0 56A#3900000018000021
(1560454234.600520) can0 320#02020001000500BA
(1560454234.603478) can0 380#008A000000000005
(1560454234.603675) can0 488#733F267FA5FFFFB0
(1560454234.603957) can0 1A0#0041000000000004
(1560454234.604179) can0 2A0#0000000000004040
(1560454234.604423) can0 4A0#0000000000000000
(1560454234.604671) can0 3A0#0D0200000000000F
(1560454234.604918) can0 540#B000000000002000
(1560454234.605206) can0 588#E1007F4F0080008A
(1560454234.608787) can0 280#093F8C0F36000D05
(1560454234.612924) can0 728#04090700040000
(1560454234.613191) can0 392#0000008000000000
(1560454234.613471) can0 380#008A000000000006
(1560454234.613724) can0 1A0#0041000000000005
(1560454234.613974) can0 2A0#0000000000005050
(1560454234.614221) can0 488#7C40267FA5FFFFC0
(1560454234.614445) can0 4A0#0000000000000000
(1560454234.614675) can0 4A8#FE7F003000003081
(1560454234.614925) can0 540#C000000000002000
(1560454234.615093) can0 570#8B006E0500
(1560454234.615343) can0 5A0#6B0100350000402B
(1560454234.615588) can0 5DC#7D00B00108000040
(1560454234.616703) can0 050#00250025
(1560454234.618899) can0 280#093FBC0F32000D04
(1560454234.619146) can0 288#D4B40000004EA30D
(1560454234.619367) can0 480#E22C57010000029A
(1560454234.619616) can0 48A#C1320100000200F0
(1560454234.620497) can0 320#02020001000600BA
(1560454234.620750) can0 420#0A9FA4000061FF00
(1560454234.621044) can0 5D2#01414234355A3848
(1560454234.621261) can0 621#2019180002610000
(1560454234.621484) can0 727#04014100040000
(1560454234.622814) can0 470#400300000000001F
(1560454234.623455) can0 380#008A000000000007
(1560454234.623721) can0 488#043F317FA5FFFFD0
(1560454234.623965) can0 540#D000000000002000
(1560454234.624199) can0 1A0#0041000000000006
(1560454234.624446) can0 2A0#0000000000006060
(1560454234.624718) can0 4A0#0000000000000000
(1560454234.624965) can0 3A0#0C0300000000000F
(1560454234.625182) can0 588#E1007F0C0080008A
(1560454234.628839) can0 280#092FBC0F2B000D04
(1560454234.632915) can0 5D0#8502502F00594000
(1560454234.633625) can0 380#008A000000000009
(1560454234.633815) can0 1A0#0041000000000007
(1560454234.634118) can0 2A0#0000000000007070
(1560454234.634291) can0 488#343F317FA5FFFFE0
(1560454234.634580) can0 4A0#0000000000000000
(1560454234.634810) can0 4A8#FE7F0030000040F1
(1560454234.635099) can0 540#E000000000002000
(1560454234.635291) can0 5A0#6B0100450000402B
(1560454234.636740) can0 050#00251035
(1560454234.638465) can0 280#092FBC0F2B000D04
(1560454234.638695) can0 288#D4B40000004EA30C
(1560454234.639136) can0 480#E22C7001000002BD
(1560454234.639384) can0 48A#3E3D010000020000
(1560454234.639608) can0 56A#2900000018000031
(1560454234.640484) can0 320#02020001000700BA
(1560454234.642256) can0 5D6#0000
(1560454234.643456) can0 380#008A00000000000B
(1560454234.643727) can0 488#253E317FA5FFFFF0
(1560454234.643985) can0 1A0#0041000000000008
(1560454234.644221) can0 2A0#0000000000008080
(1560454234.644507) can0 4A0#0000000000000000
(1560454234.644726) can0 3A0#0B0400000000000F
(1560454234.644940) can0 540#F000000000002000
(1560454234.645147) can0 588#E1007F800080008A
(1560454234.649317) can0 280#092F940F27000D04
(1560454234.652840) can0 390#0000410000000000
(1560454234.653091) can0 35F#0080000000000000
(1560454234.653491) can0 380#008A00000000000D
(1560454234.653747) can0 1A0#0041000000000009
(1560454234.653988) can0 2A0#0000000000009090
(1560454234.654234) can0 488#4D3D3E7FA5FF6B00
(1560454234.654487) can0 4A0#0000000000000000
(1560454234.654738) can0 4A8#FE7F0030000050E1
(1560454234.654975) can0 540#0000000000002000
(1560454234.655213) can0 5A0#6B0100550000402B
(1560454234.656923) can0 050#00252005
(1560454234.658505) can0 280#0923940F23000D04
(1560454234.658727) can0 288#11B40000004EA30C
(1560454234.659180) can0 480#0F2C8701000002A7
(1560454234.659430) can0 48A#5142010000020010
(1560454234.660504) can0 320#02020001000800BA
(1560454234.663682) can0 380#008A00000000000D
(1560454234.663869) can0 488#3A3C3E7FA5FF0D10
(1560454234.664126) can0 1A0#004100000000000A
(1560454234.664383) can0 2A0#000000000000A0A0
(1560454234.664623) can0 4A0#0000000000000000
(1560454234.664848) can0 3A0#0A0500000000000F
(1560454234.665130) can0 540#1000000000002000
(1560454234.665372) can0 588#E1007F8A0080008A
(1560454234.668772) can0 280#0923940F1F000D04
(1560454234.672927) can0 470#400300000000001F
(1560454234.673499) can0 380#008A00000000000D
(1560454234.673778) can0 1A0#004100000000000B
(1560454234.674005) can0 2A0#000000000000B0B0
(1560454234.674264) can0 488#783C3E7FA5FF7F20
(1560454234.674512) can0 4A0#0000000000000000
(1560454234.674760) can0 4A8#FE7F0030000060D1
(1560454234.675009) can0 540#2000000000002000
(1560454234.675213) can0 5A0#6B0100650000402B
(1560454234.676742) can0 050#00253015
(1560454234.679570) can0 280#0923540F1F000D04
(1560454234.679856) can0 288#11B40000004EA30C
(1560454234.680104) can0 480#0F2C8701000002A7
(1560454234.680350) can0 48A#6043010000020020
(1560454234.680600) can0 320#02020001000900BA
(1560454234.680824) can0 56A#5900000018000041
(1560454234.683465) can0 380#008A00000000000E
(1560454234.683670) can0 488#EC3A3C7FA5FFFF30
(1560454234.683963) can0 1A0#004100000000000C
(1560454234.684233) can0 2A0#000000000000C0C0
(1560454234.684502) can0 4A0#0000000000000000
(1560454234.684748) can0 3A0#090600000000000F
(1560454234.685005) can0 540#3000000000002000
(1560454234.685192) can0 588#E1007F900080008A
(1560454234.688819) can0 280#0916540F1F000D04
(1560454234.689077) can0 58C#10000000FE000000
(1560454234.692099) can0 497#0000000094960020
(1560454234.693718) can0 1A0#004100000000000D
(1560454234.693964) can0 2A0#000000000000D0D0
(1560454234.694216) can0 4A0#0000000000000000
(1560454234.694468) can0 380#008A00000000000F
(1560454234.694695) can0 488#9C3A3C7FA5FFFF40
(1560454234.694937) can0 4A8#FE7F0030000070C1
(1560454234.695192) can0 540#4000000000002000
(1560454234.695389) can0 5A0#6B0100750000402B
(1560454234.696700) can0 050#00254065
(1560454234.698527) can0 280#0916540F1F000D04
(1560454234.698713) can0 288#11B40000004EA30D
(1560454234.699167) can0 480#0F2C9C01000002BC
(1560454234.699421) can0 48A#7043010000020030
(1560454234.700480) can0 320#02020001000A00BA
(1560454234.703484) can0 380#008A000000000010
(1560454234.703746) can0 488#8F393C7FA5FFFF50
(1560454234.703973) can0 1A0#004100000000000E
(1560454234.704230) can0 2A0#000000000000E0E0
(1560454234.704480) can0 4A0#0000000000000000
(1560454234.704730) can0 3A0#080700000000000F
(1560454234.704976) can0 540#5000000000002000
(1560454234.705156) can0 588#E1007F800080008A
(1560454234.708741) can0 280#0916540F1F000D04
(1560454234.712853) can0 570#8B00710500
(1560454234.713134) can0 392#0000008000000000
(1560454234.713429) can0 5DC#7D00B00108000040
(1560454234.713662) can0 1A0#004100000000000F
(1560454234.713909) can0 2A0#000000000000F0F0
(1560454234.714176) can0 380#008A000000000011
(1560454234.714408) can0 488#B8383A7FA5FFFF60
(1560454234.714656) can0 4A0#0000000000000000
(1560454234.714871) can0 4A8#FE7F003000008031
(1560454234.715073) can0 540#6000000000002000
(1560454234.715327) can0 5A0#6B0100850000402B
(1560454234.715575) can0 64F#0000000000000000
(1560454234.716763) can0 050#00255075
(1560454234.718481) can0 280#090C2C0F1E000D04
(1560454234.718736) can0 288#11B40000004EA20D
(1560454234.719186) can0 480#0F2CB20100000292
(1560454234.719422) can0 48A#0043010000020040
(1560454234.719660) can0 56A#4900000018000051
(1560454234.720476) can0 320#06020001000B00BA
(1560454234.720703) can0 520#55C4021918861D01
(1560454234.721105) can0 5F3#00006A0100000000
(1560454234.721261) can0 621#2019180002610000
(1560454234.721393) can0 67C#1AC2
(1560454234.722790) can0 470#400300000000001F
(1560454234.723460) can0 380#008A000000000011
(1560454234.723691) can0 488#A8383A7FA5FFFF70
(1560454234.723920) can0 540#7000000000002000
(1560454234.724172) can0 1A0#0041000000000000
(1560454234.724420) can0 2A0#0000000000000000
(1560454234.724692) can0 4A0#0000000000000000
(1560454234.724916) can0 3A0#070800000000000F
(1560454234.725183) can0 588#E1007F8A0080008A
(1560454234.728797) can0 280#090C2C0F1E000D04
(1560454234.732901) can0 5D0#8502502F00594000
(1560454234.733429) can0 380#008A000000000011
(1560454234.733672) can0 1A0#0041000000000001
(1560454234.733918) can0 2A0#0000000000001010
(1560454234.734177) can0 488#58383A7FA5FFFF80
(1560454234.734425) can0 4A0#0000000000000000
(1560454234.734675) can0 4A8#FE7F003000009021
(1560454234.734961) can0 540#8000000000002000
(1560454234.735181) can0 5A0#6B0100950000402B
(1560454234.737098) can0 050#00256045
(1560454234.737257) can0 550#7000000000000070
(1560454234.738506) can0 280#090C2C0F1D000D04
(1560454234.738699) can0 288#59B40000004EA10D
(1560454234.739153) can0 480#592CB201000002C4
(1560454234.739379) can0 48A#1043010000020050
(1560454234.740528) can0 320#06020001000C00BA
(1560454234.742141) can0 5D6#0000
(1560454234.743486) can0 380#008A000000000011
(1560454234.743681) can0 488#4537387FA5FFFF90
(1560454234.743985) can0 1A0#0041000000000002
(1560454234.744223) can0 2A0#0000000000002020
(1560454234.744448) can0 4A0#0000000000000000
(1560454234.744694) can0 3A0#060900000000000F
(1560454234.744967) can0 540#9000000000002000
(1560454234.745194) can0 588#E1007F930080008A
(1560454234.748829) can0 280#090DE00E1D000E05
(1560454234.752836) can0 390#0000410000000000
(1560454234.753108) can0 35F#0080000000000000
(1560454234.753454) can0 380#008A000000000011
(1560454234.753744) can0 1A0#0041000000000003
(1560454234.753988) can0 2A0#0000000000003030
(1560454234.754211) can0 488#7537387FA5FFFFA0
(1560454234.754461) can0 4A0#0000000000000000
(1560454234.754711) can0 4A8#FE7F00300000A011
(1560454234.754958) can0 540#A000000000002000
(1560454234.755195) can0 5A0#6B0100A50000402B
(1560454234.757015) can0 050#00257055
(1560454234.758494) can0 280#090DE00E1D000E05
(1560454234.758744) can0 288#59B40000004EA10D
(1560454234.759208) can0 480#592CC901000002BF
(1560454234.759386) can0 48A#2043010000020060
(1560454234.759641) can0 56A#7900000018000061
(1560454234.760445) can0 320#06020001000D00BA
(1560454234.763498) can0 380#008A000000000010
(1560454234.763745) can0 488#6436387FA5FFFFB0
(1560454234.763968) can0 540#B000000000002000
(1560454234.764225) can0 1A0#0041000000000004
(1560454234.764475) can0 2A0#0000000000004040
(1560454234.764719) can0 4A0#0000000000000000
(1560454234.764968) can0 3A0#050A00000000000F
(1560454234.765185) can0 588#E1007F800080008A
(1560454234.768750) can0 280#090DE00E1D000E05
(1560454234.772833) can0 470#400300000000001F
(1560454234.773642) can0 1A0#0041000000000005
(1560454234.773906) can0 2A0#0000000000005050
(1560454234.774160) can0 380#008A000000000010
(1560454234.774394) can0 488#1436387FA5FFFFC0
(1560454234.774640) can0 4A0#0000000000000000
(1560454234.774901) can0 4A8#FE7F00300000B001
(1560454234.775119) can0 540#C000000000002000
(1560454234.775354) can0 5A0#6B0100B50000402B
(1560454234.776718) can0 050#002580A5
(1560454234.778455) can0 280#090DD40E1D000E05
(1560454234.778728) can0 288#59B40000004EA00D
(1560454234.779161) can0 480#592CE10100000297
(1560454234.779410) can0 48A#3043010000020070
(1560454234.780482) can0 320#06020001000E00BA
(1560454234.783443) can0 380#008A000000000010
(1560454234.783676) can0 488#0B36377FA5FFFFD0
(1560454234.783928) can0 1A0#0041000000000006
(1560454234.784181) can0 2A0#0000000000006060
(1560454234.784426) can0 4A0#0000000000000000
(1560454234.784674) can0 3A0#040B00000000000F
(1560454234.784927) can0 540#D000000000002000
(1560454234.785171) can0 588#E1007F830080008A
(1560454234.788742) can0 280#090DD40E1C000E05
(1560454234.789063) can0 58C#10000000FE000000
(1560454234.791927) can0 497#0000000094960020
(1560454234.793508) can0 380#008A000000000010
(1560454234.793777) can0 1A0#0041000000000007
(1560454234.794004) can0 2A0#0000000000007070
(1560454234.794250) can0 488#3B36377FA5FFFFE0
(1560454234.794501) can0 4A0#0000000000000000
(1560454234.794752) can0 4A8#FE7F00300000C071
(1560454234.795001) can0 540#E000000000002000
(1560454234.795227) can0 5A0#6B0100C50000402B
(1560454234.796786) can0 050#002590B5
(1560454234.798491) can0 280#090DD40E1C000E05
(1560454234.798713) can0 288#59B40000004EA00D
(1560454234.799158) can0 480#592CE10100000297
(1560454234.799389) can0 48A#C043010000020080
(1560454234.799625) can0 56A#6900000018000071
(1560454234.800461) can0 320#04021701000F00BA
(1560454234.803477) can0 380#008A000000000010
(1560454234.803710) can0 488#2835377FA5FFFFF0
(1560454234.803959) can0 1A0#0041000000000008
(1560454234.804195) can0 2A0#0000000000008080
(1560454234.804451) can0 4A0#0000000000000000
(1560454234.804700) can0 3A0#030C00000000000F
(1560454234.805028) can0 540#F000000000002000
(1560454234.805208) can0 588#E1007F800080008A
(1560454234.808885) can0 280#090DE40E1A000F05
(1560454234.812789) can0 728#04090700040000
(1560454234.813068) can0 392#0000008000000000
(1560454234.813270) can0 570#8B008F0500
(1560454234.813515) can0 380#008A000000000010
(1560454234.813786) can0 1A0#0041000000000009
(1560454234.814068) can0 2A0#0000000000009090
(1560454234.814269) can0 488#5634357FA5FF7200
(1560454234.814528) can0 4A0#0000000000000000
(1560454234.814773) can0 4A8#FE7F00300000D061
(1560454234.815052) can0 540#0000000000002000
(1560454234.815271) can0 5A0#6B0100D50000402B
(1560454234.815467) can0 5DC#7D00B00108000040
(1560454234.816693) can0 050#0025A085
(1560454234.818435) can0 280#090DE40E1A000F05
(1560454234.818649) can0 288#8FB40000004EA00C
(1560454234.819134) can0 480#942CFB0100000240
(1560454234.819342) can0 48A#D043010000020090
(1560454234.820451) can0 320#04021701000000BA
(1560454234.820722) can0 420#0A9FA4000061FF00
(1560454234.820947) can0 5D2#0234303134333333
(1560454234.821177) can0 621#2019181702610000
(1560454234.821403) can0 727#04014100040000
(1560454234.822904) can0 470#400300000000001F
(1560454234.823421) can0 380#008A000000000010
(1560454234.823670) can0 488#2534357FA5FF1110
(1560454234.823940) can0 1A0#004100000000000A
(1560454234.824152) can0 2A0#000000000000A0A0
(1560454234.824400) can0 4A0#0000000000000000
(1560454234.824649) can0 3A0#020D00000000000F
(1560454234.824897) can0 540#1000000000002000
(1560454234.825147) can0 588#E1007F040080008A
(1560454234.828771) can0 280#090DE40E19000F05
(1560454234.832745) can0 5D0#8502502F00594000
(1560454234.833425) can0 380#008A000000000010
(1560454234.833727) can0 1A0#004100000000000B
(1560454234.833947) can0 2A0#000000000000B0B0
(1560454234.834204) can0 488#7B34357FA5FF7F20
(1560454234.834473) can0 4A0#0000000000000000
(1560454234.834681) can0 4A8#FE7F00300000E051
(1560454234.834942) can0 540#2000000000002000
(1560454234.835174) can0 5A0#6B0100E50000402B
(1560454234.836790) can0 050#0025B095
(1560454234.838450) can0 280#090DD80E18000F05
(1560454234.838680) can0 288#8FB40000004EA10C
(1560454234.839111) can0 480#942C1502000002AD
(1560454234.839380) can0 48A#E0430100000200A0
(1560454234.839607) can0 56A#9900000018000081
(1560454234.840428) can0 320#04021701000100BA
(1560454234.842107) can0 5D6#0000
(1560454234.843453) can0 380#008A000000000010
(1560454234.843672) can0 488#ED33347FA5FFFF30
(1560454234.843917) can0 540#3000000000002000
(1560454234.844146) can0 1A0#004100000000000C
(1560454234.844473) can0 2A0#000000000000C0C0
(1560454234.844655) can0 4A0#0000000000000000
(1560454234.844903) can0 3A0#010E00000000000F
(1560454234.845146) can0 588#E1007F830080008A
(1560454234.848696) can0 280#090DD80E16000F05
(1560454234.852770) can0 390#0000410000000000
(1560454234.853082) can0 35F#0080000000000000
(1560454234.853443) can0 380#008A00000000000F
(1560454234.853673) can0 1A0#004100000000000D
(1560454234.853934) can0 2A0#000000000000D0D0
(1560454234.854162) can0 488#9C32347FA5FFFF40
(1560454234.854401) can0 4A0#0000000000000000
(1560454234.854650) can0 4A8#FE7F00300000F041
(1560454234.854915) can0 540#4000000000002000
(1560454234.855148) can0 5A0#6B0100F50000402B
(1560454234.856870) can0 050#0025C0E5
(1560454234.858424) can0 280#090DD80E16000F05
(1560454234.858671) can0 288#8FB40000004EA10C
(1560454234.859096) can0 480#942C1502000002AD
(1560454234.859352) can0 48A#F0430100000200B0
(1560454234.860399) can0 320#04021701000200BA
(1560454234.863422) can0 380#008A00000000000E
(1560454234.863676) can0 488#8C32347FA5FFFF50
(1560454234.863924) can0 540#5000000000002000
(1560454234.864152) can0 1A0#004100000000000E
(1560454234.864399) can0 2A0#000000000000E0E0
(1560454234.864671) can0 4A0#0000000000000000
(1560454234.864919) can0 3A0#000F00000000000F
(1560454234.865146) can0 588#E1007F800080008A
(1560454234.866873) can0 6DA#328203000A000303
(1560454234.868899) can0 280#090DA80E15000F05
(1560454234.872172) can0 66C#3C42030031000301
(1560454234.872742) can0 470#400300000000001F
(1560454234.873420) can0 380#008A00000000000E
(1560454234.873666) can0 1A0#004100000000000F
(1560454234.873913) can0 2A0#000000000000F0F0
(1560454234.874170) can0 488#B931327FA5FFFF60
(1560454234.874416) can0 4A0#0000000000000000
(1560454234.874638) can0 4A8#FE7F0030000000B1
(1560454234.874893) can0 540#6000000000002000
(1560454234.875144) can0 5A0#6B0100050000402B
(1560454234.876772) can0 050#0025D0F5
(1560454234.878466) can0 280#090DA80E15000F05
(1560454234.878681) can0 288#8FB40000004EA10C
(1560454234.879118) can0 480#942C2E0200000296
(1560454234.879415) can0 48A#80430100000200C0
(1560454234.879595) can0 56A#8900000018000091
(1560454234.880423) can0 320#04021701000300BA
(1560454234.883422) can0 380#008A00000000000D
(1560454234.883669) can0 488#A931327FA5FFFF70
(1560454234.883918) can0 1A0#0041000000000000
(1560454234.884167) can0 2A0#0000000000000000
(1560454234.884421) can0 4A0#0000000000000000
(1560454234.884682) can0 3A0#0F0000000000000F
(1560454234.884959) can0 540#7000000000002000
(1560454234.885186) can0 588#E1007F8C0080008A
(1560454234.888698) can0 280#090CA80E14000F05
(1560454234.888971) can0 58C#10000000FE000000
(1560454234.891980) can0 497#0000000094960020
(1560454234.893464) can0 380#008A00000000000B
(1560454234.893801) can0 1A0#0041000000000001
(1560454234.893958) can0 2A0#0000000000001010
(1560454234.894194) can0 488#5830327FA5FFFF80
(1560454234.894425) can0 4A0#0000000000000000
(1560454234.894672) can0 4A8#FE7F0030000010A1
(1560454234.894902) can0 540#8000000000002000
(1560454234.895185) can0 5A0#6B0100150000402B
(1560454234.896715) can0 050#0025E0C5
(1560454234.898419) can0 280#090CA80E14000F05
(1560454234.898666) can0 288#D4B40000004EA00B
(1560454234.899108) can0 480#E22C2E02000002E0
(1560454234.899361) can0 48A#90430100000200D0
(1560454234.900449) can0 320#04021701000400BA
(1560454234.903444) can0 380#008A00000000000B
(1560454234.903666) can0 488#542F317FA5FFFF90
(1560454234.903922) can0 1A0#0041000000000002
(1560454234.904168) can0 2A0#0000000000002020
(1560454234.904417) can0 4A0#0000000000000000
(1560454234.904665) can0 3A0#0E0100000000000F
(1560454234.904915) can0 540#9000000000002000
(1560454234.905148) can0 588#E1007F870080008A
(1560454234.908719) can0 280#090C8C0E13001005
(1560454234.912669) can0 570#8B00900500
(1560454234.913020) can0 392#0000008000000000
(1560454234.913245) can0 5DC#7D00B00108000040
(1560454234.913497) can0 380#008A00000000000B
(1560454234.913745) can0 1A0#0041000000000003
(1560454234.914018) can0 2A0#0000000000003030
(1560454234.914242) can0 488#642F317FA5FFFFA0
(1560454234.914471) can0 4A0#0000000000000000
(1560454234.914719) can0 4A8#FE7F003000002091
(1560454234.915038) can0 540#A000000000002000
(1560454234.915220) can0 5A0#6B0100250000402B
(1560454234.916791) can0 050#0025F0D5
(1560454234.918421) can0 280#090C8C0E13001005
(1560454234.918667) can0 288#D4B40000004EA00A
(1560454234.919095) can0 480#E22C470200000289
(1560454234.919367) can0 48A#A3400100000200E0
(1560454234.919579) can0 56A#B9000000180000A1
(1560454234.920470) can0 320#04021701000500BA
(1560454234.920721) can0 520#0608021918861D01
(1560454234.921022) can0 621#2019181702610000
(1560454234.922771) can0 470#400300000000001F
(1560454234.923424) can0 380#008A00000000000C
(1560454234.923670) can0 488#742F317FA5FFFFB0
(1560454234.923919) can0 540#B000000000002000
(1560454234.924172) can0 1A0#0041000000000004
(1560454234.924419) can0 2A0#0000000000004040
(1560454234.924670) can0 4A0#0000000000000000
(1560454234.924898) can0 3A0#0D0200000000000F
(1560454234.925148) can0 588#E1007F800080008A
(1560454234.928745) can0 280#090C8C0E12001005
(1560454234.932737) can0 5D0#8502502F00594000
(1560454234.933556) can0 1A0#0041000000000005
(1560454234.933818) can0 2A0#0000000000005050
(1560454234.934047) can0 380#008A00000000000E
(1560454234.934286) can0 488#052E317FA5FFFFC0
(1560454234.934523) can0 4A0#0000000000000000
(1560454234.934780) can0 4A8#FE7F003000003081
(1560454234.935038) can0 540#C000000000002000
(1560454234.935292) can0 5A0#6B0100350000402B
(1560454234.936728) can0 050#00250025
(1560454234.937056) can0 550#8000000000000080
(1560454234.938424) can0 280#090C540E12001005
(1560454234.938679) can0 288#D4B40000004EA00A
(1560454234.939108) can0 480#E22C5F0200000291
(1560454234.939345) can0 48A#CC3F0100000200F0
(1560454234.940431) can0 320#04021701000600BA
(1560454234.942613) can0 5D6#0000
(1560454234.943419) can0 380#008A00000000000F
(1560454234.943666) can0 488#0B2E2F7FA5FFFFD0
(1560454234.943919) can0 1A0#0041000000000006
(1560454234.944167) can0 2A0#0000000000006060
(1560454234.944416) can0 4A0#0000000000000000
(1560454234.944665) can0 3A0#0C0300000000000F
(1560454234.944911) can0 540#D000000000002000
(1560454234.945143) can0 588#E1007F8E0080008A
(1560454234.948793) can0 280#090B540E11001005
(1560454234.952766) can0 390#0000410000000000
(1560454234.953044) can0 35F#0080000000000000
(1560454234.953418) can0 380#008A000000000010
(1560454234.953667) can0 1A0#0041000000000007
(1560454234.953916) can0 2A0#0000000000007070
(1560454234.954174) can0 488#382D2F7FA5FFFFE0
(1560454234.954422) can0 4A0#0000000000000000
(1560454234.954670) can0 4A8#FE7F0030000040F1
(1560454234.954919) can0 540#E000000000002000
(1560454234.955144) can0 5A0#6B0100450000402B
(1560454234.956891) can0 050#00251035
(1560454234.958426) can0 280#090B540E11001005
(1560454234.958653) can0 288#D4B40000004E9F0A
(1560454234.959094) can0 480#E22C5F0200000291
(1560454234.959348) can0 48A#3F3C010000020000
(1560454234.959577) can0 56A#A9000000180000B1
(1560454234.960394) can0 320#04021701000700BA
(1560454234.963419) can0 380#008A000000000011
(1560454234.963667) can0 488#282D2F7FA5FFFFF0
(1560454234.963915) can0 540#F000000000002000
(1560454234.964168) can0 1A0#0041000000000008
(1560454234.964416) can0 2A0#0000000000008080
(1560454234.964665) can0 4A0#0000000000000000
(1560454234.964915) can0 3A0#0B0400000000000F
(1560454234.965143) can0 588#E1007F800080008A
(1560454234.968695) can0 280#090B2C0E11001005
(1560454234.969019) can0 58F#00FEFF7F00000019
(1560454234.972841) can0 470#400300000000001F
(1560454234.973419) can0 380#008A000000000011
(1560454234.973667) can0 1A0#0041000000000009
(1560454234.973915) can0 2A0#0000000000009090
(1560454234.974153) can0 488#7F2C2D7FA5FF5B00
(1560454234.974401) can0 4A0#0000000000000000
(1560454234.974650) can0 4A8#FE7F0030000050E1
(1560454234.974897) can0 540#0000000000002000
(1560454234.975148) can0 580#810000000002A028
(1560454234.975412) can0 5A0#6B0100550000402B
(1560454234.976691) can0 050#00252005
(1560454234.978429) can0 280#090B2C0E11001005
(1560454234.978667) can0 288#11B40000004E9F0B
(1560454234.979094) can0 480#0F2C740200000257
(1560454234.979350) can0 48A#283B010000020010
(1560454234.980397) can0 320#04021701000800BA
(1560454234.983442) can0 380#008A000000000011
(1560454234.983652) can0 488#222B2D7FA5FF1110
(1560454234.983916) can0 1A0#004100000000000A
(1560454234.984151) can0 2A0#000000000000A0A0
(1560454234.984421) can0 4A0#0000000000000000
(1560454234.984662) can0 3A0#0A0500000000000F
(1560454234.984920) can0 540#1000000000002000
(1560454234.985167) can0 588#E1007F8A0080008A
(1560454234.988772) can0 280#090B2C0E10001005
(1560454234.989022) can0 58C#10000000FE000000
(1560454234.992072) can0 497#0000000094960020
(1560454234.993424) can0 380#008A000000000010
(1560454234.993688) can0 1A0#004100000000000B
(1560454234.993918) can0 2A0#000000000000B0B0
(1560454234.994176) can0 488#7C2B2D7FA5FF7F20
(1560454234.994430) can0 4A0#0000000000000000
(1560454234.994653) can0 4A8#FE7F0030000060D1
(1560454234.994900) can0 540#2000000000002000
(1560454234.995145) can0 5A0#6B0100650000402B
(1560454234.996667) can0 050#00253015
(1560454234.998421) can0 280#090B2C0E10001005
(1560454234.998869) can0 480#0F2C740200000257
(1560454234.999095) can0 48A#1A39010000020020
(1560454234.999805) can0 288#11B40000004E9E0B
(1560454235.000020) can0 56A#D9000000180000C1
(1560454235.000469) can0 320#04021701000900BA
(1560454235.003421) can0 380#008A00000000000E
(1560454235.003685) can0 488#EB2A2B7FA5FFFF30
(1560454235.003916) can0 1A0#004100000000000C
(1560454235.004169) can0 2A0#000000000000C0C0
(1560454235.004417) can0 4A0#0000000000000000
(1560454235.004666) can0 3A0#090600000000000F
(1560454235.004915) can0 540#3000000000002000
(1560454235.005149) can0 588#E1007F870080008A
(1560454235.008694) can0 280#090B100E10001005
(1560454235.012863) can0 728#04090700040000
(1560454235.013114) can0 392#0000008000000000
(1560454235.013272) can0 570#8B008F0500
(1560454235.013602) can0 380#008A00000000000B
(1560454235.013813) can0 1A0#004100000000000D
(1560454235.014116) can0 2A0#000000000000D0D0
(1560454235.014277) can0 488#9B2A2B7FA5FFFF40
(1560454235.014564) can0 4A0#0000000000000000
(1560454235.014816) can0 4A8#FE7F0030000070C1
(1560454235.015113) can0 540#4000000000002000
(1560454235.015233) can0 5A0#6B0100750000402B
(1560454235.015553) can0 5DC#7D00B00108000040
(1560454235.016719) can0 050#00254065
(1560454235.018533) can0 280#090B100E0F001005
(1560454235.018724) can0 288#11B40000004E9E0B
(1560454235.019147) can0 480#0F2C8A02000002A9
(1560454235.019380) can0 48A#0536010000020030
(1560454235.020561) can0 320#04021701000A00BA
(1560454235.020779) can0 420#0A9FA4000061FF00
(1560454235.021119) can0 5D2#00FFFFFFFF394257
(1560454235.021278) can0 621#2019181702610000
(1560454235.021538) can0 727#04014100040000
(1560454235.022850) can0 470#400300000000001F
(1560454235.023449) can0 380#008A00000000000A
(1560454235.023771) can0 488#88292B7FA5FFFF50
(1560454235.024019) can0 1A0#004100000000000E
(1560454235.024210) can0 2A0#000000000000E0E0
(1560454235.024517) can0 4A0#0000000000000000
(1560454235.024746) can0 3A0#080700000000000F
(1560454235.025015) can0 540#5000000000002000
(1560454235.025262) can0 588#E1007F800080008A
(1560454235.028817) can0 280#090B100E0F001005
(1560454235.032805) can0 5D0#8502502F00594000
(1560454235.033544) can0 380#008A00000000000A
(1560454235.033760) can0 1A0#004100000000000F
(1560454235.034027) can0 2A0#000000000000F0F0
(1560454235.034248) can0 488#B8292B7FA5FFFF60
(1560454235.034505) can0 4A0#0000000000000000
(1560454235.034752) can0 4A8#FE7F003000008031
(1560454235.035027) can0 540#6000000000002000
(1560454235.035248) can0 5A0#6B0100850000402B
(1560454235.036793) can0 050#00255075
(1560454235.038508) can0 280#090B100E0D001005
(1560454235.038725) can0 288#11B40000004E9E0A
(1560454235.039110) can0 480#0F2CA10200000282
(1560454235.039440) can0 48A#7635010000020040
(1560454235.039680) can0 56A#C9000000180000D1
(1560454235.040518) can0 320#04021701000B00BA
(1560454235.042245) can0 5D6#0000
(1560454235.043530) can0 380#008A00000000000A
(1560454235.043689) can0 488#A8282A7FA5FFFF70
(1560454235.044005) can0 1A0#0041000000000000
(1560454235.044250) can0 2A0#0000000000000000
(1560454235.044501) can0 4A0#0000000000000000
(1560454235.044681) can0 3A0#070800000000000F
(1560454235.045004) can0 540#7000000000002000
(1560454235.045271) can0 588#E1007F800080008A
(1560454235.048878) can0 280#090B100E0D001005
(1560454235.052782) can0 390#0000410000000000
(1560454235.053100) can0 35F#0080000000000000
(1560454235.053529) can0 380#008A00000000000A
(1560454235.053776) can0 1A0#0041000000000001
(1560454235.054026) can0 2A0#0000000000001010
(1560454235.054263) can0 488#58282A7FA5FFFF80
(1560454235.054510) can0 4A0#0000000000000000
(1560454235.054686) can0 4A8#FE7F003000009021
(1560454235.054946) can0 540#8000000000002000
(1560454235.055228) can0 5A0#6B0100950000402B
(1560454235.056975) can0 050#00256045
(1560454235.058509) can0 280#090B100E0D001005
(1560454235.058748) can0 288#59B40000004E9E0A
(1560454235.059123) can0 480#592CA102000002D4
(1560454235.059405) can0 48A#6734010000020050
(1560454235.060485) can0 320#04021701000C00BA
(1560454235.063521) can0 380#008A00000000000A
(1560454235.063742) can0 488#48282A7FA5FFFF90
(1560454235.063989) can0 540#9000000000002000
(1560454235.064252) can0 1A0#0041000000000002
(1560454235.064505) can0 2A0#0000000000002020
(1560454235.064757) can0 4A0#0000000000000000
(1560454235.064992) can0 3A0#060900000000000F
(1560454235.065169) can0 588#E1007F800080008A
(1560454235.068745) can0 280#090B000E0C001005
(1560454235.072842) can0 470#400300000000001F
(1560454235.073553) can0 380#008A00000000000A
(1560454235.073773) can0 1A0#0041000000000003
(1560454235.074011) can0 2A0#0000000000003030
