(1562274306.791448) can0 470#401100000000001F
(1562274306.791716) can0 5D0#850250AF00594000
(1562274306.802782) can0 320#0400000100050080
(1562274306.803296) can0 676#1282
(1562274306.811280) can0 570#01A09B0000
(1562274306.811581) can0 35F#0080000000000000
(1562274306.811853) can0 390#8000410000000000
(1562274306.812129) can0 392#0000008000000000
(1562274306.812405) can0 5DC#7D00B00108000040
(1562274306.822787) can0 320#0400000100060080
(1562274306.841422) can0 470#401100000000001F
(1562274306.842798) can0 320#0400000100070080
(1562274306.862806) can0 320#0400000100080080
(1562274306.863054) can0 520#55C4009C00E52301
(1562274306.863504) can0 5F3#0000000000000000
(1562274306.863782) can0 621#009C000000000000
(1562274306.882811) can0 320#0400000100090080
(1562274306.891440) can0 470#401100000000001F
(1562274306.891686) can0 5D0#850250AF00594000
(1562274306.902880) can0 320#04000001000A0080
(1562274306.911516) can0 570#01A09B0000
(1562274306.911788) can0 35F#0080000000000000
(1562274306.912060) can0 390#8000410000000000
(1562274306.912342) can0 392#0000008000000000
(1562274306.912619) can0 5DC#7D00B00108000040
(1562274306.922917) can0 320#04000001000B0080
(1562274306.941552) can0 470#401100000000001F
(1562274306.942918) can0 320#04000001000C0080
(1562274306.951560) can0 728#04030000040000
(1562274306.962915) can0 320#04000001000D0080
(1562274306.963168) can0 420#0A9696000000FF00
(1562274306.963593) can0 5D2#0234303134333333
(1562274306.963865) can0 621#009C000000000000
(1562274306.982917) can0 320#04000001000E0080
(1562274306.991583) can0 470#401100000000001F
(1562274306.991850) can0 5D0#850250AF00594000
(1562274307.002911) can0 320#04000001000F0080
(1562274307.011489) can0 570#01A09B0000
(1562274307.011792) can0 35F#0080000000000000
(1562274307.012061) can0 390#8000410000000000
(1562274307.012365) can0 392#0000008000000000
(1562274307.012636) can0 5DC#7D00B00108000040
(1562274307.022956) can0 320#0400000100000080
(1562274307.041624) can0 470#401100000000001F
(1562274307.042954) can0 320#0400000100010080
(1562274307.062935) can0 320#0400000100020080
(1562274307.063186) can0 520#0608009C00E52301
(1562274307.063628) can0 621#009C000000000000
(1562274307.082974) can0 320#0400000100030080
(1562274307.091491) can0 470#401100000000001F
(1562274307.091770) can0 5D0#850250AF00594000
(1562274307.102960) can0 320#0400000100040080
(1562274307.111601) can0 570#01A09B0000
(1562274307.111882) can0 35F#0080000000000000
(1562274307.112150) can0 390#8000410000000000
(1562274307.112435) can0 392#0000008000000000
(1562274307.112711) can0 5DC#7D00B00108000040
(1562274307.113015) can0 64F#000000FFFFFFFF00
(1562274307.113285) can0 7D0#3DE52321F2019A09
(1562274307.122986) can0 320#0400000100050080
(1562274307.141638) can0 470#401100000000001F
(1562274307.142969) can0 320#0400000100060080
(1562274307.151613) can0 728#04030000040000
(1562274307.162971) can0 320#0400000100070080
(1562274307.163211) can0 420#0A9696000000FF00
(1562274307.163672) can0 5D2#00FFFFFFFF394257
(1562274307.163917) can0 621#009C000000000000
(1562274307.182973) can0 320#0400000100080080
(1562274307.191626) can0 470#401100000000001F
(1562274307.191902) can0 5D0#850250AF00594000
(1562274307.202989) can0 320#0400000100090080
(1562274307.211621) can0 570#01A09B0000
(1562274307.211921) can0 35F#0080000000000000
(1562274307.212196) can0 390#8000410000000000
(1562274307.212499) can0 392#0000008000000000
(1562274307.212760) can0 5DC#7D00B00108000040
(1562274307.222990) can0 320#04000001000A0080
(1562274307.241630) can0 470#401100000000001F
(1562274307.242998) can0 320#04000001000B0080
(1562274307.263026) can0 320#04000001000C0080
(1562274307.263217) can0 520#4742009C00E52301
(1562274307.263670) can0 621#009C000000000000
(1562274307.283050) can0 320#04000001000D0080
(1562274307.291699) can0 470#401100000000001F
(1562274307.291862) can0 5D0#850250AF00594000
(1562274307.303020) can0 320#04000001000E0080
(1562274307.303575) can0 676#1282
(1562274307.311693) can0 570#01A09B0000
(1562274307.311935) can0 35F#0080000000000000
(1562274307.312189) can0 390#8000410000000000
(1562274307.312466) can0 392#0000008000000000
(1562274307.312738) can0 5DC#7D00B00108000040
(1562274307.323064) can0 320#04000001000F0080
(1562274307.341724) can0 470#401100000000001F
(1562274307.343022) can0 320#0400000100000080
(1562274307.351699) can0 728#04030000040000
(1562274307.362980) can0 320#0400000100010080
(1562274307.363243) can0 420#0A9696000000FF00
(1562274307.363698) can0 52A#0000000000000000
(1562274307.363950) can0 5D2#01414234355A3848
(1562274307.364199) can0 5F3#0000000000000000
(1562274307.364352) can0 60E#0000
(1562274307.364581) can0 621#009C000000000000
(1562274307.364777) can0 62E#E52321F2011A0A
(1562274307.379681) can0 661#8000000000000000
(1562274307.382984) can0 320#0400000100020080
(1562274307.383258) can0 629#FF0FFF3F000000FF
(1562274307.391673) can0 470#401100000000001F
(1562274307.391926) can0 5D0#850250AF00594000
(1562274307.402986) can0 320#0400000100030080
(1562274307.403250) can0 62B#FF0FFF3FFF3FFF3F
(1562274307.411706) can0 570#01A09B0000
(1562274307.411909) can0 35F#0080000000000000
(1562274307.412178) can0 390#8000410000000000
(1562274307.412452) can0 392#0000008000000000
(1562274307.412730) can0 5DC#7D00B00108000040
(1562274307.423032) can0 320#0400000100040080
(1562274307.423235) can0 62D#FF0FFF3FFF3FFF3F
(1562274307.441669) can0 470#401100000000001F
(1562274307.442995) can0 320#0400000100050080
(1562274307.462990) can0 320#0400000100060080
(1562274307.463230) can0 520#1787009C00E52301
(1562274307.463685) can0 621#009C000000000000
(1562274307.483061) can0 320#0400000100070080
(1562274307.491717) can0 470#401100000000001F
(1562274307.491957) can0 5D0#850250AF00594000
(1562274307.503008) can0 320#0400000100080080
(1562274307.511674) can0 570#01A09B0000
(1562274307.511942) can0 35F#0080000000000000
(1562274307.512217) can0 390#8000410000000000
(1562274307.512493) can0 392#0000008000000000
(1562274307.512785) can0 5DC#7D00B00108000040
(1562274307.523045) can0 320#0400000100090080
(1562274307.541728) can0 470#401100000000001F
(1562274307.543027) can0 320#04000001000A0080
(1562274307.551723) can0 728#04030000040000
(1562274307.563030) can0 320#04000001000B0080
(1562274307.563273) can0 420#0A9696000000FF00
(1562274307.563689) can0 5D2#0234303134333333
(1562274307.563917) can0 621#009C000000000000
(1562274307.583034) can0 320#04000001000C0080
(1562274307.591729) can0 470#401100000000001F
(1562274307.591969) can0 5D0#850250AF00594000
(1562274307.603038) can0 320#04000001000D0080
(1562274307.611744) can0 570#01A09B0000
(1562274307.611948) can0 35F#0080000000000000
(1562274307.612214) can0 390#8000410000000000
(1562274307.612485) can0 392#0000008000000000
(1562274307.612769) can0 5DC#7D00B00108000040
(1562274307.613053) can0 64F#000000FFFFFFFF00
(1562274307.622989) can0 320#04000001000E0080
(1562274307.641732) can0 470#401100000000001F
(1562274307.643026) can0 320#04000001000F0080
(1562274307.663070) can0 320#0400000100000080
(1562274307.663266) can0 520#55C4009C00E52301
(1562274307.663683) can0 621#009C000000000000
(1562274307.683016) can0 320#0400000100010080
(1562274307.691738) can0 470#401100000000001F
(1562274307.691929) can0 5D0#850250AF00594000
(1562274307.703034) can0 320#0400000100020080
(1562274307.711679) can0 570#01A09B0000
(1562274307.711904) can0 35F#0080000000000000
(1562274307.712175) can0 390#8000410000000000
(1562274307.712471) can0 392#0000008000000000
(1562274307.712749) can0 5DC#7D00B00108000040
(1562274307.723038) can0 320#0400000100030080
(1562274307.741710) can0 470#401100000000001F
(1562274307.743023) can0 320#0400000100040080
(1562274307.751655) can0 728#04030000040000
(1562274307.763052) can0 320#0400000100050080
(1562274307.763238) can0 420#0A9696000000FF00
(1562274307.763705) can0 5D2#00FFFFFFFF394257
(1562274307.763946) can0 621#009C000000000000
(1562274307.783068) can0 320#0400000100060080
(1562274307.791714) can0 470#401100000000001F
(1562274307.791934) can0 5D0#850250AF00594000
(1562274307.803033) can0 320#0400000100070080
(1562274307.811645) can0 570#01A09B0000
(1562274307.811916) can0 35F#0080000000000000
(1562274307.812193) can0 390#8000410000000000
(1562274307.812496) can0 392#0000008000000000
(1562274307.812758) can0 5DC#7D00B00108000040
(1562274307.823038) can0 320#0400000100080080
(1562274307.841732) can0 470#401100000000001F
(1562274307.843037) can0 320#0400000100090080
(1562274307.863020) can0 320#04000001000A0080
(1562274307.863270) can0 520#0608009C00E52301
(1562274307.863713) can0 5F3#0000000000000000
(1562274307.863963) can0 621#009C000000000000
(1562274307.883047) can0 320#04000001000B0080
(1562274307.891730) can0 470#401100000000001F
(1562274307.891935) can0 5D0#850250AF00594000
(1562274307.903001) can0 320#04000001000C0080
(1562274307.911560) can0 570#01A09A0000
(1562274307.911874) can0 35F#0080000000000000
(1562274307.912152) can0 390#8000410000000000
(1562274307.912426) can0 392#0000008000000000
(1562274307.912730) can0 5DC#7D00B00108000040
(1562274307.922298) can0 497#0000000044460000
(1562274307.922315) can0 5D6#0000
(1562274307.923016) can0 320#04000001000D0080
(1562274307.933403) can0 727#08034100040000
(1562274307.941823) can0 470#401100000000001F
(1562274307.943042) can0 320#04020001000E0080
(1562274307.951650) can0 728#04030100040000
(1562274307.961788) can0 470#C01100000000001F
(1562274307.961968) can0 5BF#F0000050
(1562274307.962165) can0 5C1#F0000050
(1562274307.963051) can0 320#06020001000F0082
(1562274307.963293) can0 420#0A9696000061FF00
(1562274307.963724) can0 5D2#01414234355A3848
(1562274307.963997) can0 621#209D000000610000
(1562274307.966848) can0 497#0000000044460000
(1562274307.968402) can0 1A0#004088FF00000001
(1562274307.968588) can0 2A0#0000000000001010
(1562274307.968847) can0 4A0#88FF88FF88FF88FF
(1562274307.969078) can0 4A8#FE7F0020000010B1
(1562274307.969304) can0 5A0#4089FF100000C02B
(1562274307.978420) can0 1A0#004088FF00000002
(1562274307.978730) can0 2A0#0000000000002020
(1562274307.978806) can0 4A0#88FF88FF88FF88FF
(1562274307.979131) can0 3A0#ABF1FDF7DF7FFF0F
(1562274307.983056) can0 320#060200010000008A
(1562274307.988499) can0 1A0#004088FF00000003
(1562274307.988737) can0 2A0#0000000000003030
(1562274307.988956) can0 4A0#88FF88FF88FF88FF
(1562274307.989214) can0 4A8#FE7F002000002081
(1562274307.989719) can0 5A0#6B89FF200000C02B
(1562274307.991538) can0 5D0#850250AF0059C000
(1562274307.998425) can0 1A0#004188FF00000004
(1562274307.998805) can0 2A0#0000000000004040
(1562274307.998834) can0 4A0#88FF88FF88FF88FF
(1562274307.999158) can0 3A0#A8F2FDF7DF7FFF0F
(1562274308.003086) can0 320#0202000100010088
(1562274308.008737) can0 1A0#004188FF00000005
(1562274308.008923) can0 2A0#0000000000005050
(1562274308.009161) can0 4A0#88FF88FF88FF88FF
(1562274308.009708) can0 4A8#FE7F002000003091
(1562274308.009888) can0 5A0#6B89FF350000C02B
(1562274308.011700) can0 470#C01100000000001F
(1562274308.011973) can0 35F#0080000000000000
(1562274308.012268) can0 390#0000410000000000
(1562274308.012544) can0 392#0000008000000000
(1562274308.012703) can0 570#07A09A0500
(1562274308.012969) can0 5BF#00000050
(1562274308.013187) can0 5C1#00000050
(1562274308.013632) can0 5DC#7D00B00108000040
(1562274308.016884) can0 5D6#0000
(1562274308.018632) can0 1A0#004188FF00000006
(1562274308.018924) can0 2A0#0000000000006060
(1562274308.019175) can0 4A0#88FF88FF88FF88FF
(1562274308.019676) can0 3A0#0C0300000000000F
(1562274308.023007) can0 320#0202000100020088
(1562274308.026239) can0 050#00051015
(1562274308.028615) can0 1A0#004188FF00000007
(1562274308.028806) can0 2A0#0000000000007070
(1562274308.029070) can0 4A0#88FF88FF88FF88FF
(1562274308.029298) can0 4A8#FE7F0020000040E1
(1562274308.029772) can0 5A0#6B89FF450000402B
(1562274308.038509) can0 1A0#004188FF00000008
(1562274308.038763) can0 2A0#0000000000008080
(1562274308.038889) can0 4A0#88FF88FF88FF88FF
(1562274308.039139) can0 3A0#0B0400000000000F
(1562274308.043019) can0 320#020200010003008A
(1562274308.046121) can0 050#00052025
(1562274308.048482) can0 1A0#004188FF00000009
(1562274308.048735) can0 2A0#0000000000009090
(1562274308.048957) can0 4A0#88FF88FF88FF88FF
(1562274308.049203) can0 4A8#FE7F0020000050F1
(1562274308.049677) can0 5A0#6B89FF550000402B
(1562274308.058402) can0 1A0#004188FF0000000A
(1562274308.058600) can0 2A0#000000000000A0A0
(1562274308.058811) can0 4A0#88FF88FF88FF88FF
(1562274308.059049) can0 3A0#0A0500000000000F
(1562274308.059594) can0 66C#40000201
(1562274308.061654) can0 470#C01100000000001F
(1562274308.062914) can0 320#020200010004009A
(1562274308.063157) can0 520#4742009D00E52301
(1562274308.063578) can0 621#209D000000610000
(1562274308.066102) can0 050#00053035
(1562274308.066831) can0 497#0000000044460000
(1562274308.068625) can0 1A0#004188FF0000000B
(1562274308.068868) can0 2A0#000000000000B0B0
(1562274308.069070) can0 4A0#88FF88FF88FF88FF
(1562274308.069572) can0 4A8#FE7F0020000060C1
(1562274308.069822) can0 5A0#6B89FF650000402B
(1562274308.069945) can0 67A#1282
(1562274308.078378) can0 1A0#004188FF0000000C
(1562274308.078626) can0 2A0#000000000000C0C0
(1562274308.078871) can0 4A0#88FF88FF88FF88FF
(1562274308.079121) can0 3A0#090600000000000F
(1562274308.079621) can0 66C#0C42030031000301
(1562274308.082843) can0 320#020200010005009A
(1562274308.083813) can0 67C#1C41
(1562274308.086024) can0 050#00054045
(1562274308.088387) can0 1A0#004188FF0000000D
(1562274308.088689) can0 2A0#000000000000D0D0
(1562274308.088910) can0 4A0#88FF88FF88FF88FF
(1562274308.089156) can0 4A8#FE7F0020000070D1
(1562274308.089559) can0 5A0#6B89FF750000402B
(1562274308.091453) can0 5D0#850250AF0059C000
(1562274308.098378) can0 1A0#004188FF0000000E
(1562274308.098567) can0 2A0#000000000000E0E0
(1562274308.098771) can0 4A0#88FF88FF88FF88FF
(1562274308.099065) can0 3A0#080700000000000F
(1562274308.102816) can0 320#020200010006009A
(1562274308.106063) can0 050#00055055
(1562274308.108438) can0 1A0#004100000000000F
(1562274308.108625) can0 2A0#000000000000F0F0
(1562274308.108878) can0 4A0#0000000000000000
(1562274308.109134) can0 4A8#FE7F002000008021
(1562274308.109609) can0 5A0#6B0100850000402B
(1562274308.109828) can0 66C#801F4C4103003100
(1562274308.111404) can0 470#C01100000000001F
(1562274308.111697) can0 35F#0080000000000000
(1562274308.112006) can0 390#0000410000000000
(1562274308.112263) can0 392#0000008000000000
(1562274308.112470) can0 570#07A09A0500
(1562274308.112693) can0 5C1#00000050
(1562274308.112988) can0 5DC#7D00B00108000040
(1562274308.113408) can0 64F#000000FFFFFFFF00
(1562274308.113625) can0 7D0#3DE52321F2011A0A
(1562274308.116835) can0 5D6#0000
(1562274308.118580) can0 1A0#0041000000000000
(1562274308.118803) can0 2A0#0000000000000000
(1562274308.119068) can0 4A0#0000000000000000
(1562274308.119549) can0 3A0#070800000000000F
(1562274308.122802) can0 320#020200010007009A
(1562274308.126021) can0 050#00056065
(1562274308.128341) can0 1A0#0041000000000001
(1562274308.128594) can0 2A0#0000000000001010
(1562274308.128836) can0 4A0#0000000000000000
(1562274308.129084) can0 4A8#FE7F002000009031
(1562274308.129576) can0 5A0#6B0100950000402B
(1562274308.133296) can0 727#08034100040000
(1562274308.138206) can0 1A0#0041000000000002
(1562274308.138427) can0 2A0#0000000000002020
(1562274308.138739) can0 4A0#0000000000000000
(1562274308.138996) can0 3A0#060900000000000F
(1562274308.139463) can0 66C#C003010800780384
(1562274308.142691) can0 320#020200010008009A
(1562274308.146008) can0 050#00257055
(1562274308.148355) can0 1A0#0041000000000003
(1562274308.148540) can0 2A0#0000000000003030
(1562274308.148792) can0 4A0#0000000000000000
(1562274308.149055) can0 4A8#FE7F00200000A001
(1562274308.149519) can0 5A0#6B0100A50000402B
(1562274308.151248) can0 728#04030100040000
(1562274308.158224) can0 1A0#0041000000000004
(1562274308.158443) can0 2A0#0000000000004040
(1562274308.158689) can0 4A0#0000000000000000
(1562274308.158943) can0 3A0#050A00000000000F
(1562274308.161394) can0 470#C01100000000001F
(1562274308.162670) can0 320#020200010009009A
(1562274308.162922) can0 420#0A9697000061FF00
(1562274308.163297) can0 5D2#0234303134333333
(1562274308.163579) can0 621#209D000002610000
(1562274308.165891) can0 050#002580A5
(1562274308.166661) can0 497#0000000044460000
(1562274308.168358) can0 1A0#0041000000000005
(1562274308.168602) can0 2A0#0000000000005050
(1562274308.168839) can0 4A0#0000000000000000
(1562274308.169343) can0 4A8#FE7F00200000B011
(1562274308.169548) can0 5A0#6B0100B50000402B
(1562274308.169778) can0 66C#C100000000000AFF
(1562274308.177990) can0 1A0#0041000000000006
(1562274308.178263) can0 2A0#0000000000006060
(1562274308.178558) can0 4A0#0000000000000000
(1562274308.178801) can0 3A0#040B00000000000F
(1562274308.182651) can0 320#02020001000A009A
(1562274308.185856) can0 050#002590B5
(1562274308.188270) can0 1A0#0041000000000007
(1562274308.188450) can0 2A0#0000000000007070
(1562274308.188712) can0 4A0#0000000000000000
(1562274308.188958) can0 4A8#FE7F00200000C061
(1562274308.189422) can0 5A0#6B0100C50000402B
(1562274308.191237) can0 5D0#850250AF0059C000
(1562274308.198112) can0 1A0#0041000000000008
(1562274308.198352) can0 2A0#0000000000008080
(1562274308.198613) can0 4A0#0000000000000000
(1562274308.198857) can0 3A0#030C00000000000F
(1562274308.199341) can0 66C#C201000000000600
(1562274308.202559) can0 320#02020001000B009A
(1562274308.205886) can0 050#0025A085
(1562274308.206085) can0 550#1000000000000010
(1562274308.208163) can0 1A0#0041000000000009
(1562274308.208382) can0 2A0#0000000000009090
(1562274308.208676) can0 4A0#0000000000000000
(1562274308.208896) can0 4A8#FE7F00200000D071
(1562274308.209375) can0 5A0#6B0100D50000402B
(1562274308.211191) can0 470#C01100000000001F
(1562274308.211458) can0 35F#0080000000000000
(1562274308.211834) can0 390#0000410000000000
(1562274308.212100) can0 392#0000008000000000
(1562274308.212327) can0 570#07A09A0500
(1562274308.212526) can0 5C1#00000050
(1562274308.212824) can0 5DC#7D00B00108000040
(1562274308.216586) can0 5D6#0000
(1562274308.218251) can0 1A0#004100000000000A
(1562274308.218498) can0 2A0#000000000000A0A0
(1562274308.218728) can0 4A0#0000000000000000
(1562274308.219240) can0 3A0#020D00000000000F
(1562274308.222531) can0 320#02020001000C009A
(1562274308.225775) can0 050#0025B095
(1562274308.228186) can0 1A0#004100000000000B
(1562274308.228362) can0 2A0#000000000000B0B0
(1562274308.228625) can0 4A0#0000000000000000
(1562274308.228878) can0 4A8#FE7F00200000E041
(1562274308.229345) can0 5A0#6B0100E50000402B
(1562274308.229564) can0 66C#C3000000000000
(1562274308.238057) can0 1A0#004100000000000C
(1562274308.238310) can0 2A0#000000000000C0C0
(1562274308.238623) can0 4A0#0000000000000000
(1562274308.238876) can0 3A0#010E00000000000F
(1562274308.242474) can0 320#02020001000D009A
(1562274308.245704) can0 050#0025C0E5
(1562274308.248055) can0 1A0#004100000000000D
(1562274308.248324) can0 2A0#000000000000D0D0
(1562274308.248565) can0 4A0#0000000000000000
(1562274308.248811) can0 4A8#FE7F00200000F051
(1562274308.249213) can0 536#08A0FCBC39
(1562274308.249456) can0 5A0#6B0100F50000402B
(1562274308.249561) can0 526#E50B2AB339
(1562274308.257814) can0 1A0#004100000000000E
(1562274308.258086) can0 2A0#000000000000E0E0
(1562274308.258374) can0 4A0#0000000000000000
(1562274308.258627) can0 3A0#000F00000000000F
(1562274308.261147) can0 470#C01100000000001F
(1562274308.262510) can0 320#02020001000E009A
(1562274308.262676) can0 520#1787029D00E52301
(1562274308.263152) can0 621#209D000002610000
(1562274308.265705) can0 050#0025D0F5
(1562274308.266231) can0 497#0000000044460000
(1562274308.268130) can0 1A0#004100000000000F
(1562274308.268377) can0 2A0#000000000000F0F0
(1562274308.268626) can0 4A0#0000000000000000
(1562274308.269131) can0 4A8#FE7F0020000000A1
(1562274308.269356) can0 5A0#6B0100050000402B
(1562274308.277972) can0 1A0#0041000000000000
(1562274308.278227) can0 2A0#0000000000000000
(1562274308.278396) can0 4A0#0000000000000000
(1562274308.278641) can0 3A0#0F0000000000000F
(1562274308.282434) can0 320#02020001000F009A
(1562274308.285746) can0 050#0025E0C5
(1562274308.288076) can0 1A0#0041000000000001
(1562274308.288265) can0 2A0#0000000000001010
(1562274308.288516) can0 4A0#0000000000000000
(1562274308.288772) can0 4A8#FE7F0020000010B1
(1562274308.289242) can0 5A0#6B0100150000402B
(1562274308.289482) can0 661#8200000000000000
(1562274308.291016) can0 5D0#850250AF0059C000
(1562274308.297850) can0 1A0#0041000000000002
(1562274308.298170) can0 2A0#0000000000002020
(1562274308.298412) can0 4A0#0000000000000000
(1562274308.298663) can0 3A0#0E0100000000000F
(1562274308.302393) can0 320#020200010000009A
(1562274308.305752) can0 050#0025F0D5
(1562274308.307953) can0 1A0#0041000000000003
(1562274308.308201) can0 2A0#0000000000003030
(1562274308.308453) can0 4A0#0000000000000000
(1562274308.308704) can0 4A8#FE7F002000002081
(1562274308.309167) can0 5A0#6B0100250000402B
(1562274308.310978) can0 470#C01100000000001F
(1562274308.311239) can0 35F#0080000000000000
(1562274308.311441) can0 390#0000410000000000
(1562274308.311744) can0 392#0000008000000000
(1562274308.312047) can0 570#07A0990500
(1562274308.312240) can0 5C1#00000050
(1562274308.312533) can0 5DC#7D00B00108000040
(1562274308.316359) can0 5D6#0000
(1562274308.318036) can0 1A0#0041000000000004
(1562274308.318304) can0 2A0#0000000000004040
(1562274308.318550) can0 4A0#0000000000000000
(1562274308.319012) can0 3A0#0D0200000000000F
(1562274308.322317) can0 320#020200010001009A
(1562274308.325502) can0 050#00250025
(1562274308.327892) can0 1A0#0041000000000005
(1562274308.328151) can0 2A0#0000000000005050
(1562274308.328399) can0 4A0#0000000000000000
(1562274308.328645) can0 4A8#FE7F002000003091
(1562274308.329118) can0 5A0#6B0100350000402B
(1562274308.332591) can0 727#08034100040000
(1562274308.332972) can0 280#0926000000000000
(1562274308.337828) can0 380#0000000000000011
(1562274308.338058) can0 1A0#0041000000000006
(1562274308.338371) can0 2A0#0000000000006060
(1562274308.338622) can0 488#58000000A6FF1110
(1562274308.338872) can0 4A0#0000000000000000
(1562274308.339356) can0 3A0#0C0300000000000F
(1562274308.339569) can0 540#1000000000002000
(1562274308.342218) can0 320#020200010002009A
(1562274308.343094) can0 280#0926000000000000
(1562274308.343416) can0 288#1100000000005C19
(1562274308.343659) can0 480#0F2000000000002F
(1562274308.343966) can0 48A#1200000000020010
(1562274308.345486) can0 050#00251035
(1562274308.347867) can0 380#0000000000000011
(1562274308.348105) can0 488#12000000A6FF6B20
(1562274308.348352) can0 540#2000000000002000
(1562274308.348597) can0 1A0#0041000000000007
(1562274308.348821) can0 2A0#0000000000007070
(1562274308.349326) can0 4A0#0000000000000000
(1562274308.349507) can0 4A8#FE7F0020000040E1
(1562274308.349756) can0 588#E000008000000001
(1562274308.349981) can0 5A0#6B0100450000402B
(1562274308.350879) can0 728#04030100040000
(1562274308.352842) can0 280#0926000000000000
(1562274308.357837) can0 380#0000000000000011
(1562274308.358090) can0 488#96000000A6FFFF30
(1562274308.358335) can0 1A0#0041000000000008
(1562274308.358581) can0 2A0#0000000000008080
(1562274308.358826) can0 4A0#0000000000000000
(1562274308.359315) can0 3A0#0B0400000000000F
(1562274308.359565) can0 540#3000000000002000
(1562274308.360877) can0 470#C01100000000001F
(1562274308.362197) can0 320#020200010003009A
(1562274308.362427) can0 420#0A9697000061FF00
(1562274308.362752) can0 52A#0000000000000000
(1562274308.363201) can0 280#0926000000000000
(1562274308.363456) can0 288#1100000000005C19
(1562274308.363693) can0 480#0F2000000000002F
(1562274308.363948) can0 48A#2200000000020020
(1562274308.364172) can0 5D2#00FFFFFFFF394257
(1562274308.364373) can0 5F3#0000890100000000
(1562274308.364492) can0 60E#0000
(1562274308.364765) can0 621#209D000002610000
(1562274308.365278) can0 62E#E52321F2019A0A
(1562274308.365443) can0 050#00252005
(1562274308.366147) can0 497#0000000044460000
(1562274308.367816) can0 380#0000000000000011
(1562274308.368066) can0 488#E6000000A6FFFF40
(1562274308.368313) can0 540#4000000000002000
(1562274308.368563) can0 588#E000008000000001
(1562274308.368790) can0 1A0#0041000000000009
(1562274308.369194) can0 2A0#0000000000009090
(1562274308.369464) can0 4A0#0000000000000000
(1562274308.369687) can0 4A8#FE7F0020000050F1
(1562274308.369937) can0 5A0#6B0100550000402B
(1562274308.372797) can0 280#0926000000000000
(1562274308.377799) can0 380#0000000000000011
(1562274308.378050) can0 488#F6000000A6FFFF50
(1562274308.378275) can0 1A0#004100000000000A
(1562274308.378531) can0 2A0#000000000000A0A0
(1562274308.378767) can0 4A0#0000000000000000
(1562274308.379171) can0 3A0#0A0500000000000F
(1562274308.379417) can0 540#5000000000002000
(1562274308.382161) can0 320#020200010004009A
(1562274308.382432) can0 629#FE2FFE7F00000000
(1562274308.383080) can0 280#0926000000000000
(1562274308.383322) can0 288#1100000000005C19
(1562274308.383570) can0 480#0F2000000000002F
(1562274308.383872) can0 48A#3200000000020030
(1562274308.385401) can0 050#00253015
(1562274308.387765) can0 380#0000000000000011
(1562274308.388028) can0 488#C6000000A6FFFF60
(1562274308.388266) can0 540#6000000000002000
(1562274308.388521) can0 1A0#004100000000000B
(1562274308.388770) can0 2A0#000000000000B0B0
(1562274308.389239) can0 4A0#0000000000000000
(1562274308.389422) can0 4A8#FE7F0020000060C1
(1562274308.389667) can0 588#E000008000000001
(1562274308.389893) can0 5A0#6B0100650000402B
(1562274308.390947) can0 5D0#850250AF0059C000
(1562274308.392768) can0 280#0926000000000000
(1562274308.397753) can0 380#0000000000000011
(1562274308.398002) can0 488#D6000000A6FFFF70
(1562274308.398227) can0 1A0#004100000000000C
(1562274308.398477) can0 2A0#000000000000C0C0
(1562274308.398746) can0 4A0#0000000000000000
(1562274308.399147) can0 3A0#090600000000000F
(1562274308.399394) can0 540#7000000000002000
(1562274308.402118) can0 320#020200010005009A
(1562274308.402444) can0 62B#FE2F00400200FE7F
(1562274308.402993) can0 280#0926000000000000
(1562274308.403293) can0 288#1100000000005C19
(1562274308.403537) can0 480#0F2000000000002F
(1562274308.403835) can0 48A#4200000000020040
(1562274308.405379) can0 050#00254065
(1562274308.405650) can0 550#2000000000000020
(1562274308.407720) can0 380#0000000000000011
(1562274308.407952) can0 488#26000000A6FFFF80
(1562274308.408213) can0 540#8000000000002000
(1562274308.408461) can0 1A0#004100000000000D
(1562274308.408710) can0 2A0#000000000000D0D0
(1562274308.409130) can0 4A0#0000000000000000
(1562274308.409376) can0 4A8#FE7F0020000070D1
(1562274308.409652) can0 588#E000008000000001
(1562274308.409878) can0 5A0#6B0100750000402B
(1562274308.410143) can0 661#8200000000000000
(1562274308.410911) can0 470#C01100000000001F
(1562274308.411229) can0 35F#0080000000000000
(1562274308.411506) can0 390#0000410000000000
(1562274308.411766) can0 392#0000008000000000
(1562274308.412006) can0 570#07A09A0500
(1562274308.412195) can0 5C1#00000050
(1562274308.412561) can0 5DC#7D00B00108000040
(1562274308.412819) can0 280#0926000000000000
(1562274308.416033) can0 5D6#0000
(1562274308.417714) can0 380#0000000000000011
(1562274308.417962) can0 488#36000000A6FFFF90
(1562274308.418171) can0 540#9000000000002000
(1562274308.418422) can0 1A0#004100000000000E
(1562274308.418695) can0 2A0#000000000000E0E0
(1562274308.419179) can0 4A0#0000000000000000
(1562274308.419356) can0 3A0#080700000000000F
(1562274308.422072) can0 320#020200010006009A
(1562274308.422300) can0 62D#FE2F00400200FE7F
(1562274308.422990) can0 280#0926000000000000
(1562274308.423238) can0 288#5900000000005C19
(1562274308.423492) can0 480#5920000000000079
(1562274308.425322) can0 050#00255075
(1562274308.428284) can0 1A0#004100000000000F
(1562274308.428527) can0 2A0#000000000000F0F0
(1562274308.428990) can0 4A0#0000000000000000
(1562274308.429243) can0 4A8#FE7F002000008021
(1562274308.429468) can0 5A0#6B0100850000402B
(1562274308.437992) can0 1A0#0041000000000000
(1562274308.438168) can0 2A0#0000000000000000
(1562274308.438360) can0 4A0#0000000000000000
(1562274308.438667) can0 3A0#070800000000000F
(1562274308.442038) can0 320#020200010007009A
(1562274308.442937) can0 280#0926000000000019
(1562274308.445285) can0 050#00256045
(1562274308.447638) can0 380#006E000000000011
(1562274308.447876) can0 488#7B00007EA5FFFFA0
(1562274308.448136) can0 1A0#0041000000000001
(1562274308.448385) can0 2A0#0000000000001010
(1562274308.448628) can0 4A0#0000000000000000
(1562274308.449111) can0 4A8#FE7F002000009031
(1562274308.449288) can0 540#A000000000002000
(1562274308.449510) can0 5A0#6B0100950000402B
(1562274308.452556) can0 280#0926000000000019
(1562274308.453046) can0 288#5999000000005C19
(1562274308.453240) can0 480#592C000000000277
(1562274308.453544) can0 48A#6200000000020060
(1562274308.457608) can0 380#006E000000000011
(1562274308.457836) can0 488#6B00007EA5FFFFB0
(1562274308.458086) can0 540#B000000000002000
(1562274308.458339) can0 1A0#0041000000000002
(1562274308.458587) can0 2A0#0000000000002020
(1562274308.458995) can0 4A0#0000000000000000
(1562274308.459241) can0 3A0#060900000000000F
(1562274308.459488) can0 588#E0007E8000000077
(1562274308.460654) can0 470#C01100000000001F
(1562274308.462058) can0 320#020200010008009A
(1562274308.462309) can0 520#55C4029D00E52301
(1562274308.462554) can0 621#209D000002610000
(1562274308.463000) can0 280#0926000000000019
(1562274308.465273) can0 050#00257055
(1562274308.465865) can0 497#0000000044460000
(1562274308.467591) can0 380#006E000000000011
(1562274308.467838) can0 488#1B00007EA5FFFFC0
(1562274308.468083) can0 540#C000000000002000
(1562274308.468333) can0 1A0#0041000000000003
(1562274308.468600) can0 2A0#0000000000003030
(1562274308.469057) can0 4A0#0000000000000000
(1562274308.469240) can0 4A8#FE7F00200000A001
(1562274308.469497) can0 5A0#6B0100A50000402B
(1562274308.472571) can0 280#0926000000000019
(1562274308.472995) can0 288#5999000000005C19
(1562274308.473266) can0 480#592C000000000277
(1562274308.473511) can0 48A#7200000000020070
(1562274308.473735) can0 56A#0900000018000011
(1562274308.477564) can0 380#006E000000000011
(1562274308.477813) can0 488#0B00007EA5FFFFD0
(1562274308.478056) can0 540#D000000000002000
(1562274308.478225) can0 1A0#0041000000000004
(1562274308.478535) can0 2A0#0000000000004040
(1562274308.479045) can0 4A0#0000000000000000
(1562274308.479293) can0 3A0#050A00000000000F
(1562274308.479537) can0 588#E0007E8000000077
(1562274308.482020) can0 320#020200010009009A
(1562274308.482851) can0 280#0926000000000019
(1562274308.485144) can0 050#002580A5
(1562274308.487549) can0 380#006E000000000011
(1562274308.487792) can0 488#3B00007EA5FFFFE0
(1562274308.488027) can0 540#E000000000002000
(1562274308.488279) can0 1A0#0041000000000005
(1562274308.488523) can0 2A0#0000000000005050
(1562274308.489031) can0 4A0#0000000000000000
(1562274308.489200) can0 4A8#FE7F00200000B011
(1562274308.489422) can0 5A0#6B0100B50000402B
(1562274308.490596) can0 5D0#850250AF0059C000
(1562274308.492502) can0 280#0926000000000019
(1562274308.492970) can0 288#5999000000005C19
(1562274308.493216) can0 480#592C000000000277
(1562274308.493458) can0 48A#8200000000020080
(1562274308.497486) can0 010#E86609C4A03901
(1562274308.497730) can0 380#006E000000000011
(1562274308.497978) can0 488#2B00007EA5FFFFF0
(1562274308.498155) can0 1A0#0041000000000006
(1562274308.498402) can0 2A0#0000000000006060
(1562274308.498971) can0 4A0#0000000000000000
(1562274308.499204) can0 3A0#040B00000000000F
(1562274308.499446) can0 540#F000000000002000
(1562274308.499675) can0 011#40D44709CF1C1F
(1562274308.499917) can0 588#E0007E8000000077
(1562274308.501979) can0 320#02020001000A009A
(1562274308.502800) can0 280#0926000000000019
(1562274308.505147) can0 050#002590B5
(1562274308.507493) can0 380#006E000000000011
(1562274308.507749) can0 488#2400007EA5FF0000
(1562274308.507993) can0 540#0000000000002000
(1562274308.508241) can0 1A0#0041000000000007
(1562274308.508471) can0 2A0#0000000000007070
(1562274308.508982) can0 4A0#0000000000000000
(1562274308.509178) can0 4A8#FE7F00200000C061
(1562274308.509384) can0 5A0#6B0100C50000402B
(1562274308.510594) can0 470#C01100000000001F
(1562274308.510847) can0 35F#0080000000000000
(1562274308.511224) can0 390#0000410000000000
(1562274308.511501) can0 392#0000008000000000
(1562274308.511687) can0 570#07A0980500
(1562274308.511993) can0 5DC#7D00B00108000040
(1562274308.512486) can0 280#0926000000000019
(1562274308.512918) can0 288#8F99000000005C19
(1562274308.513167) can0 480#942C0000000002BA
(1562274308.513415) can0 48A#9200000000020090
(1562274308.513638) can0 56A#3900000018000021
(1562274308.516458) can0 497#0000000094960000
(1562274308.517479) can0 380#006E000000000011
(1562274308.517705) can0 488#2500007EA5FF1110
(1562274308.517889) can0 540#1000000000002000
(1562274308.518134) can0 1A0#0041000000000008
(1562274308.518458) can0 2A0#0000000000008080
(1562274308.518939) can0 4A0#0000000000000000
(1562274308.519171) can0 3A0#030C00000000000F
(1562274308.519437) can0 588#E0007E8000000077
(1562274308.519568) can0 678#40000105
(1562274308.519730) can0 5D6#0000
(1562274308.520976) can0 6DA#028203000A000303
(1562274308.521998) can0 320#02020001000B009A
(1562274308.522793) can0 280#0926000000000019
(1562274308.522819) can0 676#1281
(1562274308.525148) can0 050#0025A085
(1562274308.527934) can0 1A0#0041000000000009
(1562274308.528191) can0 2A0#0000000000009090
(1562274308.528457) can0 4A0#0000000000000000
(1562274308.528936) can0 4A8#FE7F00200000D071
(1562274308.529187) can0 5A0#6B0100D50000402B
(1562274308.532136) can0 727#08034100040000
(1562274308.537693) can0 1A0#004100000000000A
(1562274308.537941) can0 2A0#000000000000A0A0
(1562274308.538189) can0 4A0#0000000000000000
(1562274308.538438) can0 3A0#020D00000000000F
(1562274308.538722) can0 67A#1283
(1562274308.541777) can0 320#02020001000C00BA
(1562274308.542707) can0 280#0926000000000019
(1562274308.545020) can0 050#0025B095
(1562274308.547461) can0 380#006E000000000011
(1562274308.547630) can0 488#6F00007EA5FF6B20
(1562274308.547879) can0 1A0#004100000000000B
(1562274308.548149) can0 2A0#000000000000B0B0
(1562274308.548390) can0 4A0#0000000000000000
(1562274308.548865) can0 4A8#FE7F00200000E041
(1562274308.549068) can0 540#2000000000002000
(1562274308.549290) can0 5A0#6B0100E50000402B
(1562274308.550435) can0 728#04030100000000
(1562274308.552429) can0 280#0926000000000019
(1562274308.552863) can0 288#8F99000000005C19
(1562274308.553071) can0 480#942C0000000002BA
(1562274308.553260) can0 48A#A2000000000200A0
(1562274308.557388) can0 380#006E000000000011
(1562274308.557610) can0 488#EB00007EA5FFFF30
(1562274308.557858) can0 540#3000000000002000
(1562274308.558107) can0 1A0#004100000000000C
(1562274308.558358) can0 2A0#000000000000C0C0
(1562274308.558866) can0 4A0#0000000000000000
(1562274308.559112) can0 3A0#010E00000000000F
(1562274308.559274) can0 588#E0007E8000000076
(1562274308.560433) can0 470#C01100000000001F
(1562274308.561779) can0 320#02020001000D00BA
(1562274308.562008) can0 420#0A9697000061FF00
(1562274308.562328) can0 5D2#01414234355A3848
(1562274308.562772) can0 280#0926000000000019
(1562274308.563006) can0 621#209D000002610000
(1562274308.564983) can0 050#0025C0E5
(1562274308.566116) can0 497#0000000094960020
(1562274308.567371) can0 380#006E000000000011
(1562274308.567617) can0 488#9B00007EA5FFFF40
(1562274308.567860) can0 540#4000000000002000
(1562274308.568105) can0 1A0#004100000000000D
(1562274308.568350) can0 2A0#000000000000D0D0
(1562274308.568845) can0 4A0#0000000000000000
(1562274308.568998) can0 4A8#FE7F00200000F051
(1562274308.569250) can0 5A0#6B0100F50000402B
(1562274308.570792) can0 6DA#8023428103000A00
(1562274308.572289) can0 280#0926000000000019
(1562274308.572785) can0 288#8F99000000005C19
(1562274308.573032) can0 480#942C0000000002BA
(1562274308.573282) can0 48A#B2000000000200B0
(1562274308.573509) can0 56A#2900000018000031
(1562274308.577389) can0 380#006E000000000011
(1562274308.577569) can0 488#8B00007EA5FFFF50
(1562274308.577751) can0 1A0#004100000000000E
(1562274308.577998) can0 2A0#000000000000E0E0
(1562274308.578309) can0 4A0#0000000000000000
(1562274308.578817) can0 3A0#000F00000000000F
(1562274308.579066) can0 540#5000000000002000
(1562274308.579291) can0 588#E0007E8000000076
(1562274308.581800) can0 320#02020001000E00BA
(1562274308.582728) can0 280#0926000000000019
(1562274308.584951) can0 050#0025D0F5
(1562274308.587321) can0 380#006E000000000011
(1562274308.587542) can0 488#BB00007EA5FFFF60
(1562274308.587801) can0 540#6000000000002000
(1562274308.588054) can0 1A0#004100000000000F
(1562274308.588305) can0 2A0#000000000000F0F0
(1562274308.588775) can0 4A0#0000000000000000
(1562274308.588954) can0 4A8#FE7F0030000000B1
(1562274308.589206) can0 5A0#6B0100050000402B
(1562274308.590373) can0 5D0#850250AF0059C000
(1562274308.592290) can0 280#0926000000000019
(1562274308.592736) can0 288#8F99000000005C19
(1562274308.592988) can0 480#942C0000000002BA
(1562274308.593232) can0 48A#C2000000000200C0
(1562274308.597301) can0 380#006E000000000017
(1562274308.597549) can0 488#AB00007EA5FFFF70
(1562274308.597770) can0 540#7000000000002000
(1562274308.597954) can0 1A0#0041000000000000
(1562274308.598227) can0 2A0#0000000000000000
(1562274308.598767) can0 4A0#0000000000000000
(1562274308.599029) can0 3A0#0F0000000000000F
(1562274308.599250) can0 588#E0007E8000000076
(1562274308.601746) can0 320#02020001000F00BA
(1562274308.602651) can0 280#0926000000000019
(1562274308.604956) can0 050#0025E0C5
(1562274308.605217) can0 550#3000000000000030
(1562274308.607288) can0 380#006E000000000029
(1562274308.607538) can0 488#5B00007EA5FFFF80
(1562274308.607785) can0 1A0#0041000000000001
(1562274308.608034) can0 2A0#0000000000001010
(1562274308.608278) can0 4A0#0000000000000000
(1562274308.608687) can0 4A8#FE7F0030000010A1
(1562274308.608962) can0 540#8000000000002000
(1562274308.609155) can0 5A0#6B0100150000402B
(1562274308.610321) can0 470#C01100000000001F
(1562274308.610625) can0 35F#0080000000000000
(1562274308.610977) can0 390#0000410000000000
(1562274308.611250) can0 392#0000008000000000
(1562274308.611442) can0 570#07A0980500
(1562274308.611771) can0 5DC#7D00B00108000040
(1562274308.612055) can0 64F#000000FFFFFFFF00
(1562274308.612280) can0 280#0926000000000019
(1562274308.612735) can0 288#D499000000005C19
(1562274308.612989) can0 480#E22C0000000002CC
(1562274308.613215) can0 48A#D2000000000200D0
(1562274308.613403) can0 56A#5900000018000041
(1562274308.616146) can0 5D6#0000
(1562274308.617267) can0 380#006E00000000002F
(1562274308.617504) can0 488#4B00007EA5FFFF90
(1562274308.617750) can0 540#9000000000002000
(1562274308.617964) can0 1A0#0041000000000002
(1562274308.618183) can0 2A0#0000000000002020
(1562274308.618719) can0 4A0#0000000000000000
(1562274308.619006) can0 3A0#0E0100000000000F
(1562274308.619218) can0 588#E0007E8000000076
(1562274308.619989) can0 6DA#C003033803FB0000
(1562274308.621744) can0 320#02020001000000BA
(1562274308.622567) can0 280#0926000000000019
(1562274308.624922) can0 050#0025F0D5
(1562274308.627244) can0 380#006E00000000002C
(1562274308.627465) can0 488#7B00007EA5FFFFA0
(1562274308.627709) can0 540#A000000000002000
(1562274308.627958) can0 1A0#0041000000000003
(1562274308.628210) can0 2A0#0000000000003030
(1562274308.628704) can0 4A0#0000000000000000
(1562274308.628871) can0 4A8#FE7F003000002091
(1562274308.629117) can0 5A0#6B0100250000402B
(1562274308.632179) can0 280#0926000000000019
(1562274308.632621) can0 288#D499000000005C19
(1562274308.632873) can0 480#E22C0000000002CC
(1562274308.633120) can0 48A#E2000000000200E0
(1562274308.637175) can0 380#006E00000000002D
(1562274308.637444) can0 488#6B00007EA5FFFFB0
(1562274308.637687) can0 540#B000000000002000
(1562274308.637905) can0 1A0#0041000000000004
(1562274308.638168) can0 2A0#0000000000004040
(1562274308.638702) can0 4A0#0000000000000000
(1562274308.638891) can0 3A0#0D0200000000000F
(1562274308.639110) can0 588#E0007E8000000077
(1562274308.641599) can0 320#02020001000100BA
(1562274308.642576) can0 280#0926000000000019
(1562274308.644801) can0 050#00250025
(1562274308.647193) can0 380#006E000000000031
(1562274308.647430) can0 488#1B00007EA5FFFFC0
(1562274308.647679) can0 540#C000000000002000
(1562274308.647937) can0 1A0#0041000000000005
(1562274308.648179) can0 2A0#0000000000005050
(1562274308.648680) can0 4A0#0000000000000000
(1562274308.648827) can0 4A8#FE7F003000003081
(1562274308.649073) can0 5A0#6B0100350000402B
(1562274308.652130) can0 280#0926000000000019
(1562274308.652587) can0 288#D499000000005C19
(1562274308.652861) can0 480#E22C0000000002CC
(1562274308.653115) can0 48A#F2000000000200F0
(1562274308.653337) can0 56A#4900000018000051
(1562274308.657166) can0 380#006E000000000033
(1562274308.657426) can0 488#0B00007EA5FFFFD0
(1562274308.657651) can0 540#D000000000002000
(1562274308.657895) can0 1A0#0041000000000006
(1562274308.658145) can0 2A0#0000000000006060
(1562274308.658640) can0 4A0#0000000000000000
(1562274308.658917) can0 3A0#0C0300000000000F
(1562274308.659072) can0 588#E0007E8000000077
(1562274308.660194) can0 470#C01100000000001F
(1562274308.661538) can0 320#02020001000200BA
(1562274308.661819) can0 520#0608029D00E52301
(1562274308.662102) can0 621#209D000002610000
(1562274308.662555) can0 280#0926000000000019
(1562274308.662803) can0 58C#10000000FE000000
(1562274308.664766) can0 050#00251035
(1562274308.665871) can0 497#0000000094960020
(1562274308.667147) can0 380#006E000000000033
(1562274308.667394) can0 488#3B00007EA5FFFFE0
(1562274308.667640) can0 540#E000000000002000
(1562274308.667913) can0 1A0#0041000000000007
(1562274308.668115) can0 2A0#0000000000007070
(1562274308.668635) can0 4A0#0000000000000000
(1562274308.668806) can0 4A8#FE7F0030000040F1
(1562274308.669068) can0 5A0#6B0100450000402B
(1562274308.669865) can0 6DA#C10000000A0F0303
(1562274308.672099) can0 280#0926000000000019
(1562274308.672560) can0 288#D499000000005C19
(1562274308.672805) can0 480#E22C0000000002CC
(1562274308.673053) can0 48A#0200000000020000
(1562274308.677123) can0 380#006E000000000034
(1562274308.677383) can0 488#2B00007EA5FFFFF0
(1562274308.677608) can0 540#F000000000002000
(1562274308.677782) can0 1A0#0041000000000008
(1562274308.678054) can0 2A0#0000000000008080
(1562274308.678596) can0 4A0#0000000000000000
(1562274308.678845) can0 3A0#0B0400000000000F
(1562274308.679095) can0 588#E0007E8000000077
(1562274308.681545) can0 320#02020001000300BA
(1562274308.682428) can0 280#0926000000000019
(1562274308.684705) can0 050#00252005
(1562274308.687114) can0 380#006E000000000035
(1562274308.687355) can0 488#2400007EA5FF0000
(1562274308.687602) can0 1A0#0041000000000009
(1562274308.687854) can0 2A0#0000000000009090
(1562274308.688097) can0 4A0#0000000000000000
(1562274308.688638) can0 4A8#FE7F0030000050E1
(1562274308.688732) can0 540#0000000000002000
(1562274308.688978) can0 5A0#6B0100550000402B
(1562274308.690170) can0 5D0#850250AF0059C000
(1562274308.692042) can0 280#0926000000000019
(1562274308.692545) can0 288#1199000000005C19
(1562274308.692798) can0 480#0F2C000000000221
(1562274308.693022) can0 48A#1200000000020010
(1562274308.693278) can0 56A#7900000018000061
(1562274308.697086) can0 380#006E000000000035
(1562274308.697308) can0 488#0200007EA5FF3610
(1562274308.697490) can0 540#1000000000002000
(1562274308.697779) can0 1A0#004100000000000A
(1562274308.698027) can0 2A0#000000000000A0A0
(1562274308.698546) can0 4A0#0000000000000000
(1562274308.698793) can0 3A0#0A0500000000000F
(1562274308.699034) can0 588#E0007E8000000077
(1562274308.701494) can0 320#02020001000400BA
(1562274308.702523) can0 280#0926000000000019
(1562274308.704721) can0 050#00253015
(1562274308.707061) can0 380#006E000000000036
(1562274308.707289) can0 488#6F00007EA5FF6B20
(1562274308.707538) can0 540#2000000000002000
(1562274308.707787) can0 1A0#004100000000000B
(1562274308.708036) can0 2A0#000000000000B0B0
(1562274308.708530) can0 4A0#0000000000000000
(1562274308.708688) can0 4A8#FE7F0030000060D1
(1562274308.708934) can0 5A0#6B0100650000402B
(1562274308.710101) can0 470#C01100000000001F
(1562274308.710330) can0 35F#0080000000000000
(1562274308.710679) can0 390#0000410000000000
(1562274308.710982) can0 392#0000008000000000
(1562274308.711177) can0 570#07A0990500
(1562274308.711470) can0 5DC#7D00B00108000040
(1562274308.712041) can0 280#0926000000000019
(1562274308.712506) can0 288#1199000000005C19
(1562274308.712761) can0 480#0F2C000000000221
(1562274308.712979) can0 48A#2200000000020020
(1562274308.716063) can0 5D6#0000
(1562274308.717039) can0 380#006E000000000037
(1562274308.717261) can0 488#EB00007EA5FFFF30
(1562274308.717512) can0 540#3000000000002000
(1562274308.717691) can0 1A0#004100000000000C
(1562274308.717942) can0 2A0#000000000000C0C0
(1562274308.718513) can0 4A0#0000000000000000
(1562274308.718777) can0 3A0#090600000000000F
(1562274308.719013) can0 588#E0007E8000000077
(1562274308.719884) can0 6DA#C20006090409FFFF
(1562274308.721488) can0 320#02020001000500BA
(1562274308.722378) can0 280#0926000000000019
(1562274308.724827) can0 050#00254065
(1562274308.727012) can0 380#006E000000000037
(1562274308.727257) can0 488#9B00007EA5FFFF40
(1562274308.727504) can0 540#4000000000002000
(1562274308.727752) can0 1A0#004100000000000D
(1562274308.728001) can0 2A0#000000000000D0D0
(1562274308.728470) can0 4A0#0000000000000000
(1562274308.728643) can0 4A8#FE7F0030000070C1
(1562274308.728894) can0 5A0#6B0100750000402B
(1562274308.731660) can0 727#08034100040000
(1562274308.731931) can0 280#0926000000000019
(1562274308.732464) can0 288#1199000000005C19
(1562274308.732706) can0 480#0F2C000000000221
(1562274308.732934) can0 48A#3200000000020030
(1562274308.733181) can0 56A#6900000018000071
(1562274308.737007) can0 380#006E000000000037
(1562274308.737215) can0 488#8B00007EA5FFFF50
(1562274308.737467) can0 1A0#004100000000000E
(1562274308.737649) can0 2A0#000000000000E0E0
(1562274308.737901) can0 4A0#0000000000000000
(1562274308.738464) can0 3A0#080700000000000F
(1562274308.738711) can0 540#5000000000002000
(1562274308.738962) can0 588#E0007E8000000076
(1562274308.741445) can0 320#02020001000600BA
(1562274308.742299) can0 280#0926000000000019
(1562274308.744623) can0 050#00255075
(1562274308.746982) can0 380#006E000000000038
(1562274308.747222) can0 488#BB00007EA5FFFF60
(1562274308.747469) can0 1A0#004100000000000F
(1562274308.747704) can0 2A0#000000000000F0F0
(1562274308.747960) can0 4A0#0000000000000000
(1562274308.748428) can0 4A8#FE7F003000008031
(1562274308.748620) can0 540#6000000000002000
(1562274308.748843) can0 5A0#6B0100850000402B
(1562274308.750018) can0 728#04030100000000
(1562274308.751963) can0 280#0926000000000019
(1562274308.752411) can0 288#1199000000005C19
(1562274308.752663) can0 480#0F2C000000000221
(1562274308.752888) can0 48A#4200000000020040
(1562274308.756953) can0 380#006E000000000037
(1562274308.757179) can0 488#AB00007EA5FFFF70
(1562274308.757417) can0 1A0#0041000000000000
(1562274308.757611) can0 2A0#0000000000000000
(1562274308.757853) can0 4A0#0000000000000000
(1562274308.758421) can0 3A0#070800000000000F
(1562274308.758667) can0 540#7000000000002000
(1562274308.758927) can0 588#E0007E8000000076
(1562274308.760028) can0 470#C01100000000001F
(1562274308.761358) can0 320#02020001000700BA
(1562274308.761609) can0 420#0A9697000061FF00
(1562274308.761860) can0 5D2#0234303134333333
(1562274308.762244) can0 280#0926000000000019
(1562274308.762496) can0 58C#10000000FE000000
(1562274308.762784) can0 621#209D000002610000
(1562274308.764588) can0 050#00256045
(1562274308.765709) can0 497#0000000094960020
(1562274308.766936) can0 380#006E000000000037
(1562274308.767184) can0 488#5B00007EA5FFFF80
(1562274308.767436) can0 540#8000000000002000
(1562274308.767679) can0 1A0#0041000000000001
(1562274308.767902) can0 2A0#0000000000001010
(1562274308.768401) can0 4A0#0000000000000000
(1562274308.768622) can0 4A8#FE7F003000009021
(1562274308.768799) can0 5A0#6B0100950000402B
(1562274308.769815) can0 6DA#C3FFFFFFFFFFFF00
(1562274308.771864) can0 280#0926000000000019
(1562274308.772357) can0 288#5999000000005C19
(1562274308.772546) can0 480#592C000000000277
(1562274308.772834) can0 48A#5200000000020050
(1562274308.773084) can0 56A#9900000018000081
(1562274308.776900) can0 380#006E000000000035
(1562274308.777161) can0 488#4B00007EA5FFFF90
(1562274308.777407) can0 540#9000000000002000
(1562274308.777581) can0 1A0#0041000000000002
(1562274308.777804) can0 2A0#0000000000002020
(1562274308.778370) can0 4A0#0000000000000000
(1562274308.778617) can0 3A0#060900000000000F
(1562274308.778839) can0 588#E0007E8000000076
(1562274308.781271) can0 320#02020001000800BA
(1562274308.782192) can0 280#0926000000000019
(1562274308.784560) can0 050#00257055
(1562274308.786875) can0 380#006E000000000030
(1562274308.787130) can0 488#7B00007EA5FFFFA0
(1562274308.787376) can0 540#A000000000002000
(1562274308.787623) can0 1A0#0041000000000003
(1562274308.787849) can0 2A0#0000000000003030
(1562274308.788363) can0 4A0#0000000000000000
(1562274308.788535) can0 4A8#FE7F00300000A011
(1562274308.788757) can0 5A0#6B0100A50000402B
(1562274308.789922) can0 5D0#850250AF0059C000
(1562274308.791844) can0 280#0926000000000019
(1562274308.792292) can0 288#5999000000005C19
(1562274308.792560) can0 480#592C000000000277
(1562274308.792792) can0 48A#6200000000020060
(1562274308.796868) can0 380#006E00000000002B
(1562274308.797087) can0 488#6B00007EA5FFFFB0
(1562274308.797353) can0 540#B000000000002000
(1562274308.797517) can0 1A0#0041000000000004
(1562274308.797762) can0 2A0#0000000000004040
(1562274308.798337) can0 4A0#0000000000000000
(1562274308.798590) can0 3A0#050A00000000000F
(1562274308.798832) can0 588#E0007E8000000076
(1562274308.801272) can0 320#02020001000900BA
(1562274308.802143) can0 280#0926000000000019
(1562274308.804474) can0 050#002580A5
(1562274308.804727) can0 550#4000000000000040
(1562274308.806841) can0 380#006E000000000023
(1562274308.807103) can0 488#1B00007EA5FFFFC0
(1562274308.807328) can0 1A0#0041000000000005
(1562274308.807577) can0 2A0#0000000000005050
(1562274308.807847) can0 4A0#0000000000000000
(1562274308.808243) can0 4A8#FE7F00300000B001
(1562274308.808555) can0 540#C000000000002000
(1562274308.808719) can0 5A0#6B0100B50000402B
(1562274308.809888) can0 470#C01100000000001F
(1562274308.810179) can0 35F#0080000000000000
(1562274308.810467) can0 390#0000410000000000
(1562274308.810750) can0 392#0000008000000000
(1562274308.810985) can0 570#07A0980500
(1562274308.811256) can0 5DC#7D00B00108000040
(1562274308.811835) can0 280#0926000000000019
(1562274308.812272) can0 288#5999000000005C19
(1562274308.812491) can0 480#592C000000000277
(1562274308.812742) can0 48A#7200000000020070
(1562274308.812906) can0 56A#8900000018000091
(1562274308.815708) can0 5D6#0000
(1562274308.816764) can0 380#006E00000000001D
(1562274308.817062) can0 488#0B00007EA5FFFFD0
(1562274308.817308) can0 540#D000000000002000
(1562274308.817555) can0 1A0#0041000000000006
(1562274308.817807) can0 2A0#0000000000006060
(1562274308.818297) can0 4A0#0000000000000000
(1562274308.818548) can0 3A0#040B00000000000F
(1562274308.818717) can0 588#E0007E8000000076
(1562274308.819479) can0 6DA#C4000001
(1562274308.821184) can0 320#02020001000A00BA
(1562274308.822094) can0 280#0926000000000019
(1562274308.824606) can0 050#002590B5
(1562274308.826800) can0 380#006E000000000012
(1562274308.827035) can0 488#3B00007EA5FFFFE0
(1562274308.827291) can0 1A0#0041000000000007
(1562274308.827540) can0 2A0#0000000000007070
(1562274308.827784) can0 4A0#0000000000000000
(1562274308.828273) can0 4A8#FE7F00300000C071
(1562274308.828447) can0 540#E000000000002000
(1562274308.828669) can0 5A0#6B0100C50000402B
(1562274308.831732) can0 280#0926000000000019
(1562274308.832182) can0 288#5999000000005C19
(1562274308.832426) can0 480#592C000000000277
(1562274308.832661) can0 48A#8200000000020080
(1562274308.836733) can0 380#006E00000000000D
(1562274308.837028) can0 488#2B00007EA5FFFFF0
(1562274308.837249) can0 540#F000000000002000
(1562274308.837461) can0 1A0#0041000000000008
(1562274308.837714) can0 2A0#0000000000008080
(1562274308.838255) can0 4A0#0000000000000000
(1562274308.838518) can0 3A0#030C00000000000F
(1562274308.838739) can0 588#E0007E8000000076
(1562274308.841150) can0 320#02020001000B00BA
(1562274308.842021) can0 280#0926000000000019
(1562274308.844346) can0 050#0025A085
(1562274308.846746) can0 380#006E00000000000A
(1562274308.847011) can0 488#2400007EA5FF0000
(1562274308.847241) can0 540#0000000000002000
(1562274308.847468) can0 1A0#0041000000000009
(1562274308.847717) can0 2A0#0000000000009090
(1562274308.848220) can0 4A0#0000000000000000
(1562274308.848403) can0 4A8#FE7F00300000D061
(1562274308.848624) can0 5A0#6B0100D50000402B
(1562274308.851687) can0 280#0926000000000019
(1562274308.852163) can0 288#8F99000000005C19
(1562274308.852405) can0 480#942C0000000002BA
(1562274308.852666) can0 48A#9200000000020090
(1562274308.852879) can0 56A#B9000000180000A1
(1562274308.856723) can0 380#006E00000000000B
(1562274308.856985) can0 488#3800007EA5FF0C10
(1562274308.857230) can0 540#1000000000002000
(1562274308.857478) can0 1A0#004100000000000A
(1562274308.857654) can0 2A0#000000000000A0A0
(1562274308.858167) can0 4A0#0000000000000000
(1562274308.858440) can0 3A0#020D00000000000F
(1562274308.858657) can0 588#E0007E8000000076
(1562274308.859698) can0 470#C01100000000001F
(1562274308.861129) can0 320#02020001000C00BA
(1562274308.861378) can0 520#4742029D00E52301
(1562274308.861617) can0 5F3#00008A0100000000
(1562274308.862078) can0 280#0926000000000019
(1562274308.862366) can0 58C#10000000FE000000
(1562274308.862587) can0 621#209D000002610000
(1562274308.864309) can0 050#0025B095
(1562274308.865289) can0 497#0000000094960020
(1562274308.866701) can0 380#006E000000000010
(1562274308.866952) can0 488#6F00007EA5FF6B20
(1562274308.867198) can0 540#2000000000002000
(1562274308.867463) can0 1A0#004100000000000B
(1562274308.867685) can0 2A0#000000000000B0B0
(1562274308.868180) can0 4A0#0000000000000000
(1562274308.868346) can0 4A8#FE7F00300000E051
(1562274308.868597) can0 5A0#6B0100E50000402B
(1562274308.869546) can0 6DA#42833803FB000000
(1562274308.871648) can0 280#0926000000000019
(1562274308.872139) can0 288#8F99000000005C19
(1562274308.872373) can0 480#942C0000000002BA
(1562274308.872621) can0 48A#A2000000000200A0
(1562274308.876679) can0 380#006E000000000011
(1562274308.876942) can0 488#EB00007EA5FFFF30
(1562274308.877180) can0 540#3000000000002000
(1562274308.877334) can0 1A0#004100000000000C
(1562274308.877583) can0 2A0#000000000000C0C0
(1562274308.878155) can0 4A0#0000000000000000
(1562274308.878407) can0 3A0#010E00000000000F
(1562274308.878652) can0 588#E0007E8000000076
(1562274308.881084) can0 320#02020001000D00BA
(1562274308.882029) can0 280#0926000000000019
(1562274308.884235) can0 050#0025C0E5
(1562274308.886651) can0 380#006E000000000012
(1562274308.886915) can0 488#9B00007EA5FFFF40
(1562274308.887160) can0 1A0#004100000000000D
(1562274308.887387) can0 2A0#000000000000D0D0
(1562274308.887641) can0 4A0#0000000000000000
(1562274308.888124) can0 4A8#FE7F00300000F041
(1562274308.888288) can0 540#4000000000002000
(1562274308.888535) can0 5A0#6B0100F50000402B
(1562274308.889684) can0 5D0#850250AF0059C000
(1562274308.891581) can0 280#0926000000000019
(1562274308.892077) can0 288#8F99000000005C19
(1562274308.892324) can0 480#942C0000000002BA
(1562274308.892574) can0 48A#B2000000000200B0
(1562274308.892799) can0 56A#A9000000180000B1
(1562274308.896651) can0 380#006E000000000011
(1562274308.896900) can0 488#8B00007EA5FFFF50
(1562274308.897047) can0 1A0#004100000000000E
(1562274308.897293) can0 2A0#000000000000E0E0
(1562274308.897566) can0 4A0#0000000000000000
(1562274308.898101) can0 3A0#000F00000000000F
(1562274308.898357) can0 540#5000000000002000
(1562274308.898608) can0 588#E0007E8000000076
(1562274308.901058) can0 320#02020001000E00BA
(1562274308.901934) can0 280#0926000000000019
(1562274308.904291) can0 050#0025D0F5
(1562274308.906624) can0 380#006E000000000011
(1562274308.906872) can0 488#BB00007EA5FFFF60
(1562274308.907119) can0 1A0#004100000000000F
(1562274308.907347) can0 2A0#000000000000F0F0
(1562274308.907595) can0 4A0#0000000000000000
(1562274308.908064) can0 4A8#FE7F0030000000B1
(1562274308.908250) can0 540#6000000000002000
(1562274308.908497) can0 5A0#6B0100050000402B
(1562274308.909708) can0 470#C01100000000001F
(1562274308.910037) can0 35F#0080000000000000
(1562274308.910339) can0 390#0000410000000000
(1562274308.910611) can0 392#0000008000000000
(1562274308.910837) can0 570#07A0980500
(1562274308.911110) can0 5DC#7D00B00108000040
(1562274308.911602) can0 280#0926000000000019
(1562274308.912057) can0 288#8F99000000005C19
(1562274308.912284) can0 480#942C0000000002BA
(1562274308.912502) can0 48A#C2000000000200C0
(1562274308.915619) can0 5D6#0000
(1562274308.916514) can0 380#006E000000000011
(1562274308.916821) can0 488#AB00007EA5FFFF70
(1562274308.917123) can0 540#7000000000002000
(1562274308.917324) can0 1A0#0041000000000000
(1562274308.917567) can0 2A0#0000000000000000
(1562274308.918074) can0 4A0#0000000000000000
(1562274308.918321) can0 3A0#0F0000000000000F
(1562274308.918497) can0 588#E0007E8000000076
(1562274308.920959) can0 320#02020001000F00BA
(1562274308.921809) can0 280#0926000000000019
(1562274308.924389) can0 050#0025E0C5
(1562274308.926576) can0 380#006E000000000011
(1562274308.926824) can0 488#5B00007EA5FFFF80
(1562274308.927075) can0 1A0#0041000000000001
(1562274308.927310) can0 2A0#0000000000001010
(1562274308.927563) can0 4A0#0000000000000000
(1562274308.928060) can0 4A8#FE7F0030000010A1
(1562274308.928231) can0 540#8000000000002000
(1562274308.928453) can0 5A0#6B0100150000402B
(1562274308.931192) can0 727#08034100040000
(1562274308.931517) can0 280#0926000000000019
(1562274308.932012) can0 288#D499000000005C19
(1562274308.932241) can0 480#E22C0000000002CC
(1562274308.932476) can0 48A#D2000000000200D0
(1562274308.932705) can0 56A#D9000000180000C1
(1562274308.936547) can0 380#006E000000000011
(1562274308.936796) can0 488#4B00007EA5FFFF90
(1562274308.936959) can0 1A0#0041000000000002
(1562274308.937205) can0 2A0#0000000000002020
(1562274308.937459) can0 4A0#0000000000000000
(1562274308.938015) can0 3A0#0E0100000000000F
(1562274308.938264) can0 540#9000000000002000
(1562274308.938505) can0 588#E0007E8000000076
(1562274308.940962) can0 320#02020001000000BA
(1562274308.941891) can0 280#0926000000000019
(1562274308.944189) can0 050#0025F0D5
(1562274308.946522) can0 380#006E000000000011
(1562274308.946749) can0 488#7B00007EA5FFFFA0
(1562274308.947022) can0 1A0#0041000000000003
(1562274308.947265) can0 2A0#0000000000003030
(1562274308.947498) can0 4A0#0000000000000000
(1562274308.947992) can0 4A8#FE7F003000002091
(1562274308.948162) can0 540#A000000000002000
(1562274308.948408) can0 5A0#6B0100250000402B
(1562274308.949575) can0 728#04030100000000
(1562274308.951484) can0 280#0926000000000019
(1562274308.951962) can0 288#D499000000005C19
(1562274308.952184) can0 480#E22C0000000002CC
(1562274308.952432) can0 48A#E2000000000200E0
(1562274308.956501) can0 380#006E000000000011
(1562274308.956750) can0 488#6B00007EA5FFFFB0
(1562274308.956998) can0 1A0#0041000000000004
(1562274308.957183) can0 2A0#0000000000004040
(1562274308.957430) can0 4A0#0000000000000000
(1562274308.957982) can0 3A0#0D0200000000000F
(1562274308.958235) can0 540#B000000000002000
(1562274308.958462) can0 588#E0007E8000000076
(1562274308.959623) can0 470#C01100000000001F
(1562274308.960916) can0 320#02020001000100BA
(1562274308.961163) can0 420#0A9697000061FF00
(1562274308.961413) can0 5D2#00FFFFFFFF394257
(1562274308.961860) can0 280#0926000000000019
(1562274308.962050) can0 58C#10000000FE000000
(1562274308.962362) can0 621#209D000002610000
(1562274308.964090) can0 050#00250025
(1562274308.965060) can0 497#0000000094960020
(1562274308.966491) can0 380#006E000000000011
(1562274308.966727) can0 488#1B00007EA5FFFFC0
(1562274308.966964) can0 540#C000000000002000
(1562274308.967209) can0 1A0#0041000000000005
(1562274308.967456) can0 2A0#0000000000005050
(1562274308.967965) can0 4A0#0000000000000000
(1562274308.968118) can0 4A8#FE7F003000003081
(1562274308.968364) can0 5A0#6B0100350000402B
(1562274308.971404) can0 280#0926000000000019
(1562274308.971941) can0 288#D499000000005C19
(1562274308.972142) can0 480#E22C0000000002CC
(1562274308.972396) can0 48A#F2000000000200F0
(1562274308.972623) can0 56A#C9000000180000D1
(1562274308.976458) can0 380#006E000000000011
(1562274308.976706) can0 488#0B00007EA5FFFFD0
(1562274308.976958) can0 1A0#0041000000000006
(1562274308.977199) can0 2A0#0000000000006060
(1562274308.977387) can0 4A0#0000000000000000
(1562274308.977889) can0 3A0#0C0300000000000F
(1562274308.978170) can0 540#D000000000002000
(1562274308.978433) can0 588#E0007E8000000076
(1562274308.980872) can0 320#02020001000200BA
(1562274308.981743) can0 280#0926000000000019
(1562274308.984031) can0 050#00251035
(1562274308.986435) can0 380#006E000000000011
(1562274308.986691) can0 488#3B00007EA5FFFFE0
(1562274308.986941) can0 1A0#0041000000000007
(1562274308.987182) can0 2A0#0000000000007070
(1562274308.987425) can0 4A0#0000000000000000
(1562274308.987911) can0 4A8#FE7F0030000040F1
(1562274308.988098) can0 540#E000000000002000
(1562274308.988356) can0 5A0#6B0100450000402B
(1562274308.989504) can0 5D0#850250AF0059C000
(1562274308.991360) can0 280#0926000000000019
(1562274308.991851) can0 288#D499000000005C19
(1562274308.992104) can0 480#E22C0000000002CC
(1562274308.992353) can0 48A#0200000000020000
(1562274308.996426) can0 380#006E000000000011
(1562274308.996668) can0 488#2B00007EA5FFFFF0
(1562274308.996903) can0 540#F000000000002000
(1562274308.997093) can0 1A0#0041000000000008
(1562274308.997341) can0 2A0#0000000000008080
(1562274308.997876) can0 4A0#0000000000000000
(1562274308.998126) can0 3A0#0B0400000000000F
(1562274308.998374) can0 588#E0007E8000000076
(1562274309.000749) can0 320#02020001000300BA
(1562274309.001726) can0 280#0926000000000019
(1562274309.004019) can0 050#00252005
(1562274309.004301) can0 550#5000000000000050
(1562274309.006397) can0 380#006E000000000011
(1562274309.006642) can0 488#2400007EA5FF0000
(1562274309.006912) can0 1A0#0041000000000009
(1562274309.007155) can0 2A0#0000000000009090
(1562274309.007380) can0 4A0#0000000000000000
(1562274309.007855) can0 4A8#FE7F0030000050E1
(1562274309.008030) can0 540#0000000000002000
(1562274309.008282) can0 5A0#6B0100550000402B
(1562274309.009487) can0 470#C01100000000001F
(1562274309.009741) can0 35F#0080000000000000
(1562274309.010039) can0 390#0000410000000000
(1562274309.010391) can0 392#0000008000000000
(1562274309.010617) can0 570#07A0980500
(1562274309.010808) can0 5BF#00000050
(1562274309.011113) can0 5DC#7D00B00108000040
(1562274309.011383) can0 280#0926000000000019
(1562274309.011842) can0 288#1199000000005C19
(1562274309.012065) can0 480#0F2C000000000221
(1562274309.012316) can0 48A#1200000000020010
(1562274309.012564) can0 56A#F9000000180000E1
(1562274309.015319) can0 5D6#0000
(1562274309.016329) can0 380#006E000000000011
(1562274309.016533) can0 488#2600007EA5FF1210
(1562274309.016846) can0 540#1000000000002000
(1562274309.017097) can0 1A0#004100000000000A
(1562274309.017346) can0 2A0#000000000000A0A0
(1562274309.017835) can0 4A0#0000000000000000
(1562274309.018086) can0 3A0#0A0500000000000F
(1562274309.018285) can0 588#E0007E8000000076
(1562274309.020766) can0 320#02020001000400BA
(1562274309.021589) can0 280#0926000000000019
(1562274309.024167) can0 050#00253015
(1562274309.026348) can0 380#006E000000000011
(1562274309.026570) can0 488#6F00007EA5FF6B20
(1562274309.026832) can0 1A0#004100000000000B
(1562274309.027076) can0 2A0#000000000000B0B0
(1562274309.027329) can0 4A0#0000000000000000
(1562274309.027810) can0 4A8#FE7F0030000060D1
(1562274309.027981) can0 540#2000000000002000
(1562274309.028223) can0 5A0#6B0100650000402B
(1562274309.031305) can0 280#0926000000000019
(1562274309.031722) can0 288#1199000000005C19
(1562274309.032043) can0 480#0F2C000000000221
(1562274309.032271) can0 48A#2200000000020020
(1562274309.036345) can0 380#006E000000000011
(1562274309.036588) can0 488#EB00007EA5FFFF30
(1562274309.036805) can0 1A0#004100000000000C
(1562274309.037053) can0 2A0#000000000000C0C0
(1562274309.037304) can0 4A0#0000000000000000
(1562274309.037737) can0 3A0#090600000000000F
(1562274309.037984) can0 540#3000000000002000
(1562274309.038227) can0 588#E0007E8000000076
(1562274309.040678) can0 320#02020001000500BA
(1562274309.041622) can0 280#0926000000000019
(1562274309.041837) can0 58F#00FEFF7F00000018
(1562274309.043895) can0 050#00254065
(1562274309.046312) can0 380#006E000000000011
(1562274309.046547) can0 488#9B00007EA5FFFF40
(1562274309.046794) can0 1A0#004100000000000D
(1562274309.047030) can0 2A0#000000000000D0D0
(1562274309.047297) can0 4A0#0000000000000000
(1562274309.047778) can0 4A8#FE7F0030000070C1
(1562274309.047944) can0 540#4000000000002000
(1562274309.048191) can0 5A0#6B0100750000402B
(1562274309.051230) can0 280#0926000000000019
(1562274309.051742) can0 288#1199000000005C19
(1562274309.051984) can0 480#0F2C000000000221
(1562274309.052215) can0 48A#3200000000020030
(1562274309.052462) can0 56A#E9000000180000F1
(1562274309.056285) can0 380#006E000000000011
(1562274309.056538) can0 488#8B00007EA5FFFF50
(1562274309.056781) can0 1A0#004100000000000E
(1562274309.057026) can0 2A0#000000000000E0E0
(1562274309.057214) can0 4A0#0000000000000000
(1562274309.057719) can0 3A0#080700000000000F
(1562274309.058002) can0 540#5000000000002000
(1562274309.058227) can0 588#E0007E8000000076
(1562274309.059377) can0 470#C01100000000001F
(1562274309.060712) can0 320#02020001000600BA
(1562274309.060964) can0 520#1787029D00E52301
(1562274309.061230) can0 621#209D000002610000
(1562274309.061647) can0 280#0926000000000019
(1562274309.061897) can0 58C#10000000FE000000
(1562274309.063883) can0 050#00255075
(1562274309.064840) can0 497#0000000094960020
(1562274309.066278) can0 380#006E000000000011
(1562274309.066531) can0 488#BB00007EA5FFFF60
(1562274309.066772) can0 540#6000000000002000
(1562274309.067023) can0 1A0#004100000000000F
(1562274309.067244) can0 2A0#000000000000F0F0
(1562274309.067738) can0 4A0#0000000000000000
(1562274309.067895) can0 4A8#FE7F003000008031
(1562274309.068148) can0 5A0#6B0100850000402B
(1562274309.071187) can0 280#0926000000000019
(1562274309.071698) can0 288#1199000000005C19
(1562274309.071926) can0 480#0F2C000000000221
(1562274309.072179) can0 48A#4200000000020040
(1562274309.076245) can0 380#006E000000000011
(1562274309.076505) can0 488#AB00007EA5FFFF70
(1562274309.076725) can0 540#7000000000002000
(1562274309.076977) can0 1A0#0041000000000000
(1562274309.077222) can0 2A0#0000000000000000
(1562274309.077652) can0 4A0#0000000000000000
(1562274309.077927) can0 3A0#070800000000000F
(1562274309.078211) can0 588#E0007E8000000076
(1562274309.080629) can0 320#02020001000700BA
(1562274309.081547) can0 280#0926000000000019
(1562274309.083855) can0 050#00256045
(1562274309.086221) can0 380#006E000000000011
(1562274309.086475) can0 488#5B00007EA5FFFF80
(1562274309.086721) can0 1A0#0041000000000001
(1562274309.086979) can0 2A0#0000000000001010
(1562274309.087217) can0 4A0#0000000000000000
(1562274309.087695) can0 4A8#FE7F003000009021
(1562274309.087883) can0 540#8000000000002000
(1562274309.088152) can0 5A0#6B0100950000402B
(1562274309.089276) can0 5D0#850250AF0059C000
(1562274309.091175) can0 280#0926000000000019
(1562274309.091671) can0 288#5999000000005C19
(1562274309.091890) can0 480#592C000000000277
(1562274309.092148) can0 48A#5200000000020050
(1562274309.092403) can0 56A#1900000018000001
(1562274309.096203) can0 380#006E000000000011
(1562274309.096448) can0 488#4B00007EA5FFFF90
(1562274309.096637) can0 1A0#0041000000000002
(1562274309.096918) can0 2A0#0000000000002020
(1562274309.097170) can0 4A0#0000000000000000
(1562274309.097645) can0 3A0#060900000000000F
(1562274309.097896) can0 540#9000000000002000
(1562274309.098142) can0 588#E0007E8000000076
(1562274309.098372) can0 66C#3C42030031000301
(1562274309.100566) can0 320#02020001000800BA
(1562274309.101447) can0 280#0926000000000019
(1562274309.103962) can0 050#00257055
(1562274309.106193) can0 380#006E000000000011
(1562274309.106388) can0 488#7B00007EA5FFFFA0
(1562274309.106684) can0 1A0#0041000000000003
(1562274309.106939) can0 2A0#0000000000003030
(1562274309.107145) can0 4A0#0000000000000000
(1562274309.107667) can0 4A8#FE7F00300000A011
(1562274309.107911) can0 540#A000000000002000
(1562274309.108106) can0 5A0#6B0100A50000402B
(1562274309.109296) can0 470#C01100000000001F
(1562274309.109604) can0 35F#0080000000000000
(1562274309.109877) can0 390#0000410000000000
(1562274309.110235) can0 392#0000008000000000
(1562274309.110425) can0 570#07A0980500
(1562274309.110717) can0 5DC#7D00B00108000040
(1562274309.110930) can0 64F#000000FFFFFFFF00
(1562274309.111262) can0 280#0926000000000019
(1562274309.111684) can0 288#5999000000005C19
(1562274309.111906) can0 480#592C000000000277
(1562274309.112159) can0 48A#6200000000020060
(1562274309.112389) can0 7D0#3DE52321F2019A0A
(1562274309.115159) can0 5D6#0000
(1562274309.116096) can0 380#006E000000000011
(1562274309.116318) can0 488#6B00007EA5FFFFB0
(1562274309.116641) can0 540#B000000000002000
(1562274309.116889) can0 1A0#0041000000000004
(1562274309.117127) can0 2A0#0000000000004040
(1562274309.117586) can0 4A0#0000000000000000
(1562274309.117840) can0 3A0#050A00000000000F
(1562274309.118104) can0 588#E0007E8000000076
(1562274309.120549) can0 320#02020001000900BA
(1562274309.121439) can0 280#0926000000000019
(1562274309.123918) can0 050#002580A5
(1562274309.126136) can0 380#006E000000000011
(1562274309.126376) can0 488#1B00007EA5FFFFC0
(1562274309.126620) can0 1A0#0041000000000005
(1562274309.126799) can0 2A0#0000000000005050
(1562274309.127137) can0 4A0#0000000000000000
(1562274309.127610) can0 4A8#FE7F00300000B001
(1562274309.127865) can0 540#C000000000002000
(1562274309.128093) can0 5A0#6B0100B50000402B
(1562274309.130828) can0 727#08034100040000
(1562274309.131126) can0 280#0926000000000019
(1562274309.131509) can0 288#5999000000005C19
(1562274309.131730) can0 480#592C000000000277
(1562274309.132052) can0 48A#7200000000020070
(1562274309.132306) can0 56A#0900000018000011
(1562274309.136121) can0 380#006E000000000011
(1562274309.136368) can0 488#0B00007EA5FFFFD0
(1562274309.136617) can0 1A0#0041000000000006
(1562274309.136868) can0 2A0#0000000000006060
(1562274309.137113) can0 4A0#0000000000000000
(1562274309.137520) can0 3A0#040B00000000000F
(1562274309.137767) can0 540#D000000000002000
(1562274309.138051) can0 588#E0007E8000000076
(1562274309.140441) can0 320#02020001000A00BA
(1562274309.141399) can0 280#0926000000000019
(1562274309.143694) can0 050#002590B5
(1562274309.146100) can0 380#006E000000000011
(1562274309.146346) can0 488#3B00007EA5FFFFE0
(1562274309.146597) can0 1A0#0041000000000007
(1562274309.146843) can0 2A0#0000000000007070
(1562274309.147092) can0 4A0#0000000000000000
(1562274309.147572) can0 4A8#FE7F00300000C071
(1562274309.147756) can0 540#E000000000002000
(1562274309.147976) can0 5A0#6B0100C50000402B
(1562274309.149168) can0 728#04030100000000
(1562274309.151016) can0 280#0926000000000019
(1562274309.151537) can0 288#5999000000005C19
(1562274309.151754) can0 480#592C000000000277
(1562274309.152002) can0 48A#8200000000020080
(1562274309.156074) can0 380#006E000000000011
(1562274309.156322) can0 488#2B00007EA5FFFFF0
(1562274309.156584) can0 540#F000000000002000
(1562274309.156753) can0 1A0#0041000000000008
(1562274309.156999) can0 2A0#0000000000008080
(1562274309.157526) can0 4A0#0000000000000000
(1562274309.157767) can0 3A0#030C00000000000F
(1562274309.158019) can0 588#E0007E8000000076
(1562274309.159127) can0 470#C01100000000001F
(1562274309.160480) can0 320#02020001000B00BA
(1562274309.160724) can0 420#0A9697000061FF00
(1562274309.160973) can0 5D2#01414234355A3848
(1562274309.161376) can0 280#0926000000000019
(1562274309.161625) can0 58C#10000000FE000000
(1562274309.161896) can0 621#209D000002610000
(1562274309.163630) can0 050#0025A085
(1562274309.164603) can0 497#0000000094960020
(1562274309.166022) can0 380#006E000000000011
(1562274309.166277) can0 488#2400007EA5FF0000
(1562274309.166530) can0 540#0000000000002000
(1562274309.166774) can0 1A0#0041000000000009
(1562274309.167029) can0 2A0#0000000000009090
(1562274309.167492) can0 4A0#0000000000000000
(1562274309.167733) can0 4A8#FE7F00300000D061
(1562274309.167954) can0 5A0#6B0100D50000402B
(1562274309.170994) can0 280#0926000000000019
(1562274309.171443) can0 288#8F99000000005C19
(1562274309.171692) can0 480#942C0000000002BA
(1562274309.171937) can0 48A#9200000000020090
(1562274309.172168) can0 56A#3900000018000021
(1562274309.175980) can0 380#006E000000000011
(1562274309.176212) can0 488#2500007EA5FF1110
(1562274309.176459) can0 1A0#004100000000000A
(1562274309.176703) can0 2A0#000000000000A0A0
(1562274309.176962) can0 4A0#0000000000000000
(1562274309.177432) can0 3A0#020D00000000000F
(1562274309.177681) can0 540#1000000000002000
(1562274309.177927) can0 588#E0007E8000000076
(1562274309.180381) can0 320#02020001000C00BA
(1562274309.181292) can0 280#0926000000000019
(1562274309.183555) can0 050#0025B095
(1562274309.185988) can0 380#006E000000000011
(1562274309.186206) can0 488#6F00007EA5FF6B20
(1562274309.186453) can0 1A0#004100000000000B
(1562274309.186701) can0 2A0#000000000000B0B0
(1562274309.186966) can0 4A0#0000000000000000
(1562274309.187447) can0 4A8#FE7F00300000E051
(1562274309.187684) can0 540#2000000000002000
(1562274309.187913) can0 5A0#6B0100E50000402B
(1562274309.189079) can0 5D0#850250AF0059C000
(1562274309.190957) can0 280#0926000000000019
(1562274309.191427) can0 288#8F99000000005C19
(1562274309.191667) can0 480#942C0000000002BA
(1562274309.191893) can0 48A#A2000000000200A0
(1562274309.195954) can0 380#006E000000000011
(1562274309.196182) can0 488#EB00007EA5FFFF30
(1562274309.196441) can0 1A0#004100000000000C
(1562274309.196679) can0 2A0#000000000000C0C0
(1562274309.196918) can0 4A0#0000000000000000
(1562274309.197410) can0 3A0#010E00000000000F
(1562274309.197679) can0 540#3000000000002000
(1562274309.197932) can0 588#E0007E8000000076
(1562274309.200342) can0 320#02020001000D00BA
(1562274309.201247) can0 280#0926000000000019
(1562274309.203539) can0 050#0025C0E5
(1562274309.203811) can0 550#6000000000000060
(1562274309.205932) can0 380#006E000000000011
(1562274309.206169) can0 488#9B00007EA5FFFF40
(1562274309.206423) can0 1A0#004100000000000D
(1562274309.206669) can0 2A0#000000000000D0D0
(1562274309.206926) can0 4A0#0000000000000000
(1562274309.207376) can0 4A8#FE7F00300000F041
(1562274309.207627) can0 540#4000000000002000
(1562274309.207872) can0 5A0#6B0100F50000402B
(1562274309.209065) can0 470#C01100000000001F
(1562274309.209363) can0 35F#0080000000000000
(1562274309.209648) can0 390#0000410000000000
(1562274309.209921) can0 392#0000008000000000
(1562274309.210176) can0 570#07A0980500
(1562274309.210436) can0 5DC#7D00B00108000040
(1562274309.210926) can0 280#0926000000000019
(1562274309.211380) can0 288#8F99000000005C19
(1562274309.211581) can0 480#942C0000000002BA
(1562274309.211830) can0 48A#B2000000000200B0
(1562274309.212102) can0 56A#2900000018000031
(1562274309.215051) can0 5D6#0000
(1562274309.215906) can0 380#006E000000000011
(1562274309.216167) can0 488#8B00007EA5FFFF50
(1562274309.216394) can0 540#5000000000002000
(1562274309.216628) can0 1A0#004100000000000E
(1562274309.216890) can0 2A0#000000000000E0E0
(1562274309.217376) can0 4A0#0000000000000000
(1562274309.217622) can0 3A0#000F00000000000F
(1562274309.217876) can0 588#E0007E8000000076
(1562274309.220314) can0 320#02020001000E00BA
(1562274309.221182) can0 280#0926000000000019
(1562274309.223737) can0 050#0025D0F5
(1562274309.225895) can0 380#006E000000000011
(1562274309.226166) can0 488#BB00007EA5FFFF60
(1562274309.226361) can0 1A0#004100000000000F
(1562274309.226611) can0 2A0#000000000000F0F0
(1562274309.226859) can0 4A0#0000000000000000
(1562274309.227368) can0 4A8#FE7F0030000000B1
(1562274309.227598) can0 540#6000000000002000
(1562274309.227825) can0 5A0#6B0100050000402B
(1562274309.230862) can0 280#0926000000000019
(1562274309.231315) can0 288#8F99000000005C19
(1562274309.231562) can0 480#942C0000000002BA
(1562274309.231791) can0 48A#C2000000000200C0
(1562274309.235854) can0 380#006E000000000011
(1562274309.236083) can0 488#AB00007EA5FFFF70
(1562274309.236353) can0 1A0#0041000000000000
(1562274309.236603) can0 2A0#0000000000000000
(1562274309.236851) can0 4A0#0000000000000000
(1562274309.237332) can0 3A0#0F0000000000000F
(1562274309.237577) can0 540#7000000000002000
(1562274309.237825) can0 588#E0007E8000000076
(1562274309.240236) can0 320#02020001000F00BA
(1562274309.241140) can0 280#0926000000000019
(1562274309.243454) can0 050#0025E0C5
(1562274309.245849) can0 380#006E000000000011
(1562274309.246103) can0 488#5B00007EA5FFFF80
(1562274309.246356) can0 1A0#0041000000000001
(1562274309.246594) can0 2A0#0000000000001010
(1562274309.246843) can0 4A0#0000000000000000
(1562274309.247330) can0 4A8#FE7F0030000010A1
(1562274309.247543) can0 540#8000000000002000
(1562274309.247791) can0 5A0#6B0100150000402B
(1562274309.250823) can0 280#0926000000000019
(1562274309.251277) can0 288#D499000000005C19
(1562274309.251523) can0 480#E22C0000000002CC
(1562274309.251768) can0 48A#D2000000000200D0
(1562274309.251997) can0 56A#5900000018000041
(1562274309.255810) can0 380#006E000000000011
(1562274309.256069) can0 488#4B00007EA5FFFF90
(1562274309.256334) can0 1A0#0041000000000002
(1562274309.256562) can0 2A0#0000000000002020
(1562274309.256810) can0 4A0#0000000000000000
(1562274309.257298) can0 3A0#0E0100000000000F
(1562274309.257549) can0 540#9000000000002000
(1562274309.257783) can0 588#E0007E8000000076
(1562274309.258987) can0 470#C01100000000001F
(1562274309.260259) can0 320#02020001000000BA
(1562274309.260499) can0 520#55C4029D00E52301
(1562274309.260751) can0 621#209D000002610000
(1562274309.261211) can0 280#0926000000000019
(1562274309.261450) can0 58C#10000000FE000000
(1562274309.263460) can0 050#0025F0D5
(1562274309.264560) can0 497#0000000094960020
(1562274309.265803) can0 380#006E000000000011
(1562274309.266036) can0 488#7B00007EA5FFFFA0
(1562274309.266289) can0 540#A000000000002000
(1562274309.266555) can0 1A0#0041000000000003
(1562274309.266781) can0 2A0#0000000000003030
(1562274309.267296) can0 4A0#0000000000000000
(1562274309.267529) can0 4A8#FE7F003000002091
(1562274309.267778) can0 5A0#6B0100250000402B
(1562274309.270832) can0 280#0926000000000019
(1562274309.271237) can0 288#D499000000005C19
(1562274309.271484) can0 480#E22C0000000002CC
(1562274309.271715) can0 48A#E2000000000200E0
(1562274309.275828) can0 380#006E000000000011
(1562274309.276078) can0 488#6B00007EA5FFFFB0
(1562274309.276326) can0 1A0#0041000000000004
(1562274309.276565) can0 2A0#0000000000004040
(1562274309.276814) can0 4A0#0000000000000000
(1562274309.277288) can0 3A0#0D0200000000000F
(1562274309.277553) can0 540#B000000000002000
(1562274309.277788) can0 588#E0007E8000000076
(1562274309.280208) can0 320#02020001000100BA
(1562274309.281049) can0 280#0926000000000019
(1562274309.283338) can0 050#00250025
(1562274309.285811) can0 380#006E000000000011
(1562274309.286066) can0 488#1B00007EA5FFFFC0
(1562274309.286311) can0 1A0#0041000000000005
(1562274309.286559) can0 2A0#0000000000005050
(1562274309.286806) can0 4A0#0000000000000000
(1562274309.287224) can0 4A8#FE7F003000003081
(1562274309.287462) can0 540#C000000000002000
(1562274309.287708) can0 5A0#6B0100350000402B
(1562274309.288862) can0 5D0#850250AF0059C000
(1562274309.290748) can0 280#0926000000000019
(1562274309.291198) can0 288#D499000000005C19
(1562274309.291477) can0 480#E22C0000000002CC
(1562274309.291694) can0 48A#F2000000000200F0
(1562274309.291966) can0 56A#4900000018000051
(1562274309.295775) can0 380#006E000000000011
(1562274309.296032) can0 488#0B00007EA5FFFFD0
(1562274309.296267) can0 1A0#0041000000000006
(1562274309.296512) can0 2A0#0000000000006060
(1562274309.296758) can0 4A0#0000000000000000
(1562274309.297243) can0 3A0#0C0300000000000F
(1562274309.297472) can0 540#D000000000002000
(1562274309.297702) can0 588#E0007E8000000076
(1562274309.300124) can0 320#02020001000200BA
(1562274309.301065) can0 280#0926000000000019
(1562274309.303348) can0 050#00251035
(1562274309.305740) can0 380#006E000000000011
(1562274309.305987) can0 488#3B00007EA5FFFFE0
(1562274309.306235) can0 1A0#0041000000000007
(1562274309.306482) can0 2A0#0000000000007070
(1562274309.306736) can0 4A0#0000000000000000
(1562274309.307232) can0 4A8#FE7F0030000040F1
(1562274309.307431) can0 540#E000000000002000
(1562274309.307652) can0 5A0#6B0100450000402B
(1562274309.308850) can0 470#C01100000000001F
(1562274309.309121) can0 35F#0080000000000000
(1562274309.309419) can0 390#0000410000000000
(1562274309.309714) can0 392#0000008000000000
(1562274309.309934) can0 570#07A0980500
(1562274309.310207) can0 5DC#7D00B00108000040
(1562274309.310727) can0 280#0926000000000019
(1562274309.311168) can0 288#D499000000005C19
(1562274309.311392) can0 480#E22C0000000002CC
(1562274309.311618) can0 48A#0200000000020000
(1562274309.314680) can0 5D6#0000
(1562274309.315705) can0 380#006E000000000011
(1562274309.315976) can0 488#2B00007EA5FFFFF0
(1562274309.316206) can0 540#F000000000002000
(1562274309.316449) can0 1A0#0041000000000008
(1562274309.316706) can0 2A0#0000000000008080
(1562274309.317195) can0 4A0#0000000000000000
(1562274309.317446) can0 3A0#0B0400000000000F
(1562274309.317685) can0 588#E0007E8000000076
(1562274309.320101) can0 320#02020001000300BA
(1562274309.321015) can0 280#0926000000000019
(1562274309.323479) can0 050#00252005
(1562274309.325700) can0 380#006E000000000011
(1562274309.325948) can0 488#2400007EA5FF0000
(1562274309.326197) can0 1A0#0041000000000009
(1562274309.326446) can0 2A0#0000000000009090
(1562274309.326696) can0 4A0#0000000000000000
(1562274309.327164) can0 4A8#FE7F0030000050E1
(1562274309.327391) can0 540#0000000000002000
(1562274309.327611) can0 5A0#6B0100550000402B
(1562274309.330315) can0 727#08034100040000
(1562274309.330663) can0 280#0926000000000019
(1562274309.331109) can0 288#1199000000005C19
(1562274309.331378) can0 480#0F2C000000000221
(1562274309.331582) can0 48A#1200000000020010
(1562274309.331829) can0 56A#7900000018000061
(1562274309.335676) can0 380#006E000000000011
(1562274309.335935) can0 488#2500007EA5FF1110
(1562274309.336157) can0 1A0#004100000000000A
(1562274309.336378) can0 2A0#000000000000A0A0
(1562274309.336625) can0 4A0#0000000000000000
(1562274309.337149) can0 3A0#0A0500000000000F
(1562274309.337400) can0 540#1000000000002000
(1562274309.337625) can0 588#E0007E8000000076
(1562274309.340022) can0 320#02020001000400BA
(1562274309.340967) can0 280#0926000000000019
(1562274309.343237) can0 050#00253015
(1562274309.345662) can0 380#006E000000000011
(1562274309.345909) can0 488#6F00007EA5FF6B20
(1562274309.346154) can0 1A0#004100000000000B
(1562274309.346406) can0 2A0#000000000000B0B0
(1562274309.346630) can0 4A0#0000000000000000
(1562274309.347133) can0 4A8#FE7F0030000060D1
(1562274309.347359) can0 540#2000000000002000
(1562274309.347582) can0 5A0#6B0100650000402B
(1562274309.348727) can0 728#04030100000000
(1562274309.350627) can0 280#0926000000000019
(1562274309.351069) can0 288#1199000000005C19
(1562274309.351313) can0 480#0F2C000000000221
(1562274309.351565) can0 48A#2200000000020020
(1562274309.355614) can0 380#006E000000000011
(1562274309.355891) can0 488#EB00007EA5FFFF30
(1562274309.356120) can0 1A0#004100000000000C
(1562274309.356371) can0 2A0#000000000000C0C0
(1562274309.356615) can0 4A0#0000000000000000
(1562274309.357086) can0 3A0#090600000000000F
(1562274309.357337) can0 540#3000000000002000
(1562274309.357588) can0 588#E0007E8000000076
(1562274309.358719) can0 470#C01100000000001F
(1562274309.360007) can0 320#02020001000500BA
(1562274309.360249) can0 420#0A9697000061FF00
(1562274309.360518) can0 52A#0000000000000000
(1562274309.360945) can0 5D2#0234303134333333
(1562274309.361201) can0 280#0926000000000019
(1562274309.361449) can0 58C#10000000FE000000
(1562274309.361657) can0 5F3#0000890100000000
(1562274309.361747) can0 60E#0000
(1562274309.362020) can0 621#209D000002610000
(1562274309.362266) can0 62E#E52321F2011A0B
(1562274309.363177) can0 050#00254065
(1562274309.364364) can0 497#0000000094960020
(1562274309.365613) can0 380#006E000000000011
(1562274309.365850) can0 488#9B00007EA5FFFF40
(1562274309.366106) can0 540#4000000000002000
(1562274309.366351) can0 1A0#004100000000000D
(1562274309.366597) can0 2A0#000000000000D0D0
(1562274309.367089) can0 4A0#0000000000000000
(1562274309.367298) can0 4A8#FE7F0030000070C1
(1562274309.367540) can0 5A0#6B0100750000402B
(1562274309.370580) can0 280#0926000000000019
(1562274309.371024) can0 288#1199000000005C19
(1562274309.371268) can0 480#0F2C000000000221
(1562274309.371498) can0 48A#3200000000020030
(1562274309.371742) can0 56A#6900000018000071
(1562274309.375560) can0 380#006E000000000011
(1562274309.375803) can0 488#8B00007EA5FFFF50
(1562274309.376025) can0 1A0#004100000000000E
(1562274309.376309) can0 2A0#000000000000E0E0
(1562274309.376558) can0 4A0#0000000000000000
(1562274309.377038) can0 3A0#080700000000000F
(1562274309.377285) can0 540#5000000000002000
(1562274309.377529) can0 588#E0007E8000000076
(1562274309.377752) can0 661#8200000000000000
(1562274309.379959) can0 320#02020001000600BA
(1562274309.380233) can0 629#FE2FFE7F00000000
(1562274309.380854) can0 280#0926000000000019
(1562274309.383224) can0 050#00255075
(1562274309.385576) can0 380#006E00000000000F
(1562274309.385831) can0 488#BB00007EA5FFFF60
(1562274309.386071) can0 1A0#004100000000000F
(1562274309.386320) can0 2A0#000000000000F0F0
(1562274309.386569) can0 4A0#0000000000000000
(1562274309.387042) can0 4A8#FE7F003000008031
(1562274309.387231) can0 540#6000000000002000
(1562274309.387484) can0 5A0#6B0100850000402B
(1562274309.388665) can0 5D0#850250AF0059C000
(1562274309.390558) can0 280#0926000000000019
(1562274309.391067) can0 288#1199000000005C19
(1562274309.391246) can0 480#0F2C000000000221
(1562274309.391476) can0 48A#4200000000020040
(1562274309.395550) can0 380#006E00000000000B
(1562274309.395799) can0 488#AB00007EA5FFFF70
(1562274309.396065) can0 1A0#0041000000000000
(1562274309.396236) can0 2A0#0000000000000000
(1562274309.396483) can0 4A0#0000000000000000
(1562274309.397027) can0 3A0#070800000000000F
(1562274309.397233) can0 540#7000000000002000
(1562274309.397482) can0 588#E0007E8000000076
(1562274309.399906) can0 320#02020001000700BA
(1562274309.400149) can0 62B#FE2F00400200FE7F
(1562274309.400820) can0 280#0926000000000019
(1562274309.403360) can0 050#00256045
(1562274309.403649) can0 550#7000000000000070
(1562274309.405555) can0 380#006E00000000000A
(1562274309.405753) can0 488#5B00007EA5FFFF80
(1562274309.406015) can0 1A0#0041000000000001
(1562274309.406256) can0 2A0#0000000000001010
(1562274309.406506) can0 4A0#0000000000000000
(1562274309.406960) can0 4A8#FE7F003000009021
(1562274309.407208) can0 540#8000000000002000
(1562274309.407455) can0 5A0#6B0100950000402B
(1562274309.408583) can0 470#C01100000000001F
(1562274309.408868) can0 35F#0080000000000000
(1562274309.409166) can0 390#0000410000000000
(1562274309.409432) can0 392#0000008000000000
(1562274309.409631) can0 570#07A0980500
(1562274309.409924) can0 5DC#7D00B00108000040
(1562274309.410479) can0 280#0926000000000019
(1562274309.410977) can0 288#5999000000005C19
(1562274309.411191) can0 480#592C000000000277
(1562274309.411419) can0 48A#5200000000020050
(1562274309.411664) can0 56A#9900000018000081
(1562274309.414428) can0 5D6#0000
(1562274309.415542) can0 380#006E000000000009
(1562274309.415793) can0 488#4B00007EA5FFFF90
(1562274309.416029) can0 540#9000000000002000
(1562274309.416274) can0 1A0#0041000000000002
(1562274309.416535) can0 2A0#0000000000002020
(1562274309.417058) can0 4A0#0000000000000000
(1562274309.417192) can0 3A0#060900000000000F
(1562274309.417432) can0 588#E0007E8000000076
(1562274309.419949) can0 320#02020001000800BA
(1562274309.420223) can0 62D#FE2F00400200FE7F
(1562274309.420971) can0 280#0926000000000019
(1562274309.423419) can0 050#00257055
(1562274309.425607) can0 380#006E000000000008
(1562274309.425739) can0 488#7B00007EA5FFFFA0
(1562274309.426036) can0 1A0#0041000000000003
(1562274309.426284) can0 2A0#0000000000003030
(1562274309.426486) can0 4A0#0000000000000000
(1562274309.426980) can0 4A8#FE7F00300000A011
(1562274309.427188) can0 540#A000000000002000
(1562274309.427427) can0 5A0#6B0100A50000402B
(1562274309.430502) can0 280#0926000000000019
(1562274309.430858) can0 288#5999000000005C19
(1562274309.431105) can0 480#592C000000000277
(1562274309.431379) can0 48A#6200000000020060
(1562274309.435442) can0 380#006E000000000007
(1562274309.435697) can0 488#6B00007EA5FFFFB0
(1562274309.435944) can0 1A0#0041000000000004
(1562274309.436168) can0 2A0#0000000000004040
(1562274309.436475) can0 4A0#0000000000000000
(1562274309.436930) can0 3A0#050A00000000000F
(1562274309.437177) can0 540#B000000000002000
(1562274309.437425) can0 588#E0007E8000000076
(1562274309.439821) can0 320#02020001000900BA
(1562274309.440760) can0 280#0926000000000019
(1562274309.443042) can0 050#002580A5
(1562274309.445463) can0 380#006E000000000007
(1562274309.445706) can0 488#1B00007EA5FFFFC0
(1562274309.445952) can0 1A0#0041000000000005
(1562274309.446199) can0 2A0#0000000000005050
(1562274309.446452) can0 4A0#0000000000000000
(1562274309.446906) can0 4A8#FE7F00300000B001
(1562274309.447128) can0 540#C000000000002000
(1562274309.447374) can0 5A0#6B0100B50000402B
(1562274309.450394) can0 280#0926000000000019
(1562274309.450848) can0 288#5999000000005C19
(1562274309.451105) can0 480#592C000000000277
(1562274309.451330) can0 48A#7200000000020070
(1562274309.451610) can0 56A#8900000018000091
(1562274309.455408) can0 380#006E000000000007
(1562274309.455664) can0 488#0B00007EA5FFFFD0
(1562274309.455933) can0 1A0#0041000000000006
(1562274309.456167) can0 2A0#0000000000006060
(1562274309.456419) can0 4A0#0000000000000000
(1562274309.456890) can0 3A0#040B00000000000F
(1562274309.457122) can0 540#D000000000002000
(1562274309.457383) can0 588#E0007E8000000076
(1562274309.458505) can0 470#C01100000000001F
(1562274309.459804) can0 320#02020001000A00BA
(1562274309.460022) can0 520#0608029D00E52301
(1562274309.460298) can0 621#209D000002610000
(1562274309.460747) can0 280#0926000000000019
(1562274309.460996) can0 58C#10000000FE000000
(1562274309.463002) can0 050#002590B5
(1562274309.464208) can0 497#0000000094960020
(1562274309.465461) can0 380#006E000000000007
(1562274309.465653) can0 488#3B00007EA5FFFFE0
(1562274309.465910) can0 1A0#0041000000000007
(1562274309.466140) can0 2A0#0000000000007070
(1562274309.466373) can0 4A0#0000000000000000
(1562274309.466864) can0 4A8#FE7F00300000C071
(1562274309.467063) can0 540#E000000000002000
(1562274309.467290) can0 5A0#6B0100C50000402B
(1562274309.470331) can0 280#0926000000000019
(1562274309.470841) can0 288#5999000000005C19
(1562274309.471052) can0 480#592C000000000277
(1562274309.471295) can0 48A#8200000000020080
(1562274309.475379) can0 380#006E000000000007
(1562274309.475626) can0 488#2B00007EA5FFFFF0
(1562274309.475875) can0 1A0#0041000000000008
(1562274309.476102) can0 2A0#0000000000008080
(1562274309.476349) can0 4A0#0000000000000000
(1562274309.476832) can0 3A0#030C00000000000F
(1562274309.477076) can0 540#F000000000002000
(1562274309.477325) can0 588#E0007E8000000076
(1562274309.479720) can0 320#00021401000B00BA
(1562274309.480718) can0 280#0926000000000019
(1562274309.482959) can0 050#0025A085
(1562274309.485355) can0 380#006E000000000006
(1562274309.485605) can0 488#2400007EA5FF0000
(1562274309.485852) can0 1A0#0041000000000009
(1562274309.486104) can0 2A0#0000000000009090
(1562274309.486347) can0 4A0#0000000000000000
(1562274309.486836) can0 4A8#FE7F00300000D061
(1562274309.487050) can0 540#0000000000002000
(1562274309.487290) can0 5A0#6B0100D50000402B
(1562274309.488352) can0 5D0#850250AF0059C000
(1562274309.490352) can0 280#0926000000000019
(1562274309.490789) can0 288#8F99000000005C19
(1562274309.491038) can0 480#942C0000000002BA
(1562274309.491259) can0 48A#9200000000020090
(1562274309.491507) can0 56A#B9000000180000A1
(1562274309.495324) can0 380#006E000000000005
(1562274309.495582) can0 488#3100007EA5FF0510
(1562274309.495748) can0 1A0#004100000000000A
(1562274309.496035) can0 2A0#000000000000A0A0
(1562274309.496286) can0 4A0#0000000000000000
(1562274309.496799) can0 3A0#020D00000000000F
(1562274309.497034) can0 540#1000000000002000
(1562274309.497287) can0 588#E0007E8000000076
(1562274309.499679) can0 320#00021401000C00BA
(1562274309.500645) can0 280#0926000000000019
(1562274309.502991) can0 050#0025B095
(1562274309.505319) can0 380#006E000000000005
(1562274309.505556) can0 488#6F00007EA5FF6B20
(1562274309.505805) can0 1A0#004100000000000B
(1562274309.506054) can0 2A0#000000000000B0B0
(1562274309.506302) can0 4A0#0000000000000000
(1562274309.506789) can0 4A8#FE7F00300000E051
(1562274309.507013) can0 540#2000000000002000
(1562274309.507234) can0 5A0#6B0100E50000402B
(1562274309.508434) can0 470#C01100000000001F
(1562274309.508706) can0 35F#0080000000000000
(1562274309.509004) can0 390#0000410000000000
(1562274309.509308) can0 392#0000008000000000
(1562274309.509508) can0 570#07A0980500
(1562274309.509810) can0 5DC#7D00B00108000040
(1562274309.510305) can0 280#0926000000000019
(1562274309.510745) can0 288#8F99000000005C19
(1562274309.510992) can0 480#942C0000000002BA
(1562274309.511228) can0 48A#A2000000000200A0
(1562274309.514054) can0 5D6#0000
(1562274309.515270) can0 380#006E000000000005
(1562274309.515553) can0 488#EB00007EA5FFFF30
(1562274309.515785) can0 540#3000000000002000
(1562274309.515965) can0 588#E0007E8000000076
(1562274309.516247) can0 1A0#004100000000000C
(1562274309.516774) can0 2A0#000000000000C0C0
(1562274309.517022) can0 4A0#0000000000000000
(1562274309.517234) can0 3A0#010E00000000000F
(1562274309.519631) can0 320#00021401000D00BA
(1562274309.520585) can0 280#0926000000000019
(1562274309.523066) can0 050#0025C0E5
(1562274309.525328) can0 380#006E000000000005
(1562274309.525538) can0 488#9B00007EA5FFFF40
(1562274309.525779) can0 1A0#004100000000000D
(1562274309.525999) can0 2A0#000000000000D0D0
(1562274309.526274) can0 4A0#0000000000000000
(1562274309.526756) can0 4A8#FE7F00300000F041
(1562274309.526934) can0 540#4000000000002000
(1562274309.527156) can0 5A0#6B0100F50000402B
(1562274309.529851) can0 727#08034100040000
(1562274309.530197) can0 280#0926000000000019
(1562274309.530713) can0 288#8F99000000005C19
(1562274309.530954) can0 480#942C0000000002BA
(1562274309.531216) can0 48A#B2000000000200B0
(1562274309.531436) can0 56A#A9000000180000B1
(1562274309.535264) can0 380#006E000000000005
(1562274309.535511) can0 488#8B00007EA5FFFF50
(1562274309.535694) can0 1A0#004100000000000E
(1562274309.535941) can0 2A0#000000000000E0E0
(1562274309.536188) can0 4A0#0000000000000000
(1562274309.536757) can0 3A0#000F00000000000F
(1562274309.537005) can0 540#5000000000002000
(1562274309.537229) can0 588#E0007E8000000076
(1562274309.538236) can0 6DA#328203000A000303
(1562274309.539626) can0 320#00021401000E00BA
(1562274309.540618) can0 280#0926000000000019
(1562274309.540870) can0 58F#00FEFF7F00000019
(1562274309.542892) can0 050#0025D0F5
(1562274309.545290) can0 380#006E000000000004
(1562274309.545493) can0 488#BB00007EA5FFFF60
(1562274309.545731) can0 1A0#004100000000000F
(1562274309.545980) can0 2A0#000000000000F0F0
(1562274309.546237) can0 4A0#0000000000000000
(1562274309.546712) can0 4A8#FE7F0030000000B1
(1562274309.546907) can0 540#6000000000002000
(1562274309.547147) can0 580#810000000002A028
(1562274309.547365) can0 5A0#6B0100050000402B
(1562274309.548311) can0 728#04030100000000
(1562274309.550221) can0 280#0926000000000019
(1562274309.550666) can0 288#8F99000000005C19
(1562274309.550933) can0 480#942C0000000002BA
(1562274309.551162) can0 48A#C2000000000200C0
(1562274309.555220) can0 380#006E000000000004
(1562274309.555469) can0 488#AB00007EA5FFFF70
(1562274309.555719) can0 1A0#0041000000000000
(1562274309.555893) can0 2A0#0000000000000000
(1562274309.556141) can0 4A0#0000000000000000
(1562274309.556685) can0 3A0#0F0000000000000F
(1562274309.556937) can0 540#7000000000002000
(1562274309.557191) can0 588#E0007E8000000076
(1562274309.558320) can0 470#C01100000000001F
(1562274309.559581) can0 320#00021401000F00BA
(1562274309.559805) can0 420#0A9697000061FF00
(1562274309.560085) can0 5D2#00FFFFFFFF394257
(1562274309.560460) can0 280#0926000000000019
(1562274309.560688) can0 58C#10000000FE000000
(1562274309.561001) can0 621#209D001402610000
(1562274309.562830) can0 050#0025E0C5
(1562274309.563940) can0 497#0000000094960020
(1562274309.565194) can0 380#006E000000000004
(1562274309.565448) can0 488#5B00007EA5FFFF80
(1562274309.565683) can0 1A0#0041000000000001
(1562274309.565938) can0 2A0#0000000000001010
(1562274309.566188) can0 4A0#0000000000000000
(1562274309.566667) can0 4A8#FE7F0030000010A1
(1562274309.566856) can0 540#8000000000002000
(1562274309.567103) can0 5A0#6B0100150000402B
(1562274309.570116) can0 280#0926000000000019
(1562274309.570603) can0 288#D499000000005C19
(1562274309.570849) can0 480#E22C0000000002CC
(1562274309.571109) can0 48A#D2000000000200D0
(1562274309.571330) can0 56A#D9000000180000C1
(1562274309.575137) can0 380#006E000000000004
(1562274309.575429) can0 488#4B00007EA5FFFF90
(1562274309.575644) can0 1A0#0041000000000002
(1562274309.575891) can0 2A0#0000000000002020
(1562274309.576143) can0 4A0#0000000000000000
(1562274309.576629) can0 3A0#0E0100000000000F
(1562274309.576856) can0 540#9000000000002000
(1562274309.577104) can0 588#E0007E8000000076
(1562274309.579512) can0 320#00021401000000BA
(1562274309.580416) can0 280#0926000000000019
(1562274309.582805) can0 050#0025F0D5
(1562274309.585157) can0 380#006E000000000004
(1562274309.585404) can0 488#7B00007EA5FFFFA0
(1562274309.585648) can0 1A0#0041000000000003
(1562274309.585903) can0 2A0#0000000000003030
(1562274309.586154) can0 4A0#0000000000000000
(1562274309.586627) can0 4A8#FE7F003000002091
(1562274309.586814) can0 540#A000000000002000
(1562274309.587036) can0 5A0#6B0100250000402B
(1562274309.588193) can0 5D0#850250AF0059C000
(1562274309.590079) can0 280#0926000000000019
(1562274309.590590) can0 288#D499000000005C19
(1562274309.590836) can0 480#E22C0000000002CC
(1562274309.591063) can0 48A#E2000000000200E0
(1562274309.595136) can0 380#006E000000000004
(1562274309.595383) can0 488#6B00007EA5FFFFB0
(1562274309.595636) can0 1A0#0041000000000004
(1562274309.595814) can0 2A0#0000000000004040
(1562274309.596059) can0 4A0#0000000000000000
(1562274309.596609) can0 3A0#0D0200000000000F
(1562274309.596862) can0 540#B000000000002000
(1562274309.597112) can0 588#E0007E8000000076
(1562274309.599527) can0 320#00021401000100BA
(1562274309.600465) can0 280#0926000000000019
(1562274309.602760) can0 050#00250025
(1562274309.602991) can0 550#8000000000000080
(1562274309.605117) can0 380#006E000000000004
(1562274309.605373) can0 488#1B00007EA5FFFFC0
(1562274309.605617) can0 1A0#0041000000000005
(1562274309.605866) can0 2A0#0000000000005050
(1562274309.606115) can0 4A0#0000000000000000
(1562274309.606513) can0 4A8#FE7F003000003081
(1562274309.606759) can0 540#C000000000002000
(1562274309.607009) can0 5A0#6B0100350000402B
(1562274309.608006) can0 470#C01100000000001F
(1562274309.608379) can0 35F#0080000000000000
(1562274309.608654) can0 390#0000410000000000
(1562274309.608927) can0 392#0000008000000000
(1562274309.609178) can0 570#07A0980500
(1562274309.609429) can0 5DC#7D00B00108000040
(1562274309.609723) can0 64F#000000FFFFFFFF00
(1562274309.610094) can0 280#0926000000000019
(1562274309.610522) can0 288#D499000000005C19
(1562274309.610768) can0 480#E22C0000000002CC
(1562274309.610994) can0 48A#F2000000000200F0
(1562274309.611240) can0 56A#C9000000180000D1
(1562274309.613921) can0 5D6#0000
(1562274309.615067) can0 380#006E000000000004
(1562274309.615322) can0 488#0B00007EA5FFFFD0
(1562274309.615569) can0 540#D000000000002000
(1562274309.615795) can0 1A0#0041000000000006
