Time [s], Analyzer Name, Decoded Protocol Result
0.000094958333333,SENT (SAE J2716),Sync pulse: 
0.000184541666667,SENT (SAE J2716),Status nibble: 8
0.000216500000000,SENT (SAE J2716),Fast channel data: 2
0.000238916666667,SENT (SAE J2716),Fast channel data: 13
0.000278916666667,SENT (SAE J2716),Fast channel data: 7
0.000309291666667,SENT (SAE J2716),Fast channel data: 14
0.000350875000000,SENT (SAE J2716),Fast channel data: 10
0.000386083333333,SENT (SAE J2716),Fast channel data: 13
0.000426083333333,SENT (SAE J2716),CRC data: 7
0.000456458333333,SENT (SAE J2716),Pause pulse length: 67
0.000563000000000,SENT (SAE J2716),Sync pulse: 
0.000652541666667,SENT (SAE J2716),Status nibble: 0
0.000671750000000,SENT (SAE J2716),Fast channel data: 2
0.000694166666667,SENT (SAE J2716),Fast channel data: 13
0.000734166666667,SENT (SAE J2716),Fast channel data: 7
0.000764541666667,SENT (SAE J2716),Fast channel data: 14
0.000806125000000,SENT (SAE J2716),Fast channel data: 10
0.000841291666667,SENT (SAE J2716),Fast channel data: 13
0.000881333333333,SENT (SAE J2716),CRC data: 7
0.000911708333333,SENT (SAE J2716),Pause pulse length: 75
0.001031000000000,SENT (SAE J2716),Sync pulse: 
0.001120625000000,SENT (SAE J2716),Status nibble: 0
0.001139791666667,SENT (SAE J2716),Fast channel data: 2
0.001162208333333,SENT (SAE J2716),Fast channel data: 13
0.001202208333333,SENT (SAE J2716),Fast channel data: 7
0.001232583333333,SENT (SAE J2716),Fast channel data: 14
0.001274166666667,SENT (SAE J2716),Fast channel data: 10
0.001309375000000,SENT (SAE J2716),Fast channel data: 13
0.001349375000000,SENT (SAE J2716),CRC data: 7
0.001379750000000,SENT (SAE J2716),Pause pulse length: 75
0.001499041666667,SENT (SAE J2716),Sync pulse: 
0.001588666666667,SENT (SAE J2716),Status nibble: 0
0.001607833333333,SENT (SAE J2716),Fast channel data: 2
0.001630250000000,SENT (SAE J2716),Fast channel data: 13
0.001670250000000,SENT (SAE J2716),Fast channel data: 7
0.001700625000000,SENT (SAE J2716),Fast channel data: 14
0.001742208333333,SENT (SAE J2716),Fast channel data: 10
0.001777416666667,SENT (SAE J2716),Fast channel data: 13
0.001817375000000,SENT (SAE J2716),CRC data: 7
0.001847791666667,SENT (SAE J2716),Pause pulse length: 75
0.001967083333333,SENT (SAE J2716),Sync pulse: 
0.002056666666667,SENT (SAE J2716),Status nibble: 0
0.002075875000000,SENT (SAE J2716),Fast channel data: 2
0.002098333333333,SENT (SAE J2716),Fast channel data: 13
0.002138250000000,SENT (SAE J2716),Fast channel data: 7
0.002168625000000,SENT (SAE J2716),Fast channel data: 14
0.002210250000000,SENT (SAE J2716),Fast channel data: 10
0.002245416666667,SENT (SAE J2716),Fast channel data: 13
0.002285416666667,SENT (SAE J2716),CRC data: 7
0.002315875000000,SENT (SAE J2716),Pause pulse length: 75
0.002435083333333,SENT (SAE J2716),Sync pulse: 
0.002524666666667,SENT (SAE J2716),Status nibble: 0
0.002543875000000,SENT (SAE J2716),Fast channel data: 2
0.002566333333333,SENT (SAE J2716),Fast channel data: 13
0.002606333333333,SENT (SAE J2716),Fast channel data: 7
0.002636708333333,SENT (SAE J2716),Fast channel data: 14
0.002678250000000,SENT (SAE J2716),Fast channel data: 10
0.002713500000000,SENT (SAE J2716),Fast channel data: 13
0.002753458333333,SENT (SAE J2716),CRC data: 7
0.002783833333333,SENT (SAE J2716),Pause pulse length: 75
0.002903125000000,SENT (SAE J2716),Sync pulse: 
0.002992708333333,SENT (SAE J2716),Status nibble: 0
0.003011916666667,SENT (SAE J2716),Fast channel data: 2
0.003034291666667,SENT (SAE J2716),Fast channel data: 13
0.003074291666667,SENT (SAE J2716),Fast channel data: 7
0.003104708333333,SENT (SAE J2716),Fast channel data: 14
0.003146333333333,SENT (SAE J2716),Fast channel data: 10
0.003181500000000,SENT (SAE J2716),Fast channel data: 13
0.003221500000000,SENT (SAE J2716),CRC data: 7
0.003251916666667,SENT (SAE J2716),Pause pulse length: 75
0.003371208333333,SENT (SAE J2716),Sync pulse: 
0.003460750000000,SENT (SAE J2716),Status nibble: 0
0.003479916666667,SENT (SAE J2716),Fast channel data: 2
0.003502333333333,SENT (SAE J2716),Fast channel data: 13
0.003542333333333,SENT (SAE J2716),Fast channel data: 7
0.003572750000000,SENT (SAE J2716),Fast channel data: 14
0.003614291666667,SENT (SAE J2716),Fast channel data: 10
0.003649500000000,SENT (SAE J2716),Fast channel data: 13
0.003689500000000,SENT (SAE J2716),CRC data: 7
0.003719958333333,SENT (SAE J2716),Pause pulse length: 75
0.003839166666667,SENT (SAE J2716),Sync pulse: 
0.003928750000000,SENT (SAE J2716),Status nibble: 0
0.003948000000000,SENT (SAE J2716),Fast channel data: 2
0.003970416666667,SENT (SAE J2716),Fast channel data: 13
0.004010375000000,SENT (SAE J2716),Fast channel data: 7
0.004040791666667,SENT (SAE J2716),Fast channel data: 14
0.004082375000000,SENT (SAE J2716),Fast channel data: 10
0.004117541666667,SENT (SAE J2716),Fast channel data: 13
0.004157541666667,SENT (SAE J2716),CRC data: 7
0.004187958333333,SENT (SAE J2716),Pause pulse length: 75
0.004307208333333,SENT (SAE J2716),Sync pulse: 
0.004396833333333,SENT (SAE J2716),Status nibble: 0
0.004415958333333,SENT (SAE J2716),Fast channel data: 2
0.004438416666667,SENT (SAE J2716),Fast channel data: 13
0.004478375000000,SENT (SAE J2716),Fast channel data: 7
0.004508791666667,SENT (SAE J2716),Fast channel data: 14
0.004550375000000,SENT (SAE J2716),Fast channel data: 10
0.004585583333333,SENT (SAE J2716),Fast channel data: 13
0.004625583333333,SENT (SAE J2716),CRC data: 7
0.004655958333333,SENT (SAE J2716),Pause pulse length: 75
0.004775250000000,SENT (SAE J2716),Sync pulse: 
0.004864833333333,SENT (SAE J2716),Status nibble: 0
0.004884000000000,SENT (SAE J2716),Fast channel data: 2
0.004906416666667,SENT (SAE J2716),Fast channel data: 13
0.004946416666667,SENT (SAE J2716),Fast channel data: 7
0.004976833333333,SENT (SAE J2716),Fast channel data: 14
0.005018416666667,SENT (SAE J2716),Fast channel data: 10
0.005053625000000,SENT (SAE J2716),Fast channel data: 13
0.005093583333333,SENT (SAE J2716),CRC data: 7
0.005123958333333,SENT (SAE J2716),Pause pulse length: 75
0.005243250000000,SENT (SAE J2716),Sync pulse: 
0.005332833333333,SENT (SAE J2716),Status nibble: 0
0.005352000000000,SENT (SAE J2716),Fast channel data: 2
0.005374416666667,SENT (SAE J2716),Fast channel data: 13
0.005414416666667,SENT (SAE J2716),Fast channel data: 7
0.005444791666667,SENT (SAE J2716),Fast channel data: 14
0.005486375000000,SENT (SAE J2716),Fast channel data: 10
0.005521541666667,SENT (SAE J2716),Fast channel data: 13
0.005561583333333,SENT (SAE J2716),CRC data: 7
0.005591958333333,SENT (SAE J2716),Pause pulse length: 75
0.005711250000000,SENT (SAE J2716),Sync pulse: 
0.005800791666667,SENT (SAE J2716),Status nibble: 4
0.005826416666667,SENT (SAE J2716),Fast channel data: 2
0.005848791666667,SENT (SAE J2716),Fast channel data: 13
0.005888791666667,SENT (SAE J2716),Fast channel data: 8
0.005920791666667,SENT (SAE J2716),Fast channel data: 14
0.005962375000000,SENT (SAE J2716),Fast channel data: 10
0.005997541666667,SENT (SAE J2716),Fast channel data: 13
0.006037583333333,SENT (SAE J2716),CRC data: 1
0.006058333333333,SENT (SAE J2716),Pause pulse length: 76
0.006179208333333,SENT (SAE J2716),Sync pulse: 
0.006268791666667,SENT (SAE J2716),Status nibble: 0
0.006287958333333,SENT (SAE J2716),Fast channel data: 2
0.006310375000000,SENT (SAE J2716),Fast channel data: 13
0.006350375000000,SENT (SAE J2716),Fast channel data: 7
0.006380750000000,SENT (SAE J2716),Fast channel data: 14
0.006422333333333,SENT (SAE J2716),Fast channel data: 10
0.006457541666667,SENT (SAE J2716),Fast channel data: 13
0.006497541666667,SENT (SAE J2716),CRC data: 7
0.006527916666667,SENT (SAE J2716),Pause pulse length: 75
0.006647250000000,SENT (SAE J2716),Sync pulse: 
0.006736791666667,SENT (SAE J2716),Status nibble: 0
0.006756000000000,SENT (SAE J2716),Fast channel data: 2
0.006778375000000,SENT (SAE J2716),Fast channel data: 13
0.006818416666667,SENT (SAE J2716),Fast channel data: 7
0.006848791666667,SENT (SAE J2716),Fast channel data: 14
0.006890375000000,SENT (SAE J2716),Fast channel data: 10
0.006925583333333,SENT (SAE J2716),Fast channel data: 13
0.006965541666667,SENT (SAE J2716),CRC data: 7
0.006995958333333,SENT (SAE J2716),Pause pulse length: 75
0.007115250000000,SENT (SAE J2716),Sync pulse: 
0.007204833333333,SENT (SAE J2716),Status nibble: 4
0.007230416666667,SENT (SAE J2716),Fast channel data: 2
0.007252833333333,SENT (SAE J2716),Fast channel data: 13
0.007292833333333,SENT (SAE J2716),Fast channel data: 7
0.007323208333333,SENT (SAE J2716),Fast channel data: 14
0.007364791666667,SENT (SAE J2716),Fast channel data: 10
0.007399958333333,SENT (SAE J2716),Fast channel data: 13
0.007439958333333,SENT (SAE J2716),CRC data: 7
0.007470333333333,SENT (SAE J2716),Pause pulse length: 71
0.007583208333333,SENT (SAE J2716),Sync pulse: 
0.007672833333333,SENT (SAE J2716),Status nibble: 8
0.007704791666667,SENT (SAE J2716),Fast channel data: 2
0.007727208333333,SENT (SAE J2716),Fast channel data: 13
0.007767208333333,SENT (SAE J2716),Fast channel data: 7
0.007797583333333,SENT (SAE J2716),Fast channel data: 14
0.007839166666667,SENT (SAE J2716),Fast channel data: 10
0.007874333333333,SENT (SAE J2716),Fast channel data: 13
0.007914333333333,SENT (SAE J2716),CRC data: 7
0.007944708333333,SENT (SAE J2716),Pause pulse length: 67
0.008051208333333,SENT (SAE J2716),Sync pulse: 
0.008140791666667,SENT (SAE J2716),Status nibble: 0
0.008159958333333,SENT (SAE J2716),Fast channel data: 2
0.008182375000000,SENT (SAE J2716),Fast channel data: 13
0.008222375000000,SENT (SAE J2716),Fast channel data: 7
0.008252750000000,SENT (SAE J2716),Fast channel data: 14
0.008294333333333,SENT (SAE J2716),Fast channel data: 10
0.008329541666667,SENT (SAE J2716),Fast channel data: 13
0.008369541666667,SENT (SAE J2716),CRC data: 7
0.008399916666667,SENT (SAE J2716),Pause pulse length: 75
0.008519208333333,SENT (SAE J2716),Sync pulse: 
0.008608750000000,SENT (SAE J2716),Status nibble: 0
0.008627958333333,SENT (SAE J2716),Fast channel data: 2
0.008650375000000,SENT (SAE J2716),Fast channel data: 13
0.008690333333333,SENT (SAE J2716),Fast channel data: 7
0.008720750000000,SENT (SAE J2716),Fast channel data: 14
0.008762333333333,SENT (SAE J2716),Fast channel data: 10
0.008797500000000,SENT (SAE J2716),Fast channel data: 13
0.008837500000000,SENT (SAE J2716),CRC data: 7
0.008867916666667,SENT (SAE J2716),Pause pulse length: 75
0.008987166666667,SENT (SAE J2716),Sync pulse: 
0.009076750000000,SENT (SAE J2716),Status nibble: 4
0.009102333333333,SENT (SAE J2716),Fast channel data: 2
0.009124750000000,SENT (SAE J2716),Fast channel data: 13
0.009164750000000,SENT (SAE J2716),Fast channel data: 7
0.009195125000000,SENT (SAE J2716),Fast channel data: 14
0.009236750000000,SENT (SAE J2716),Fast channel data: 10
0.009271916666667,SENT (SAE J2716),Fast channel data: 13
0.009311916666667,SENT (SAE J2716),CRC data: 7
0.009342291666667,SENT (SAE J2716),Pause pulse length: 71
0.009455208333333,SENT (SAE J2716),Sync pulse: 
0.009544791666667,SENT (SAE J2716),Status nibble: 0
0.009563958333333,SENT (SAE J2716),Fast channel data: 2
0.009586375000000,SENT (SAE J2716),Fast channel data: 13
0.009626375000000,SENT (SAE J2716),Fast channel data: 7
0.009656750000000,SENT (SAE J2716),Fast channel data: 14
0.009698375000000,SENT (SAE J2716),Fast channel data: 10
0.009733541666667,SENT (SAE J2716),Fast channel data: 13
0.009773541666667,SENT (SAE J2716),CRC data: 7
0.009803958333333,SENT (SAE J2716),Pause pulse length: 75
0.009923250000000,SENT (SAE J2716),Sync pulse: 
0.010012833333333,SENT (SAE J2716),Status nibble: 0
0.010032000000000,SENT (SAE J2716),Fast channel data: 2
0.010054416666667,SENT (SAE J2716),Fast channel data: 13
0.010094416666667,SENT (SAE J2716),Fast channel data: 8
0.010126375000000,SENT (SAE J2716),Fast channel data: 14
0.010167958333333,SENT (SAE J2716),Fast channel data: 10
0.010203166666667,SENT (SAE J2716),Fast channel data: 13
0.010243166666667,SENT (SAE J2716),CRC data: 1
0.010263958333333,SENT (SAE J2716),Pause pulse length: 80
0.010391250000000,SENT (SAE J2716),Sync pulse: 
0.010480916666667,SENT (SAE J2716),Status nibble: 0
0.010500041666667,SENT (SAE J2716),Fast channel data: 2
0.010522458333333,SENT (SAE J2716),Fast channel data: 13
0.010562416666667,SENT (SAE J2716),Fast channel data: 7
0.010592791666667,SENT (SAE J2716),Fast channel data: 14
0.010634458333333,SENT (SAE J2716),Fast channel data: 10
0.010669666666667,SENT (SAE J2716),Fast channel data: 13
0.010709625000000,SENT (SAE J2716),CRC data: 7
0.010740083333333,SENT (SAE J2716),Pause pulse length: 75
0.010859333333333,SENT (SAE J2716),Sync pulse: 
0.010948958333333,SENT (SAE J2716),Status nibble: 4
0.010974541666667,SENT (SAE J2716),Fast channel data: 2
0.010996875000000,SENT (SAE J2716),Fast channel data: 13
0.011036916666667,SENT (SAE J2716),Fast channel data: 7
0.011067333333333,SENT (SAE J2716),Fast channel data: 14
0.011108916666667,SENT (SAE J2716),Fast channel data: 10
0.011144083333333,SENT (SAE J2716),Fast channel data: 13
0.011184083333333,SENT (SAE J2716),CRC data: 7
0.011214500000000,SENT (SAE J2716),Pause pulse length: 71
0.011327333333333,SENT (SAE J2716),Sync pulse: 
0.011416958333333,SENT (SAE J2716),Status nibble: 0
0.011436125000000,SENT (SAE J2716),Fast channel data: 2
0.011458541666667,SENT (SAE J2716),Fast channel data: 13
0.011498541666667,SENT (SAE J2716),Fast channel data: 7
0.011528958333333,SENT (SAE J2716),Fast channel data: 14
0.011570541666667,SENT (SAE J2716),Fast channel data: 10
0.011605708333333,SENT (SAE J2716),Fast channel data: 13
0.011645708333333,SENT (SAE J2716),CRC data: 7
0.011676125000000,SENT (SAE J2716),Pause pulse length: 75
0.011795291666667,SENT (SAE J2716),Sync pulse: 
0.011885000000000,SENT (SAE J2716),Status nibble: 0
0.011904125000000,SENT (SAE J2716),Fast channel data: 2
0.011926583333333,SENT (SAE J2716),Fast channel data: 13
0.011966625000000,SENT (SAE J2716),Fast channel data: 7
0.011997041666667,SENT (SAE J2716),Fast channel data: 14
0.012038625000000,SENT (SAE J2716),Fast channel data: 10
0.012073750000000,SENT (SAE J2716),Fast channel data: 13
0.012113833333333,SENT (SAE J2716),CRC data: 7
0.012144208333333,SENT (SAE J2716),Pause pulse length: 75
0.012263458333333,SENT (SAE J2716),Sync pulse: 
0.012353041666667,SENT (SAE J2716),Status nibble: 0
0.012372250000000,SENT (SAE J2716),Fast channel data: 2
0.012394666666667,SENT (SAE J2716),Fast channel data: 13
0.012434666666667,SENT (SAE J2716),Fast channel data: 7
0.012465041666667,SENT (SAE J2716),Fast channel data: 14
0.012506541666667,SENT (SAE J2716),Fast channel data: 10
0.012541833333333,SENT (SAE J2716),Fast channel data: 13
0.012581791666667,SENT (SAE J2716),CRC data: 7
0.012612208333333,SENT (SAE J2716),Pause pulse length: 75
0.012731541666667,SENT (SAE J2716),Sync pulse: 
0.012821125000000,SENT (SAE J2716),Status nibble: 0
0.012840291666667,SENT (SAE J2716),Fast channel data: 2
0.012862708333333,SENT (SAE J2716),Fast channel data: 13
0.012902666666667,SENT (SAE J2716),Fast channel data: 7
0.012933083333333,SENT (SAE J2716),Fast channel data: 14
0.012974666666667,SENT (SAE J2716),Fast channel data: 10
0.013009875000000,SENT (SAE J2716),Fast channel data: 13
0.013049875000000,SENT (SAE J2716),CRC data: 7
0.013080250000000,SENT (SAE J2716),Pause pulse length: 75
0.013199541666667,SENT (SAE J2716),Sync pulse: 
0.013289125000000,SENT (SAE J2716),Status nibble: 4
0.013314750000000,SENT (SAE J2716),Fast channel data: 2
0.013337125000000,SENT (SAE J2716),Fast channel data: 13
0.013377083333333,SENT (SAE J2716),Fast channel data: 7
0.013407500000000,SENT (SAE J2716),Fast channel data: 14
0.013449083333333,SENT (SAE J2716),Fast channel data: 10
0.013484291666667,SENT (SAE J2716),Fast channel data: 13
0.013524291666667,SENT (SAE J2716),CRC data: 7
0.013554666666667,SENT (SAE J2716),Pause pulse length: 71
0.013667583333333,SENT (SAE J2716),Sync pulse: 
0.013757166666667,SENT (SAE J2716),Status nibble: 4
0.013782750000000,SENT (SAE J2716),Fast channel data: 2
0.013805125000000,SENT (SAE J2716),Fast channel data: 13
0.013845166666667,SENT (SAE J2716),Fast channel data: 7
0.013875541666667,SENT (SAE J2716),Fast channel data: 14
0.013917166666667,SENT (SAE J2716),Fast channel data: 10
0.013952333333333,SENT (SAE J2716),Fast channel data: 13
0.013992333333333,SENT (SAE J2716),CRC data: 7
0.014022708333333,SENT (SAE J2716),Pause pulse length: 71
0.014135625000000,SENT (SAE J2716),Sync pulse: 
0.014225208333333,SENT (SAE J2716),Status nibble: 0
0.014244375000000,SENT (SAE J2716),Fast channel data: 2
0.014266791666667,SENT (SAE J2716),Fast channel data: 13
0.014306791666667,SENT (SAE J2716),Fast channel data: 7
0.014337166666667,SENT (SAE J2716),Fast channel data: 14
0.014378750000000,SENT (SAE J2716),Fast channel data: 10
0.014413958333333,SENT (SAE J2716),Fast channel data: 13
0.014453958333333,SENT (SAE J2716),CRC data: 7
0.014484333333333,SENT (SAE J2716),Pause pulse length: 75
0.014603625000000,SENT (SAE J2716),Sync pulse: 
0.014693208333333,SENT (SAE J2716),Status nibble: 0
0.014712416666667,SENT (SAE J2716),Fast channel data: 2
0.014734791666667,SENT (SAE J2716),Fast channel data: 13
0.014774791666667,SENT (SAE J2716),Fast channel data: 7
0.014805208333333,SENT (SAE J2716),Fast channel data: 14
0.014846791666667,SENT (SAE J2716),Fast channel data: 10
0.014881958333333,SENT (SAE J2716),Fast channel data: 13
0.014921958333333,SENT (SAE J2716),CRC data: 7
0.014952375000000,SENT (SAE J2716),Pause pulse length: 75
0.015071666666667,SENT (SAE J2716),Sync pulse: 
0.015161250000000,SENT (SAE J2716),Status nibble: 8
0.015193250000000,SENT (SAE J2716),Fast channel data: 2
0.015215625000000,SENT (SAE J2716),Fast channel data: 13
0.015255666666667,SENT (SAE J2716),Fast channel data: 7
0.015286041666667,SENT (SAE J2716),Fast channel data: 14
0.015327625000000,SENT (SAE J2716),Fast channel data: 10
0.015362833333333,SENT (SAE J2716),Fast channel data: 13
0.015402833333333,SENT (SAE J2716),CRC data: 7
0.015433208333333,SENT (SAE J2716),Pause pulse length: 67
0.015539708333333,SENT (SAE J2716),Sync pulse: 
0.015629291666667,SENT (SAE J2716),Status nibble: 0
0.015648458333333,SENT (SAE J2716),Fast channel data: 2
0.015670875000000,SENT (SAE J2716),Fast channel data: 13
0.015710875000000,SENT (SAE J2716),Fast channel data: 7
0.015741291666667,SENT (SAE J2716),Fast channel data: 14
0.015782875000000,SENT (SAE J2716),Fast channel data: 10
0.015818041666667,SENT (SAE J2716),Fast channel data: 13
0.015858083333333,SENT (SAE J2716),CRC data: 7
0.015888458333333,SENT (SAE J2716),Pause pulse length: 75
0.016007750000000,SENT (SAE J2716),Sync pulse: 
0.016097333333333,SENT (SAE J2716),Status nibble: 4
0.016122916666667,SENT (SAE J2716),Fast channel data: 2
0.016145333333333,SENT (SAE J2716),Fast channel data: 13
0.016185333333333,SENT (SAE J2716),Fast channel data: 7
0.016215708333333,SENT (SAE J2716),Fast channel data: 14
0.016257291666667,SENT (SAE J2716),Fast channel data: 10
0.016292500000000,SENT (SAE J2716),Fast channel data: 13
0.016332500000000,SENT (SAE J2716),CRC data: 7
0.016362875000000,SENT (SAE J2716),Pause pulse length: 71
0.016475791666667,SENT (SAE J2716),Sync pulse: 
0.016565375000000,SENT (SAE J2716),Status nibble: 0
0.016584541666667,SENT (SAE J2716),Fast channel data: 2
0.016607000000000,SENT (SAE J2716),Fast channel data: 13
0.016647000000000,SENT (SAE J2716),Fast channel data: 7
0.016677375000000,SENT (SAE J2716),Fast channel data: 14
0.016719000000000,SENT (SAE J2716),Fast channel data: 10
0.016754166666667,SENT (SAE J2716),Fast channel data: 13
0.016794166666667,SENT (SAE J2716),CRC data: 7
0.016824541666667,SENT (SAE J2716),Pause pulse length: 75
0.016943875000000,SENT (SAE J2716),Sync pulse: 
0.017033458333333,SENT (SAE J2716),Status nibble: 0
0.017052625000000,SENT (SAE J2716),Fast channel data: 2
0.017075041666667,SENT (SAE J2716),Fast channel data: 13
0.017115041666667,SENT (SAE J2716),Fast channel data: 7
0.017145458333333,SENT (SAE J2716),Fast channel data: 14
