Time [s], Analyzer Name, Decoded Protocol Result
0.000018583333333,SENT (SAE J2716),Sync pulse: 
0.000108166666667,SENT (SAE J2716),Status nibble: 8
0.000140166666667,SENT (SAE J2716),Fast channel data: 3
0.000164125000000,SENT (SAE J2716),Fast channel data: 2
0.000186541666667,SENT (SAE J2716),Fast channel data: 7
0.000216958333333,SENT (SAE J2716),Fast channel data: 15
0.000260166666667,SENT (SAE J2716),Fast channel data: 9
0.000293750000000,SENT (SAE J2716),Fast channel data: 14
0.000335375000000,SENT (SAE J2716),CRC data: 13
0.000375333333333,SENT (SAE J2716),Pause pulse length: 70
0.000486666666667,SENT (SAE J2716),Sync pulse: 
0.000576250000000,SENT (SAE J2716),Status nibble: 0
0.000595458333333,SENT (SAE J2716),Fast channel data: 3
0.000619416666667,SENT (SAE J2716),Fast channel data: 2
0.000641875000000,SENT (SAE J2716),Fast channel data: 10
0.000677083333333,SENT (SAE J2716),Fast channel data: 8
0.000709041666667,SENT (SAE J2716),Fast channel data: 10
0.000744208333333,SENT (SAE J2716),Fast channel data: 14
0.000785875000000,SENT (SAE J2716),CRC data: 13
0.000825875000000,SENT (SAE J2716),Pause pulse length: 81
0.000954750000000,SENT (SAE J2716),Sync pulse: 
0.001044375000000,SENT (SAE J2716),Status nibble: 4
0.001069958333333,SENT (SAE J2716),Fast channel data: 3
0.001094000000000,SENT (SAE J2716),Fast channel data: 2
0.001116250000000,SENT (SAE J2716),Fast channel data: 14
0.001157958333333,SENT (SAE J2716),Fast channel data: 0
0.001177166666667,SENT (SAE J2716),Fast channel data: 11
0.001213916666667,SENT (SAE J2716),Fast channel data: 14
0.001255583333333,SENT (SAE J2716),CRC data: 0
0.001274750000000,SENT (SAE J2716),Pause pulse length: 94
0.001422833333333,SENT (SAE J2716),Sync pulse: 
0.001512416666667,SENT (SAE J2716),Status nibble: 4
0.001538041666667,SENT (SAE J2716),Fast channel data: 3
0.001562000000000,SENT (SAE J2716),Fast channel data: 3
0.001586041666667,SENT (SAE J2716),Fast channel data: 1
0.001606833333333,SENT (SAE J2716),Fast channel data: 8
0.001638875000000,SENT (SAE J2716),Fast channel data: 11
0.001675666666667,SENT (SAE J2716),Fast channel data: 14
0.001717208333333,SENT (SAE J2716),CRC data: 10
0.001752291666667,SENT (SAE J2716),Pause pulse length: 88
0.001890958333333,SENT (SAE J2716),Sync pulse: 
0.001980541666667,SENT (SAE J2716),Status nibble: 0
0.001999750000000,SENT (SAE J2716),Fast channel data: 3
0.002023666666667,SENT (SAE J2716),Fast channel data: 3
0.002047708333333,SENT (SAE J2716),Fast channel data: 5
0.002074958333333,SENT (SAE J2716),Fast channel data: 1
0.002095791666667,SENT (SAE J2716),Fast channel data: 12
0.002134166666667,SENT (SAE J2716),Fast channel data: 14
0.002175791666667,SENT (SAE J2716),CRC data: 12
0.002214208333333,SENT (SAE J2716),Pause pulse length: 92
0.002359083333333,SENT (SAE J2716),Sync pulse: 
0.002448666666667,SENT (SAE J2716),Status nibble: 0
0.002467875000000,SENT (SAE J2716),Fast channel data: 3
0.002491833333333,SENT (SAE J2716),Fast channel data: 3
0.002515833333333,SENT (SAE J2716),Fast channel data: 8
0.002547791666667,SENT (SAE J2716),Fast channel data: 9
0.002581500000000,SENT (SAE J2716),Fast channel data: 12
0.002619875000000,SENT (SAE J2716),Fast channel data: 14
0.002661458333333,SENT (SAE J2716),CRC data: 0
0.002680666666667,SENT (SAE J2716),Pause pulse length: 93
0.002827166666667,SENT (SAE J2716),Sync pulse: 
0.002916750000000,SENT (SAE J2716),Status nibble: 0
0.002935916666667,SENT (SAE J2716),Fast channel data: 3
0.002959958333333,SENT (SAE J2716),Fast channel data: 3
0.002983958333333,SENT (SAE J2716),Fast channel data: 12
0.003022333333333,SENT (SAE J2716),Fast channel data: 1
0.003043166666667,SENT (SAE J2716),Fast channel data: 13
0.003083166666667,SENT (SAE J2716),Fast channel data: 14
0.003124750000000,SENT (SAE J2716),CRC data: 13
0.003164750000000,SENT (SAE J2716),Pause pulse length: 82
0.003295250000000,SENT (SAE J2716),Sync pulse: 
0.003384916666667,SENT (SAE J2716),Status nibble: 4
0.003410500000000,SENT (SAE J2716),Fast channel data: 3
0.003434500000000,SENT (SAE J2716),Fast channel data: 3
0.003458500000000,SENT (SAE J2716),Fast channel data: 15
0.003501708333333,SENT (SAE J2716),Fast channel data: 10
0.003536875000000,SENT (SAE J2716),Fast channel data: 13
0.003576875000000,SENT (SAE J2716),Fast channel data: 14
0.003618500000000,SENT (SAE J2716),CRC data: 10
0.003653666666667,SENT (SAE J2716),Pause pulse length: 69
0.003763416666667,SENT (SAE J2716),Sync pulse: 
0.003853000000000,SENT (SAE J2716),Status nibble: 0
0.003872208333333,SENT (SAE J2716),Fast channel data: 3
0.003896208333333,SENT (SAE J2716),Fast channel data: 4
0.003921833333333,SENT (SAE J2716),Fast channel data: 3
0.003945833333333,SENT (SAE J2716),Fast channel data: 2
0.003968208333333,SENT (SAE J2716),Fast channel data: 14
0.004009833333333,SENT (SAE J2716),Fast channel data: 14
0.004051416666667,SENT (SAE J2716),CRC data: 9
0.004085041666667,SENT (SAE J2716),Pause pulse length: 93
0.004231541666667,SENT (SAE J2716),Sync pulse: 
0.004321166666667,SENT (SAE J2716),Status nibble: 0
0.004340333333333,SENT (SAE J2716),Fast channel data: 3
0.004364333333333,SENT (SAE J2716),Fast channel data: 4
0.004389958333333,SENT (SAE J2716),Fast channel data: 6
0.004418750000000,SENT (SAE J2716),Fast channel data: 10
0.004453958333333,SENT (SAE J2716),Fast channel data: 14
0.004495541666667,SENT (SAE J2716),Fast channel data: 14
0.004537166666667,SENT (SAE J2716),CRC data: 2
0.004559541666667,SENT (SAE J2716),Pause pulse length: 89
0.004699666666667,SENT (SAE J2716),Sync pulse: 
0.004789291666667,SENT (SAE J2716),Status nibble: 0
0.004808500000000,SENT (SAE J2716),Fast channel data: 3
0.004832500000000,SENT (SAE J2716),Fast channel data: 4
0.004858083333333,SENT (SAE J2716),Fast channel data: 10
0.004893291666667,SENT (SAE J2716),Fast channel data: 3
0.004917333333333,SENT (SAE J2716),Fast channel data: 15
0.004960541666667,SENT (SAE J2716),Fast channel data: 14
0.005002125000000,SENT (SAE J2716),CRC data: 15
0.005045333333333,SENT (SAE J2716),Pause pulse length: 77
0.005167833333333,SENT (SAE J2716),Sync pulse: 
0.005257458333333,SENT (SAE J2716),Status nibble: 0
0.005276625000000,SENT (SAE J2716),Fast channel data: 3
0.005300625000000,SENT (SAE J2716),Fast channel data: 4
0.005326250000000,SENT (SAE J2716),Fast channel data: 14
0.005367833333333,SENT (SAE J2716),Fast channel data: 11
0.005404625000000,SENT (SAE J2716),Fast channel data: 15
0.005447875000000,SENT (SAE J2716),Fast channel data: 14
0.005489458333333,SENT (SAE J2716),CRC data: 0
0.005508666666667,SENT (SAE J2716),Pause pulse length: 80
0.005635958333333,SENT (SAE J2716),Sync pulse: 
0.005725583333333,SENT (SAE J2716),Status nibble: 0
0.005744750000000,SENT (SAE J2716),Fast channel data: 3
0.005768791666667,SENT (SAE J2716),Fast channel data: 5
0.005795958333333,SENT (SAE J2716),Fast channel data: 1
0.005816791666667,SENT (SAE J2716),Fast channel data: 3
0.005840791666667,SENT (SAE J2716),Fast channel data: 0
0.005859958333333,SENT (SAE J2716),Fast channel data: 15
0.005903208333333,SENT (SAE J2716),CRC data: 4
0.005928791666667,SENT (SAE J2716),Pause pulse length: 111
0.006104125000000,SENT (SAE J2716),Sync pulse: 
0.006193708333333,SENT (SAE J2716),Status nibble: 0
0.006212916666667,SENT (SAE J2716),Fast channel data: 3
0.006236875000000,SENT (SAE J2716),Fast channel data: 5
0.006264125000000,SENT (SAE J2716),Fast channel data: 5
0.006291291666667,SENT (SAE J2716),Fast channel data: 12
0.006329708333333,SENT (SAE J2716),Fast channel data: 0
0.006348916666667,SENT (SAE J2716),Fast channel data: 15
0.006392083333333,SENT (SAE J2716),CRC data: 3
0.006416125000000,SENT (SAE J2716),Pause pulse length: 99
0.006572250000000,SENT (SAE J2716),Sync pulse: 
0.006661833333333,SENT (SAE J2716),Status nibble: 4
0.006687458333333,SENT (SAE J2716),Fast channel data: 3
0.006711416666667,SENT (SAE J2716),Fast channel data: 5
0.006738625000000,SENT (SAE J2716),Fast channel data: 9
0.006772250000000,SENT (SAE J2716),Fast channel data: 4
0.006797875000000,SENT (SAE J2716),Fast channel data: 1
0.006818625000000,SENT (SAE J2716),Fast channel data: 15
0.006861875000000,SENT (SAE J2716),CRC data: 9
0.006895458333333,SENT (SAE J2716),Pause pulse length: 92
0.007040375000000,SENT (SAE J2716),Sync pulse: 
0.007129958333333,SENT (SAE J2716),Status nibble: 0
0.007149125000000,SENT (SAE J2716),Fast channel data: 3
0.007173125000000,SENT (SAE J2716),Fast channel data: 5
0.007200375000000,SENT (SAE J2716),Fast channel data: 12
0.007238750000000,SENT (SAE J2716),Fast channel data: 12
0.007277125000000,SENT (SAE J2716),Fast channel data: 1
0.007297916666667,SENT (SAE J2716),Fast channel data: 15
0.007341166666667,SENT (SAE J2716),CRC data: 2
0.007363541666667,SENT (SAE J2716),Pause pulse length: 92
0.007508458333333,SENT (SAE J2716),Sync pulse: 
0.007598083333333,SENT (SAE J2716),Status nibble: 8
0.007630041666667,SENT (SAE J2716),Fast channel data: 3
0.007654041666667,SENT (SAE J2716),Fast channel data: 6
0.007682833333333,SENT (SAE J2716),Fast channel data: 0
0.007702000000000,SENT (SAE J2716),Fast channel data: 5
0.007729208333333,SENT (SAE J2716),Fast channel data: 2
0.007751625000000,SENT (SAE J2716),Fast channel data: 15
0.007794833333333,SENT (SAE J2716),CRC data: 4
0.007820416666667,SENT (SAE J2716),Pause pulse length: 99
0.007976541666667,SENT (SAE J2716),Sync pulse: 
0.008066125000000,SENT (SAE J2716),Status nibble: 4
0.008091708333333,SENT (SAE J2716),Fast channel data: 3
0.008115708333333,SENT (SAE J2716),Fast channel data: 6
0.008144500000000,SENT (SAE J2716),Fast channel data: 4
0.008170083333333,SENT (SAE J2716),Fast channel data: 13
0.008210125000000,SENT (SAE J2716),Fast channel data: 2
0.008232500000000,SENT (SAE J2716),Fast channel data: 15
0.008275666666667,SENT (SAE J2716),CRC data: 11
0.008312500000000,SENT (SAE J2716),Pause pulse length: 83
0.008444625000000,SENT (SAE J2716),Sync pulse: 
0.008534166666667,SENT (SAE J2716),Status nibble: 0
0.008553333333333,SENT (SAE J2716),Fast channel data: 3
0.008577333333333,SENT (SAE J2716),Fast channel data: 6
0.008606166666667,SENT (SAE J2716),Fast channel data: 7
0.008636583333333,SENT (SAE J2716),Fast channel data: 6
0.008665375000000,SENT (SAE J2716),Fast channel data: 3
0.008689375000000,SENT (SAE J2716),Fast channel data: 15
0.008732541666667,SENT (SAE J2716),CRC data: 14
0.008774166666667,SENT (SAE J2716),Pause pulse length: 87
0.008912625000000,SENT (SAE J2716),Sync pulse: 
0.009002291666667,SENT (SAE J2716),Status nibble: 0
0.009021500000000,SENT (SAE J2716),Fast channel data: 3
0.009045500000000,SENT (SAE J2716),Fast channel data: 6
0.009074333333333,SENT (SAE J2716),Fast channel data: 11
0.009111083333333,SENT (SAE J2716),Fast channel data: 14
0.009152750000000,SENT (SAE J2716),Fast channel data: 3
0.009176708333333,SENT (SAE J2716),Fast channel data: 15
0.009219916666667,SENT (SAE J2716),CRC data: 6
0.009248666666667,SENT (SAE J2716),Pause pulse length: 83
0.009380791666667,SENT (SAE J2716),Sync pulse: 
0.009470416666667,SENT (SAE J2716),Status nibble: 0
0.009489625000000,SENT (SAE J2716),Fast channel data: 3
0.009513625000000,SENT (SAE J2716),Fast channel data: 6
0.009542416666667,SENT (SAE J2716),Fast channel data: 15
0.009585625000000,SENT (SAE J2716),Fast channel data: 7
0.009616041666667,SENT (SAE J2716),Fast channel data: 4
0.009641625000000,SENT (SAE J2716),Fast channel data: 15
0.009684791666667,SENT (SAE J2716),CRC data: 0
0.009704000000000,SENT (SAE J2716),Pause pulse length: 92
0.009848916666667,SENT (SAE J2716),Sync pulse: 
0.009938458333333,SENT (SAE J2716),Status nibble: 4
0.009964125000000,SENT (SAE J2716),Fast channel data: 3
0.009988083333333,SENT (SAE J2716),Fast channel data: 7
0.010018583333333,SENT (SAE J2716),Fast channel data: 3
0.010042458333333,SENT (SAE J2716),Fast channel data: 15
0.010085708333333,SENT (SAE J2716),Fast channel data: 4
0.010111250000000,SENT (SAE J2716),Fast channel data: 15
0.010154458333333,SENT (SAE J2716),CRC data: 6
0.010183208333333,SENT (SAE J2716),Pause pulse length: 84
0.010316958333333,SENT (SAE J2716),Sync pulse: 
0.010406541666667,SENT (SAE J2716),Status nibble: 4
0.010432125000000,SENT (SAE J2716),Fast channel data: 3
0.010456208333333,SENT (SAE J2716),Fast channel data: 7
0.010486583333333,SENT (SAE J2716),Fast channel data: 6
0.010515333333333,SENT (SAE J2716),Fast channel data: 7
0.010545708333333,SENT (SAE J2716),Fast channel data: 5
0.010572958333333,SENT (SAE J2716),Fast channel data: 15
0.010616083333333,SENT (SAE J2716),CRC data: 15
0.010659333333333,SENT (SAE J2716),Pause pulse length: 79
0.010785083333333,SENT (SAE J2716),Sync pulse: 
0.010874625000000,SENT (SAE J2716),Status nibble: 0
0.010893833333333,SENT (SAE J2716),Fast channel data: 3
0.010917833333333,SENT (SAE J2716),Fast channel data: 7
0.010948291666667,SENT (SAE J2716),Fast channel data: 10
0.010983458333333,SENT (SAE J2716),Fast channel data: 0
0.011002666666667,SENT (SAE J2716),Fast channel data: 6
0.011031458333333,SENT (SAE J2716),Fast channel data: 15
0.011074666666667,SENT (SAE J2716),CRC data: 11
0.011111458333333,SENT (SAE J2716),Pause pulse length: 90
0.011253166666667,SENT (SAE J2716),Sync pulse: 
0.011342791666667,SENT (SAE J2716),Status nibble: 4
0.011368375000000,SENT (SAE J2716),Fast channel data: 3
0.011392333333333,SENT (SAE J2716),Fast channel data: 7
0.011422750000000,SENT (SAE J2716),Fast channel data: 14
0.011464375000000,SENT (SAE J2716),Fast channel data: 8
0.011496375000000,SENT (SAE J2716),Fast channel data: 6
0.011525166666667,SENT (SAE J2716),Fast channel data: 15
0.011568333333333,SENT (SAE J2716),CRC data: 4
0.011594000000000,SENT (SAE J2716),Pause pulse length: 80
0.011721291666667,SENT (SAE J2716),Sync pulse: 
0.011810875000000,SENT (SAE J2716),Status nibble: 0
0.011830083333333,SENT (SAE J2716),Fast channel data: 3
0.011854083333333,SENT (SAE J2716),Fast channel data: 8
0.011886083333333,SENT (SAE J2716),Fast channel data: 2
0.011908500000000,SENT (SAE J2716),Fast channel data: 0
0.011927666666667,SENT (SAE J2716),Fast channel data: 7
0.011958083333333,SENT (SAE J2716),Fast channel data: 15
0.012001291666667,SENT (SAE J2716),CRC data: 7
0.012031666666667,SENT (SAE J2716),Pause pulse length: 100
0.012189458333333,SENT (SAE J2716),Sync pulse: 
0.012279041666667,SENT (SAE J2716),Status nibble: 4
0.012304666666667,SENT (SAE J2716),Fast channel data: 3
0.012328666666667,SENT (SAE J2716),Fast channel data: 8
0.012360625000000,SENT (SAE J2716),Fast channel data: 5
0.012387875000000,SENT (SAE J2716),Fast channel data: 9
0.012421500000000,SENT (SAE J2716),Fast channel data: 7
0.012451875000000,SENT (SAE J2716),Fast channel data: 15
0.012495125000000,SENT (SAE J2716),CRC data: 3
0.012519083333333,SENT (SAE J2716),Pause pulse length: 88
0.012657625000000,SENT (SAE J2716),Sync pulse: 
0.012747250000000,SENT (SAE J2716),Status nibble: 4
0.012772833333333,SENT (SAE J2716),Fast channel data: 3
0.012796833333333,SENT (SAE J2716),Fast channel data: 8
0.012828833333333,SENT (SAE J2716),Fast channel data: 9
0.012862458333333,SENT (SAE J2716),Fast channel data: 1
0.012883250000000,SENT (SAE J2716),Fast channel data: 8
0.012915250000000,SENT (SAE J2716),Fast channel data: 15
0.012958458333333,SENT (SAE J2716),CRC data: 8
0.012990458333333,SENT (SAE J2716),Pause pulse length: 85
0.013125791666667,SENT (SAE J2716),Sync pulse: 
0.013215416666667,SENT (SAE J2716),Status nibble: 4
0.013241000000000,SENT (SAE J2716),Fast channel data: 3
0.013265000000000,SENT (SAE J2716),Fast channel data: 8
0.013297000000000,SENT (SAE J2716),Fast channel data: 12
0.013335416666667,SENT (SAE J2716),Fast channel data: 10
0.013370625000000,SENT (SAE J2716),Fast channel data: 8
0.013402583333333,SENT (SAE J2716),Fast channel data: 15
0.013445833333333,SENT (SAE J2716),CRC data: 10
0.013481000000000,SENT (SAE J2716),Pause pulse length: 71
0.013593958333333,SENT (SAE J2716),Sync pulse: 
0.013683541666667,SENT (SAE J2716),Status nibble: 4
0.013709166666667,SENT (SAE J2716),Fast channel data: 3
0.013733166666667,SENT (SAE J2716),Fast channel data: 9
0.013766750000000,SENT (SAE J2716),Fast channel data: 0
0.013785916666667,SENT (SAE J2716),Fast channel data: 2
0.013808333333333,SENT (SAE J2716),Fast channel data: 9
0.013841958333333,SENT (SAE J2716),Fast channel data: 15
0.013885166666667,SENT (SAE J2716),CRC data: 14
0.013926750000000,SENT (SAE J2716),Pause pulse length: 85
0.014062083333333,SENT (SAE J2716),Sync pulse: 
0.014151708333333,SENT (SAE J2716),Status nibble: 4
0.014177291666667,SENT (SAE J2716),Fast channel data: 3
0.014201291666667,SENT (SAE J2716),Fast channel data: 9
0.014234875000000,SENT (SAE J2716),Fast channel data: 4
0.014260500000000,SENT (SAE J2716),Fast channel data: 11
0.014297291666667,SENT (SAE J2716),Fast channel data: 9
0.014330916666667,SENT (SAE J2716),Fast channel data: 15
0.014374083333333,SENT (SAE J2716),CRC data: 6
0.014402916666667,SENT (SAE J2716),Pause pulse length: 80
0.014530208333333,SENT (SAE J2716),Sync pulse: 
0.014619833333333,SENT (SAE J2716),Status nibble: 4
0.014645416666667,SENT (SAE J2716),Fast channel data: 3
0.014669416666667,SENT (SAE J2716),Fast channel data: 9
0.014703000000000,SENT (SAE J2716),Fast channel data: 8
0.014735041666667,SENT (SAE J2716),Fast channel data: 3
0.014759041666667,SENT (SAE J2716),Fast channel data: 10
0.014794250000000,SENT (SAE J2716),Fast channel data: 15
0.014837416666667,SENT (SAE J2716),CRC data: 8
0.014869458333333,SENT (SAE J2716),Pause pulse length: 81
0.014998375000000,SENT (SAE J2716),Sync pulse: 
0.015087958333333,SENT (SAE J2716),Status nibble: 8
0.015119958333333,SENT (SAE J2716),Fast channel data: 3
0.015143916666667,SENT (SAE J2716),Fast channel data: 9
0.015177541666667,SENT (SAE J2716),Fast channel data: 11
0.015214333333333,SENT (SAE J2716),Fast channel data: 11
0.015251125000000,SENT (SAE J2716),Fast channel data: 10
0.015286333333333,SENT (SAE J2716),Fast channel data: 15
0.015329541666667,SENT (SAE J2716),CRC data: 6
0.015358333333333,SENT (SAE J2716),Pause pulse length: 68
0.015466458333333,SENT (SAE J2716),Sync pulse: 
0.015556041666667,SENT (SAE J2716),Status nibble: 4
0.015581625000000,SENT (SAE J2716),Fast channel data: 3
0.015605625000000,SENT (SAE J2716),Fast channel data: 9
0.015639250000000,SENT (SAE J2716),Fast channel data: 15
0.015682458333333,SENT (SAE J2716),Fast channel data: 4
0.015708083333333,SENT (SAE J2716),Fast channel data: 11
0.015744875000000,SENT (SAE J2716),Fast channel data: 15
0.015788083333333,SENT (SAE J2716),CRC data: 3
0.015812083333333,SENT (SAE J2716),Pause pulse length: 77
0.015934583333333,SENT (SAE J2716),Sync pulse: 
0.016024208333333,SENT (SAE J2716),Status nibble: 0
0.016043375000000,SENT (SAE J2716),Fast channel data: 3
0.016067416666667,SENT (SAE J2716),Fast channel data: 10
0.016102625000000,SENT (SAE J2716),Fast channel data: 3
0.016126583333333,SENT (SAE J2716),Fast channel data: 12
0.016165000000000,SENT (SAE J2716),Fast channel data: 11
0.016201833333333,SENT (SAE J2716),Fast channel data: 15
0.016245041666667,SENT (SAE J2716),CRC data: 4
0.016270625000000,SENT (SAE J2716),Pause pulse length: 83
0.016402750000000,SENT (SAE J2716),Sync pulse: 
0.016492375000000,SENT (SAE J2716),Status nibble: 4
0.016517958333333,SENT (SAE J2716),Fast channel data: 3
0.016541958333333,SENT (SAE J2716),Fast channel data: 10
0.016577166666667,SENT (SAE J2716),Fast channel data: 6
0.016606000000000,SENT (SAE J2716),Fast channel data: 5
0.016633166666667,SENT (SAE J2716),Fast channel data: 12
0.016671583333333,SENT (SAE J2716),Fast channel data: 15
0.016714791666667,SENT (SAE J2716),CRC data: 6
0.016743583333333,SENT (SAE J2716),Pause pulse length: 80
0.016870916666667,SENT (SAE J2716),Sync pulse: 
0.016960500000000,SENT (SAE J2716),Status nibble: 0
0.016979666666667,SENT (SAE J2716),Fast channel data: 3
0.017003666666667,SENT (SAE J2716),Fast channel data: 10
0.017038791666667,SENT (SAE J2716),Fast channel data: 10
0.017074083333333,SENT (SAE J2716),Fast channel data: 13
