(1565298845.169217) can0 48E#0000000000000000
(1565298845.169432) can0 497#0200830046570068
(1565298845.170029) can0 0AD#77EBBFFF00200010
(1565298845.170229) can0 0AE#2D0B0000FF00FD01
(1565298845.170841) can0 120#8D0E00000004FF01
(1565298845.171071) can0 121#D10E008037537EFE
(1565298845.171262) can0 0A8#8EDCBF119464A40B
(1565298845.171595) can0 0A7#9EFC6084FC45983E
(1565298845.171738) can0 147#0000000000342000
(1565298845.173119) can0 391#4388264F00250060
(1565298845.175264) can0 0B2#0000000000000000
(1565298845.175439) can0 0FD#38E93F8000000000
(1565298845.175680) can0 101#13097FFE81040000
(1565298845.175989) can0 106#7289A40400009420
(1565298845.176210) can0 1B000013#1300080101000000
(1565298845.176754) can0 086#4205C70000000000
(1565298845.177689) can0 32A#010DC0014A020000
(1565298845.177877) can0 09F#99058400000480F0
(1565298845.178184) can0 11D#9D0A00C87E200000
(1565298845.179949) can0 0AD#1AECBFFF00200010
(1565298845.180228) can0 0AE#950C0000FF00FD01
(1565298845.180408) can0 12D#834E380000F86A82
(1565298845.181579) can0 31E#AAE63F0000000000
(1565298845.181754) can0 107#0000FE0F011559E8
(1565298845.182114) can0 0A7#6EFD6084FC45983E
(1565298845.182260) can0 0A8#D5DDBF119464A80B
(1565298845.182607) can0 0B1#0020000000000000
(1565298845.184033) can0 3C7#2A0000000040A000
(1565298845.185199) can0 0B2#0000000000000000
(1565298845.185414) can0 116#6D0905BECC6A105F
(1565298845.185601) can0 11E#E109000000000000
(1565298845.185835) can0 31B#2E040000005B1400
(1565298845.186187) can0 3C8#0000544000120098
(1565298845.186659) can0 086#EE06C70000000000
(1565298845.187623) can0 09F#80068400000580F0
(1565298845.188972) can0 3D5#2BC4400004000000
(1565298845.189217) can0 365#A5000C001500743C
(1565298845.189952) can0 0AD#6BEDBFFF00200010
(1565298845.190229) can0 0AE#F60D0000FF00FD01
(1565298845.190806) can0 120#580F00000004FF01
(1565298845.191068) can0 040#CF8D0000800060AA
(1565298845.191277) can0 0A7#F5FEA084FC4D983E
(1565298845.191563) can0 0A8#43DEBF119464AE0B
(1565298845.191803) can0 121#670F008037537EFE
(1565298845.192012) can0 147#0000000000342000
(1565298845.195208) can0 0B2#0000000000000000
(1565298845.195433) can0 0FD#74EA3F8000000000
(1565298845.195771) can0 101#C50A7FFE81030000
(1565298845.195922) can0 106#DE8AA40400009420
(1565298845.196710) can0 086#8A07C70000000000
(1565298845.197653) can0 11D#F90B00C87E200000
(1565298845.197891) can0 09F#E4078400000580F0
(1565298845.199040) can0 3D6#0A08000000000000
(1565298845.199995) can0 0AD#B1EEBFFF00200010
(1565298845.200208) can0 0AE#CE0E0000FF00FD01
(1565298845.200387) can0 12D#504F380000F86C82
(1565298845.200734) can0 12B#7741402800000000
(1565298845.200981) can0 520#C70B0000000F0000
(1565298845.201288) can0 545#0000000000000000
(1565298845.201657) can0 107#0000FE0F81155FE8
(1565298845.201932) can0 297#C804000000000000
(1565298845.202164) can0 0A8#08DFBF119464B80B
(1565298845.202340) can0 0A7#2BFFA084FC4D983E
(1565298845.202570) can0 11B#0020000000000000
(1565298845.202814) can0 32C#000F000000250800
(1565298845.205103) can0 08A#4106000000000000
(1565298845.205326) can0 0B2#0000000000000000
(1565298845.205641) can0 1AB#DE88842A00101100
(1565298845.205852) can0 11E#4D0A000000000000
(1565298845.206139) can0 116#C10A05BECC6A105F
(1565298845.206308) can0 1A2#B00A000000000000
(1565298845.206594) can0 1A555521#0000000000000000
(1565298845.206841) can0 086#C808C70000000000
(1565298845.207139) can0 65D#08272B000000E47B
(1565298845.207681) can0 09F#A6088400000580F0
(1565298845.208946) can0 3E5#E215000000000000
(1565298845.209991) can0 0AD#E0EFBFFF00200010
(1565298845.210192) can0 0AE#2C0F0000FF00FD01
(1565298845.210892) can0 120#920000000004FF01
(1565298845.211159) can0 121#A900008037537EFE
(1565298845.211322) can0 0A7#8A00A184FC4D983E
(1565298845.211560) can0 0A8#D3D0BF519464C00B
(1565298845.211860) can0 15A#B504000001E60000
(1565298845.212085) can0 30B#102C000008000010
(1565298845.212334) can0 32F#007F000000000000
(1565298845.212591) can0 147#0000000000382000
(1565298845.212790) can0 6B4#0234303030363137
(1565298845.215223) can0 0B2#0000000000000000
(1565298845.215462) can0 0FD#5BEB3F8000000000
(1565298845.215705) can0 101#A00B7FFE81004000
(1565298845.215957) can0 106#028BA30400009320
(1565298845.216182) can0 3B5#80FE15020C001800
(1565298845.216593) can0 3DD#881C101800490A00
(1565298845.216829) can0 086#AC09C70000000000
(1565298845.217664) can0 11D#EA0C00C87E200000
(1565298845.217858) can0 09F#77098400000480F0
(1565298845.218879) can0 3C0#C50C0300
(1565298845.219938) can0 0AD#7DE0BFFF00200010
(1565298845.220254) can0 0AE#9B000000FF00FD01
(1565298845.220430) can0 12D#FA40380000F86D82
(1565298845.220827) can0 12B#D342402800000000
(1565298845.221689) can0 107#0000FE0F811565E8
(1565298845.221890) can0 3BE#6F14E75188800C80
(1565298845.222199) can0 0A8#C5D1BF519464CA0B
(1565298845.222359) can0 0A7#0201A184FC4D983E
(1565298845.224205) can0 394#C949000100010000
(1565298845.225196) can0 0B2#0000000000000000
(1565298845.225395) can0 116#A50B05BECC6A105F
(1565298845.225700) can0 11E#290B000000000000
(1565298845.226168) can0 1B000077#7700080101000000
(1565298845.226438) can0 1B000015#1500040201000000
(1565298845.226671) can0 086#000AC70000000000
(1565298845.227635) can0 32A#AD0EC0014A020000
(1565298845.227911) can0 09F#6E0A8400000580F0
(1565298845.229934) can0 0AD#B3E1BFFF00200010
(1565298845.230233) can0 0AE#74010000FF00FD01
(1565298845.230862) can0 120#670100000004FF01
(1565298845.231038) can0 121#C501008037537EFE
(1565298845.231286) can0 0A7#D7026184FC49983E
(1565298845.231528) can0 0A8#9DD2BF519464D40B
(1565298845.231751) can0 31E#ACE73F0000000000
(1565298845.232018) can0 147#00000000003C4000
(1565298845.232242) can0 3FB#0000000000000024
(1565298845.235246) can0 0B2#0000000000000000
(1565298845.235496) can0 0FD#C2EC3F8000000000
(1565298845.235740) can0 31B#C3050000005B1400
(1565298845.235920) can0 101#430C7FFE81034000
(1565298845.236134) can0 106#838CA40400009320
(1565298845.236730) can0 086#640BC70000000000
(1565298845.237641) can0 11D#8E0D00C87E200000
(1565298845.237910) can0 09F#0A0B8400000580F0
(1565298845.239185) can0 365#A5000C001400743C
(1565298845.239977) can0 0AD#57E2BFFF00200010
(1565298845.240213) can0 0AE#75020000FF00FD01
(1565298845.240470) can0 12D#0541380000F87182
(1565298845.240762) can0 040#B68E0000800060AE
(1565298845.241518) can0 107#0000FE0F01166BE8
(1565298845.241810) can0 0A7#56036184FC49983E
(1565298845.242045) can0 0A8#45D3BF519464E00B
(1565298845.244176) can0 6B2#A2FB053041241B29
(1565298845.245165) can0 0B2#0000000000000000
(1565298845.245402) can0 392#3A03000000000004
(1565298845.245630) can0 11E#3A0C000000000000
(1565298845.245900) can0 116#B60C05BECC6A105F
(1565298845.246402) can0 1B000010#1000040501000000
(1565298845.246649) can0 086#770CC70000000000
(1565298845.246884) can0 3DB#500002000720019C
(1565298845.247645) can0 09F#190C8400000580F0
(1565298845.249179) can0 395#100520009BFE631C
(1565298845.249935) can0 0AD#D6E3BFFF00200010
(1565298845.250198) can0 0AE#50030000FF00FD01
(1565298845.250808) can0 120#9F0200000004FF01
(1565298845.251058) can0 121#4A02008037537EFE
(1565298845.251321) can0 0A7#6C046184FC49983E
(1565298845.251526) can0 0A8#85D4BF519464EA0B
(1565298845.251728) can0 32C#000F000000250800
(1565298845.252030) can0 147#00000000003C4000
(1565298845.255244) can0 0B2#0000000000000000
(1565298845.255502) can0 0FD#4BED3F8000000000
(1565298845.255714) can0 101#620D7FFE81014000
(1565298845.255952) can0 106#758DA30400009320
(1565298845.256111) can0 64A#00000000
(1565298845.256673) can0 086#130DC70000000000
(1565298845.257655) can0 11D#220E00C87E200000
(1565298845.257874) can0 09F#7D0D8400000580F0
(1565298845.259970) can0 0AD#74E4BFFF00200010
(1565298845.260181) can0 0AE#5E040000FF00FD01
(1565298845.260427) can0 12D#7542380000F87A82
(1565298845.260777) can0 12B#8B43402800000000
(1565298845.261251) can0 30B#102D000008000010
(1565298845.261516) can0 107#0000FE0F811671E8
(1565298845.261743) can0 0A7#17056184FC49983E
(1565298845.261951) can0 0A8#47D5BF519464F60B
(1565298845.262203) can0 32F#007F000000000000
(1565298845.265167) can0 0B2#0000000000000000
(1565298845.265377) can0 116#D20D05BECC6A105F
(1565298845.265610) can0 11E#5E0D000000000000
(1565298845.265913) can0 17F00013#20130000001E0000
(1565298845.266630) can0 086#BF0EC70000000000
(1565298845.267641) can0 09F#640E8400000480F0
(1565298845.269269) can0 48E#0000000000000000
(1565298845.269504) can0 497#0200830046570068
(1565298845.269991) can0 0AD#41E5BFFF00200010
(1565298845.270240) can0 0AE#A5050000FF00FD01
(1565298845.270849) can0 120#4D0300000004FF01
(1565298845.271097) can0 121#B803008037537EFE
(1565298845.271319) can0 0A7#2C062184FC45983E
(1565298845.271505) can0 0A8#07D6BF519464FE0B
(1565298845.271794) can0 670#15120000FE080080
(1565298845.272042) can0 147#00000000003C4000
(1565298845.272898) can0 391#4788265400250060
(1565298845.275229) can0 0B2#0000000000000000
(1565298845.275482) can0 0FD#B4EE3F8000000000
(1565298845.275738) can0 101#000E7FFE81040000
(1565298845.275915) can0 106#D98EA30400009320
(1565298845.276733) can0 086#DB0FC70000000000
(1565298845.277691) can0 32A#C90FC0014A020000
(1565298845.277877) can0 09F#000F8400000480F0
(1565298845.278145) can0 11D#460F00C87E200000
(1565298845.279967) can0 0AD#5FE6BFFF00200010
(1565298845.280183) can0 0AE#FE060000FF00FD01
(1565298845.280384) can0 12D#D243380000F87F82
(1565298845.280800) can0 12B#0B44402800000000
(1565298845.281629) can0 31E#E5E83F0000000000
(1565298845.281830) can0 107#0000FE0F811677E8
(1565298845.282107) can0 0A7#A5072184FC45983E
(1565298845.282302) can0 0A8#E0D7BF5194640E0C
(1565298845.282531) can0 0B1#0020000000000000
(1565298845.283894) can0 3C7#FD0000000040A000
(1565298845.285145) can0 0B2#0000000000000000
(1565298845.285399) can0 116#7E0E05BECC6A105F
(1565298845.285592) can0 11E#F20E000000000000
(1565298845.285902) can0 31B#A3060000005B1400
(1565298845.286199) can0 3C8#0000544000120098
(1565298845.286650) can0 086#9900C70000000000
(1565298845.287619) can0 09F#F7008400000580F0
(1565298845.288139) can0 17F00077#2077000000000000
(1565298845.288959) can0 3D5#A0C5400004000000
(1565298845.289250) can0 365#A5000C001300743C
(1565298845.289997) can0 0AD#00E7BFFF00200010
(1565298845.290230) can0 0AE#6C070000FF00FD01
(1565298845.290879) can0 120#1B0400000004FF01
(1565298845.291075) can0 040#5A8F0000800060B0
(1565298845.291316) can0 121#4204004037537EFE
(1565298845.291508) can0 0A7#FE086184FC45A83E
(1565298845.291824) can0 0A8#22D8BF5194641E0C
(1565298845.292043) can0 2C2#000000FC07000000
(1565298845.292311) can0 147#00000000003C4000
(1565298845.295253) can0 0B2#0000000000000000
(1565298845.295401) can0 0FD#23EF3F8000000000
(1565298845.295660) can0 101#640F7FFE81040000
(1565298845.295958) can0 106#BD8FA30400009320
(1565298845.296733) can0 086#FD01C70000000000
(1565298845.297622) can0 11D#040000C87E200000
(1565298845.297865) can0 09F#26018400000480F0
(1565298845.298797) can0 1B000076#7600080101000100
(1565298845.299083) can0 3D6#0B08000000000000
(1565298845.300025) can0 0AD#97E8BFFF00200010
(1565298845.300214) can0 0AE#1B080000FF00FD01
(1565298845.300421) can0 12D#2644380000F88382
(1565298845.301446) can0 107#0000FE0F81167EE8
(1565298845.301691) can0 297#E705000000000000
(1565298845.301968) can0 0A8#EBD9BF519464300C
(1565298845.302135) can0 0A7#2E096184FC45A83E
(1565298845.302343) can0 11B#0020000000000000
(1565298845.302649) can0 32C#000F000000250800
(1565298845.305178) can0 0B2#0000000000000000
(1565298845.305452) can0 116#1A0F05BECC6A105F
(1565298845.305627) can0 11E#960F000000000000
(1565298845.306695) can0 086#5102C70000000000
(1565298845.307654) can0 09F#8A028400000480F0
(1565298845.308947) can0 585#000C0A7F11000000
(1565298845.309244) can0 3E5#EB16000000000000
(1565298845.310003) can0 0AD#93E9BFFF00200010
(1565298845.310234) can0 0AE#F3090000FF00FD01
(1565298845.310786) can0 120#190500000004FF01
(1565298845.310982) can0 121#7505004037537EFE
(1565298845.311307) can0 0A7#B11AE183FC41A83E
(1565298845.311464) can0 0A8#FCDABF5194643C0C
(1565298845.311766) can0 15A#6105000001E60000
(1565298845.311982) can0 30B#102E000008000010
(1565298845.312243) can0 32F#007F000000000000
(1565298845.312444) can0 3FB#0000000000000040
(1565298845.312698) can0 147#00000000003C2000
(1565298845.312933) can0 1A55552F#00E087FFD63B0000
(1565298845.315226) can0 0B2#0000000000000000
(1565298845.315519) can0 0FD#59E03F8000000000
(1565298845.315707) can0 101#5C007FFE81030000
(1565298845.315957) can0 106#FF80A30400009320
(1565298845.316240) can0 3B5#80FE15020C001800
(1565298845.316608) can0 3DD#881C101800490A00
(1565298845.316866) can0 086#3503C70000000000
(1565298845.317147) can0 668#0200004900080028
(1565298845.317661) can0 11D#600100C87E200000
(1565298845.317899) can0 09F#EE038400000480F0
(1565298845.318157) can0 1B000012#1200080111000000
(1565298845.318897) can0 3C0#700D0300
(1565298845.319166) can0 5A0#0001802078
(1565298845.320001) can0 0AD#C2EABFFF00200010
(1565298845.320233) can0 0AE#8F0A0000FF00FD01
(1565298845.320462) can0 12D#3545380000F88982
(1565298845.320807) can0 12B#AE45402800000000
(1565298845.321219) can0 107#0000FE0F011784E8
(1565298845.321447) can0 3BE#1015E75188800C80
(1565298845.321678) can0 0A8#CFDBBF5194644C0C
(1565298845.321878) can0 0A7#D01BE183FC41983E
(1565298845.325202) can0 0B2#0000000000000000
(1565298845.325429) can0 116#580005BECC6A105F
(1565298845.325675) can0 11E#D400000000000000
(1565298845.326407) can0 570#FB00000000000000
(1565298845.326707) can0 086#2604C70000000000
(1565298845.327634) can0 32A#8B00C0014A020000
(1565298845.327867) can0 09F#48048400000580F0
(1565298845.329947) can0 0AD#77EBBFFF00200010
(1565298845.330186) can0 0AE#2D0B0000FF00FD01
(1565298845.330816) can0 120#F60600000004FF01
(1565298845.331070) can0 121#7206004037537EFE
(1565298845.331265) can0 0A7#CD0CE183FC41983E
(1565298845.331522) can0 0A8#2DDCBF5194645E0C
(1565298845.331710) can0 31E#DAE93F0000000000
(1565298845.332004) can0 147#0000000000382000
(1565298845.335207) can0 0B2#0000000000000000
(1565298845.335460) can0 0FD#53E13F8000000000
(1565298845.335701) can0 31B#43070000005B1400
(1565298845.335946) can0 101#8C017FFE81014000
(1565298845.336128) can0 106#9B81A30400009320
(1565298845.336675) can0 086#4205C70000000000
(1565298845.337564) can0 11D#CC0200C87E200000
(1565298845.337833) can0 09F#99058400000480F0
(1565298845.339193) can0 5F0#64E4640000640000
(1565298845.339411) can0 365#A5000C001300743C
(1565298845.339972) can0 0AD#1AECBFFF00200010
(1565298845.340199) can0 0AE#950C0000FF00FD01
(1565298845.340391) can0 12D#0746380000F89282
(1565298845.340804) can0 12B#B746402800000000
(1565298845.341040) can0 040#E5800000800060B2
(1565298845.341322) can0 107#0000FE0F01178AE8
(1565298845.341487) can0 0A7#3D0DE183FC41983E
(1565298845.341732) can0 0A8#31DDBF5194646E0C
(1565298845.345173) can0 0B2#0000000000000000
(1565298845.345381) can0 392#2904000000000004
(1565298845.345593) can0 11E#B001000000000000
(1565298845.345805) can0 116#3C0105BECC6A105F
(1565298845.346501) can0 3DB#500002000720019C
(1565298845.346717) can0 086#EE06C70000000000
(1565298845.347648) can0 09F#35068400000480F0
(1565298845.349178) can0 395#100620009BFE631C
(1565298845.349939) can0 0AD#6BEDBFFF00200010
(1565298845.350197) can0 0AE#F60D0000FF00FD01
(1565298845.350891) can0 120#F40700000004FF01
(1565298845.351171) can0 121#2107004037537EFE
(1565298845.351361) can0 0A7#800EE182FC31A83E
(1565298845.351590) can0 0A8#47DEBF519464780C
(1565298845.351848) can0 32C#000F000000250800
(1565298845.352071) can0 147#0000000000382000
(1565298845.355202) can0 0B2#0000000000000000
(1565298845.355461) can0 0FD#9CE23F8000000000
(1565298845.355764) can0 101#95027FFE81004000
(1565298845.355973) can0 106#A582A40400009320
(1565298845.356674) can0 086#8A07C70000000000
(1565298845.357621) can0 11D#A80300C87E200000
(1565298845.357810) can0 09F#51078400000480F0
(1565298845.359962) can0 0AD#B1EEBFFF00200010
(1565298845.360165) can0 0AE#CE0E0000FF00FD01
(1565298845.360453) can0 12D#3447380000F89982
(1565298845.361180) can0 107#0000FE0F011791E8
(1565298845.361374) can0 0A7#5E0FE182FC31A83E
(1565298845.361614) can0 0A8#E8DFBF919464860C
(1565298845.361870) can0 30B#102F000008000010
(1565298845.362170) can0 32F#007F000000000000
(1565298845.362362) can0 65E#0000B40100000000
(1565298845.365181) can0 0B2#0000000000000000
(1565298845.365433) can0 116#900205BECC6A105F
(1565298845.365644) can0 11E#1C02000000000000
(1565298845.366473) can0 3EC#E300000000000000
(1565298845.366726) can0 086#C808C70000000000
(1565298845.367633) can0 09F#13088400000480F0
(1565298845.369279) can0 48E#0000000000000000
(1565298845.369504) can0 497#0200830046570068
(1565298845.369968) can0 0AD#E0EFBFFF00200010
(1565298845.370133) can0 0AE#2C0F0000FF00FD01
(1565298845.371016) can0 120#AD0800000004FF01
(1565298845.371259) can0 121#E208004037537EFE
(1565298845.371524) can0 0A8#60D0BF919464960C
(1565298845.371753) can0 0A7#9700E182FC31A83E
(1565298845.371995) can0 147#0000000000302000
(1565298845.373694) can0 391#4788245400250060
(1565298845.375223) can0 0B2#0000000000000000
(1565298845.375469) can0 0FD#E9E33F8000000000
(1565298845.375701) can0 101#7A037FFE81070000
(1565298845.375888) can0 106#5383A30400009320
(1565298845.376185) can0 1B000013#1300080101000000
(1565298845.376675) can0 086#AC09C70000000000
(1565298845.377635) can0 32A#EF01C0014A020000
(1565298845.377855) can0 09F#77098400000480F0
(1565298845.378172) can0 11D#BB0400C87E200000
(1565298845.378398) can0 17F00012#2012000000000000
(1565298845.379955) can0 0AD#7DE0BFFF00200010
(1565298845.380193) can0 0AE#9B000000FF00FD01
(1565298845.380441) can0 12D#9848380000F8A382
(1565298845.380794) can0 12B#9247402800000000
(1565298845.381494) can0 31E#EEEA3F0000000000
(1565298845.381723) can0 107#0000FE0F011797E8
(1565298845.381982) can0 0A7#34012182FC31A83E
(1565298845.382200) can0 0A8#52D1BF9194649A0C
(1565298845.382452) can0 0B1#0020000000000000
(1565298845.383809) can0 3C7#2A0000000040A000
(1565298845.384175) can0 394#034A000100010000
(1565298845.385172) can0 0B2#0000000000000000
(1565298845.385399) can0 116#F40305BECC6A105F
(1565298845.385670) can0 11E#7803000000000000
(1565298845.385917) can0 31B#41080000005B1400
(1565298845.386163) can0 3C8#0000544000120098
(1565298845.386626) can0 086#000AC70000000000
(1565298845.387620) can0 09F#6E0A8400000580F0
(1565298845.388900) can0 3D5#3FC6400004000000
(1565298845.389179) can0 365#A5000C001100743C
(1565298845.389980) can0 0AD#B3E1BFFF00200010
(1565298845.390222) can0 0AE#74010000FF00FD01
(1565298845.390850) can0 120#FB0900000004FF01
(1565298845.391099) can0 040#A9810000800060B4
(1565298845.391331) can0 121#1D09004037537EFE
(1565298845.391584) can0 0A7#76E22082FC25A83E
(1565298845.391796) can0 0A8#86D2BF9194649E0C
(1565298845.391982) can0 3FB#0000000000000041
(1565298845.392231) can0 147#0000000000282000
(1565298845.395217) can0 0B2#0000000000000000
(1565298845.395445) can0 0FD#7FE43F8000000000
(1565298845.395678) can0 101#E2047FFE81004000
(1565298845.395907) can0 106#D284A40400009320
(1565298845.396660) can0 086#640BC70000000000
(1565298845.397624) can0 11D#DF0500C87E200000
(1565298845.397885) can0 09F#0A0B8400000580F0
(1565298845.399046) can0 3D6#0C08000000000000
(1565298845.400008) can0 0AD#57E2BFFF00200010
(1565298845.400205) can0 0AE#75020000FF00FD01
(1565298845.400397) can0 12D#7B49380000F8AE82
(1565298845.400759) can0 12B#4748402800000000
(1565298845.400982) can0 520#D40C0000000F0000
(1565298845.401234) can0 107#0000FE0F81179EE8
(1565298845.401487) can0 297#4D06000000000000
(1565298845.401739) can0 0A8#42D3BF919464A80C
(1565298845.401965) can0 0A7#F7E32082FC25A83E
(1565298845.402220) can0 11B#0020000000000000
(1565298845.402465) can0 32C#000F000000250800
(1565298845.402703) can0 545#0000000000000000
(1565298845.405149) can0 0B2#0000000000000000
(1565298845.405399) can0 1AB#B489842A00101100
(1565298845.405594) can0 11E#6B04000000000000
(1565298845.405882) can0 116#E70405BECC6A105F
(1565298845.406141) can0 1A2#540B000000000000
(1565298845.406624) can0 086#770CC70000000000
(1565298845.407632) can0 09F#AC0C8400000480F0
(1565298845.408882) can0 3E5#F717000000000000
(1565298845.409938) can0 0AD#D6E3BFFF00200010
(1565298845.410239) can0 0AE#50030000FF00FD01
(1565298845.411139) can0 120#200A00000004FF01
(1565298845.411427) can0 121#780A004037537EFE
(1565298845.411586) can0 0A7#CDE42082FC25A83E
(1565298845.411874) can0 0A8#E0D4DF919464B20C
(1565298845.412148) can0 15A#28060000018F0200
(1565298845.412381) can0 30B#1020000008000010
(1565298845.412569) can0 32F#007F000000000000
(1565298845.412821) can0 147#0000000000202000
(1565298845.413212) can0 6B4#0000000000394257
(1565298845.415274) can0 0B2#0000000000000000
(1565298845.415513) can0 0FD#E5E53F8000000000
(1565298845.415705) can0 101#87057FFE81030000
(1565298845.415960) can0 106#B685A40400009320
(1565298845.416227) can0 3B5#80FE15020C001800
(1565298845.416607) can0 086#130DC70000000000
(1565298845.416828) can0 3DD#881C101800490A00
(1565298845.417534) can0 11D#730600C87E200000
(1565298845.417861) can0 09F#7D0D8400000580F0
(1565298845.418900) can0 3C0#800E0300
(1565298845.419969) can0 0AD#74E4BFFF00200010
(1565298845.420170) can0 0AE#5E040000FF00FD01
(1565298845.420418) can0 12D#7E4A380000F8B482
(1565298845.421340) can0 107#0000FE0F8117A4E8
(1565298845.421523) can0 3BE#0D16E75188800C80
(1565298845.421808) can0 0A8#FAD5DF919464BA0C
(1565298845.421991) can0 0A7#6DE5E081FD1DA83E
(1565298845.425167) can0 0B2#0000000000000000
(1565298845.425393) can0 116#830505BECC6A105F
(1565298845.425648) can0 11E#0F05000000000000
(1565298845.426152) can0 1B000077#7700080101000000
(1565298845.426380) can0 1B000015#1500040201000000
(1565298845.426601) can0 086#BF0EC70000000000
(1565298845.426845) can0 3E8#0005000000000000
(1565298845.427531) can0 32A#4302C0014A020000
(1565298845.427840) can0 09F#640E8400000480F0
(1565298845.429953) can0 0AD#41E5BFFF00200010
(1565298845.430192) can0 0AE#A5050000FF00FD01
(1565298845.431170) can0 120#8C0B00000004FF01
(1565298845.431386) can0 121#D30B004037537EFE
(1565298845.431615) can0 0A7#37D6E081FD1DA83E
(1565298845.431869) can0 0A8#60D6DF919464C40C
(1565298845.432167) can0 31E#C8EB3F0000000000
(1565298845.432387) can0 147#00000000001C2000
(1565298845.435182) can0 0B2#0000000000000000
(1565298845.435399) can0 0FD#F7E63F8000000000
(1565298845.435680) can0 31B#C0090000005B1400
(1565298845.435944) can0 101#2B067FFE81030000
(1565298845.436175) can0 106#1A86A40400009320
(1565298845.436607) can0 086#DB0FC70000000000
(1565298845.437558) can0 11D#170700C87E200000
(1565298845.437839) can0 09F#B50F8400000580F0
(1565298845.439198) can0 365#A5000C001200743C
(1565298845.439951) can0 0AD#5FE6BFFF00200010
(1565298845.440217) can0 0AE#FE060000FF00FD01
(1565298845.440452) can0 12D#314B380000F8BA82
(1565298845.440786) can0 12B#4F49402800000000
(1565298845.441017) can0 040#55820000800060B8
(1565298845.441245) can0 0A7#BED7E081FD1DA83E
(1565298845.441527) can0 107#0000FE0F8117ABE8
(1565298845.441766) can0 0A8#19D7DF919464CE0C
(1565298845.445168) can0 0B2#0000000000000000
(1565298845.445410) can0 392#4D05000000000004
(1565298845.445647) can0 11E#A306000000000000
(1565298845.445875) can0 116#2F0605BECC6A105F
(1565298845.446410) can0 1B000010#1000040501000000
(1565298845.446637) can0 086#9900C70000000000
(1565298845.446881) can0 3DB#500002000720019C
(1565298845.447559) can0 09F#42008400000480F0
(1565298845.449154) can0 395#100720009BFE631C
(1565298845.449999) can0 0AD#00E7BFFF00200010
(1565298845.450249) can0 0AE#6C070000FF00FD01
(1565298845.450944) can0 120#560C00000004FF01
(1565298845.451167) can0 121#160C004037537EFE
(1565298845.451385) can0 0A7#F3D8E081FD1DA83E
(1565298845.451654) can0 0A8#FFD8DF919464D80C
(1565298845.451887) can0 32C#000F000000250800
(1565298845.452049) can0 147#0000000000180000
(1565298845.455331) can0 0B2#0000000000000000
(1565298845.455528) can0 0FD#CDE73F8000000000
(1565298845.455758) can0 101#70077FFE81060000
(1565298845.455928) can0 106#EC87A30400009320
(1565298845.456626) can0 086#FD01C70000000000
(1565298845.457617) can0 11D#550800C87E200000
(1565298845.457841) can0 09F#93018400000580F0
(1565298845.460018) can0 0AD#97E8BFFF00200010
(1565298845.460206) can0 0AE#1B080000FF00FD01
(1565298845.460421) can0 12D#914C380000F8C082
(1565298845.460807) can0 12B#5F4A402800000000
(1565298845.461333) can0 30B#1021000008000010
(1565298845.461487) can0 107#0000FE0F8117B2E8
(1565298845.461764) can0 0A7#B0D9A081FD19A83E
(1565298845.461926) can0 0A8#A9D9DF919464DE0C
(1565298845.462178) can0 32F#007F000000000000
(1565298845.465139) can0 0B2#0000000000000000
(1565298845.465365) can0 116#4B0705BECC6A105F
(1565298845.465616) can0 11E#C707000000000000
(1565298845.466574) can0 086#5102C70000000000
(1565298845.467662) can0 09F#8A028400000480F0
(1565298845.469339) can0 48E#0000000000000000
(1565298845.469516) can0 497#0200830046570068
(1565298845.469859) can0 54B#0000000000000024
(1565298845.470019) can0 0AD#93E9BFFF00200010
(1565298845.470290) can0 0AE#F3090000FF00FD01
(1565298845.470539) can0 17F0000A#000A000000000000
(1565298845.470870) can0 120#E60D00000004FF01
(1565298845.471083) can0 121#050D004037537EFE
(1565298845.471301) can0 0A7#14CAA081FD19A83E
(1565298845.471602) can0 0A8#95DADF919464E40C
(1565298845.471887) can0 3FB#0000000000000042
(1565298845.472068) can0 147#0000000000140000
(1565298845.472940) can0 65F#0020000000002C7D
(1565298845.473281) can0 56F#0000D8057DFC0000
(1565298845.473431) can0 391#4788245300250060
(1565298845.475230) can0 0B2#0000000000000000
(1565298845.475452) can0 0FD#0AE83F8000000000
(1565298845.475679) can0 101#77087FFE81040000
(1565298845.475933) can0 106#3C88A40400009320
(1565298845.476688) can0 086#3503C70000000000
(1565298845.477639) can0 32A#2703C0014A020000
(1565298845.477782) can0 09F#5B038400000580F0
(1565298845.478118) can0 11D#310900C87E200000
(1565298845.480015) can0 0AD#C2EABFFF00200010
(1565298845.480204) can0 0AE#8F0A0000FF00FD01
(1565298845.480416) can0 12D#D74D380000F8C782
(1565298845.481483) can0 31E#6BEC3F0000000000
(1565298845.481690) can0 107#0000FE0F8117B8E8
(1565298845.481944) can0 0A7#7ACBA081FD19A83E
(1565298845.482135) can0 0A8#34DBDF919464EE0C
(1565298845.482388) can0 0B1#0020000000000000
(1565298845.484104) can0 3C7#FD0000000040A000
(1565298845.485210) can0 0B2#0000000000000000
(1565298845.485373) can0 116#090805BECC6A105F
(1565298845.485618) can0 11E#8508000000000000
(1565298845.485870) can0 31B#9A0A0000005B1400
(1565298845.486169) can0 3C8#0000544000120098
(1565298845.486603) can0 086#2604C70000000000
(1565298845.487572) can0 09F#FD048400000480F0
(1565298845.488958) can0 3D5#24C7400004000000
(1565298845.489179) can0 365#A5000C001100743C
(1565298845.489986) can0 0AD#77EBBFFF00200010
(1565298845.490249) can0 0AE#2D0B0000FF00FD01
(1565298845.490795) can0 040#CC830000800060BA
(1565298845.491100) can0 120#8D0E00000004FF01
(1565298845.491330) can0 121#960E004037537EFE
(1565298845.491563) can0 0A7#EECC6081FD19A83E
(1565298845.491753) can0 0A8#82DCDF919464F20C
(1565298845.492000) can0 147#0000000000100000
(1565298845.495183) can0 0B2#0000000000000000
(1565298845.495434) can0 0FD#38E93F8000000000
(1565298845.495708) can0 101#13097FFE81040000
(1565298845.495933) can0 106#CA89A30400009320
(1565298845.496668) can0 086#4205C70000000000
(1565298845.497596) can0 11D#9D0A00C87E200000
(1565298845.497843) can0 09F#2C058400000580F0
(1565298845.498648) can0 1B000076#7600080101000100
(1565298845.498982) can0 3D6#0D08000000000000
(1565298845.499962) can0 0AD#1AECBFFF00200010
(1565298845.500243) can0 0AE#950C0000FF00FD01
(1565298845.500451) can0 12D#AF4E380000F8CB82
(1565298845.500832) can0 12B#FA4B402800000000
(1565298845.501859) can0 107#0000FE0F8117BFE8
(1565298845.502180) can0 297#9707000000000000
(1565298845.502329) can0 0A8#A9DDDF919464F60C
(1565298845.502582) can0 0A7#1ECD6081FD19A83E
(1565298845.502806) can0 11B#0020000000000000
(1565298845.503036) can0 32C#000F000000250800
(1565298845.505187) can0 0B2#0000000000000000
(1565298845.505410) can0 116#6D0905BECC6A105F
(1565298845.505654) can0 11E#E109000000000000
(1565298845.506535) can0 086#EE06C70000000000
(1565298845.507601) can0 09F#35068400000480F0
(1565298845.508900) can0 3E5#5A18000000000000
(1565298845.509980) can0 0AD#6BEDBFFF00200010
(1565298845.510214) can0 0AE#F60D0000FF00FD01
(1565298845.510824) can0 120#580F00000004FF01
(1565298845.511054) can0 121#670F008037537EFE
(1565298845.511303) can0 0A7#28AE6081FD19A83E
(1565298845.511525) can0 0A8#6EDEDFD19464FA0C
(1565298845.511776) can0 15A#19070000018F0200
(1565298845.512001) can0 30B#1022000008000010
(1565298845.512186) can0 32F#007F000000000000
(1565298845.512439) can0 147#0000000000100000
(1565298845.515210) can0 0B2#0000000000000000
(1565298845.515465) can0 0FD#74EA3F8000000000
(1565298845.515750) can0 101#FA0A7FFE81060000
(1565298845.515963) can0 106#668AA30400009320
(1565298845.516193) can0 3B5#80FE15020C001800
(1565298845.516589) can0 3DD#881C101800490A00
(1565298845.516837) can0 086#8A07C70000000000
(1565298845.517178) can0 668#0200004900080028
(1565298845.517566) can0 11D#F90B00C87E200000
(1565298845.517825) can0 09F#E4078400000580F0
(1565298845.518142) can0 1B000012#1200080111000000
(1565298845.518883) can0 3C0#350F0300
(1565298845.519171) can0 5A0#0001802078
(1565298845.520004) can0 0AD#B1EEBFFF00200010
(1565298845.520231) can0 0AE#CE0E0000FF00FD01
(1565298845.520481) can0 12D#604F380000F8CF82
(1565298845.520801) can0 12B#BF4C402800000000
(1565298845.521447) can0 107#0000FE0F8117C6E8
(1565298845.521671) can0 3BE#8117E75188800C80
(1565298845.521937) can0 0A8#4BDFDFD19464020D
(1565298845.522172) can0 0A7#F6AF6081FD19A83E
(1565298845.523837) can0 676#0000000004160000
(1565298845.525163) can0 0B2#0000000000000000
(1565298845.525423) can0 116#C10A05BECC6A105F
(1565298845.525669) can0 11E#4D0A000000000000
(1565298845.526429) can0 385#0002020000000200
(1565298845.526695) can0 086#C808C70000000000
(1565298845.527580) can0 32A#3404C0014A020000
(1565298845.527832) can0 09F#13088400000480F0
(1565298845.529954) can0 0AD#E0EFBFFF00200010
(1565298845.530202) can0 0AE#2C0F0000FF00FD01
(1565298845.530868) can0 120#920000000004FF01
(1565298845.531076) can0 121#A900008037537EFE
(1565298845.531329) can0 0A7#2CB06081FD15A83E
(1565298845.531566) can0 0A8#53D0DFD194640A0D
(1565298845.531798) can0 31E#C2ED3F0000000000
(1565298845.532042) can0 147#00000000000C0000
(1565298845.535163) can0 0B2#0000000000000000
(1565298845.535387) can0 0FD#5BEB3F8000000000
(1565298845.535643) can0 31B#550B0000005B1400
(1565298845.535928) can0 101#F50B7FFF81030000
(1565298845.536175) can0 106#028BA30400009320
(1565298845.536624) can0 086#AC09C70000000000
(1565298845.537576) can0 11D#EA0C00C87E200000
(1565298845.537842) can0 09F#C2098400000580F0
(1565298845.539023) can0 5F0#64E4640000640000
(1565298845.539273) can0 365#A5000C001200743C
(1565298845.539977) can0 0AD#7DE0BFFF00200010
(1565298845.540216) can0 0AE#9B000000FF00FD01
(1565298845.540441) can0 12D#4640380000F8D482
(1565298845.540837) can0 040#F7840000800060BC
(1565298845.541273) can0 107#0000FE0F8117CDE8
(1565298845.541521) can0 0A7#A4B16081FD15A83E
(1565298845.541721) can0 0A8#A5D1DFD19464100D
(1565298845.544034) can0 394#694B000100010000
(1565298845.545173) can0 0B2#0000000000000000
(1565298845.545387) can0 392#E106000000000004
(1565298845.545623) can0 11E#290B000000000000
(1565298845.545810) can0 116#A50B05BECC6A105F
(1565298845.546473) can0 3DB#500002000720019C
(1565298845.546726) can0 086#000AC70000000000
(1565298845.547573) can0 09F#6E0A8400000580F0
(1565298845.549138) can0 395#100820009BFE631C
(1565298845.549906) can0 0AD#B3E1BFFF00200010
(1565298845.550197) can0 0AE#74010000FF00FD01
(1565298845.550928) can0 120#670100000004FF01
(1565298845.551187) can0 121#C501008037537EFE
(1565298845.551403) can0 0A7#BB926081FD15A83E
(1565298845.551641) can0 0A8#39D2DFD19464180D
(1565298845.551883) can0 32C#000F000000250800
(1565298845.552176) can0 147#00000000000C0000
(1565298845.552381) can0 3FB#0000000000000043
(1565298845.555314) can0 0B2#0000000000000000
(1565298845.555492) can0 0FD#C2EC3F8000000000
(1565298845.555744) can0 101#380C7FFE81070000
(1565298845.555944) can0 106#118CA30400009320
(1565298845.556629) can0 086#640BC70000000000
(1565298845.557572) can0 11D#8E0D00C87E200000
(1565298845.557786) can0 09F#BF0B8400000480F0
(1565298845.559953) can0 0AD#57E2BFFF00200010
(1565298845.560206) can0 0AE#67020000FF00FE01
(1565298845.560444) can0 12D#0D41380000F8D682
(1565298845.560800) can0 12B#EB4D402800000000
(1565298845.561258) can0 30B#1023000008000010
(1565298845.561482) can0 0A7#23932081FD15A83E
(1565298845.561689) can0 107#0000FE0F8117D4E8
(1565298845.561890) can0 0A8#EED3DFD194641C0D
(1565298845.562197) can0 32F#007F000000000000
(1565298845.565177) can0 0B2#0000000000000000
(1565298845.565403) can0 116#B60C05BECC6A105F
(1565298845.565624) can0 11E#3A0C000000000000
(1565298845.566479) can0 3EC#E300000000000000
(1565298845.566705) can0 086#770CC70000000000
(1565298845.567579) can0 09F#190C8400000580F0
(1565298845.569332) can0 48E#0000000000000000
(1565298845.569592) can0 497#0200830046570068
(1565298845.569965) can0 0AD#D6E3BFFF00200010
(1565298845.570209) can0 0AE#42030000FF00FE01
(1565298845.570866) can0 120#9F0200000004FF01
(1565298845.571093) can0 121#770200C037537EFE
(1565298845.571341) can0 0A7#BB842081FD15A83E
(1565298845.571562) can0 0A8#42D4DFD194641C0D
(1565298845.571737) can0 147#0000000000080000
(1565298845.573641) can0 640#009194C180200810
(1565298845.573971) can0 17F00076#2076000000000000
(1565298845.574174) can0 647#B8F3FF7F00000018
(1565298845.574362) can0 391#4388224F00250060
(1565298845.575176) can0 0B2#0000000000000000
(1565298845.575446) can0 0FD#4BED3F8000000000
(1565298845.575710) can0 101#AC0D7FFE81040000
(1565298845.575925) can0 106#758DA30400009320
(1565298845.576201) can0 1B000013#1300080101000000
(1565298845.576564) can0 086#130DC70000000000
(1565298845.577491) can0 32A#5005C0014A020000
(1565298845.577758) can0 09F#7D0D8400000580F0
(1565298845.578062) can0 11D#220E00C87E200000
(1565298845.579949) can0 0AD#74E4BFFF00200010
(1565298845.580219) can0 0AE#4C040000FF00FE01
(1565298845.580428) can0 12D#1F42380000F8D682
(1565298845.580813) can0 12B#A44E402800000000
(1565298845.581178) can0 17F00015#0015000000000000
(1565298845.581338) can0 107#0000FE0F8117DAE8
(1565298845.581585) can0 0A7#C0852081FD15A83E
(1565298845.581744) can0 0A8#34D5DFD194641E0D
(1565298845.582088) can0 31E#B7EE3F0000000000
(1565298845.582301) can0 0B1#0020000000000000
(1565298845.583693) can0 3C7#2A0000000040A000
(1565298845.584029) can0 58C#A65B000000000000
(1565298845.585207) can0 0B2#0000000000000000
(1565298845.585432) can0 116#D20D05BECC6A105F
(1565298845.585679) can0 11E#5E0D000000000000
(1565298845.585939) can0 31B#6C0C0000005B1400
(1565298845.586187) can0 3C8#0000544000120098
(1565298845.586584) can0 086#BF0EC70000000000
(1565298845.587582) can0 09F#640E8400000480F0
(1565298845.588957) can0 3D5#21C8400004000000
(1565298845.589196) can0 365#A5000C001000743C
(1565298845.589961) can0 0AD#41E5BFFF00200010
(1565298845.590243) can0 0AE#B7050000FF00FE01
(1565298845.590896) can0 040#6E850000800060BE
(1565298845.591178) can0 041#7B01000000000000
(1565298845.591361) can0 0A8#04D6DFD194641E0D
(1565298845.591596) can0 0A7#53862081FD15A83E
(1565298845.591841) can0 120#4D0300000004FF01
(1565298845.592068) can0 121#850300C037537EFE
(1565298845.592312) can0 147#0000000000080000
(1565298845.595249) can0 0B2#0000000000000000
(1565298845.595473) can0 0FD#B4EE3F8000000000
(1565298845.595690) can0 101#F00E7FFE81070000
(1565298845.595931) can0 106#458EA40400009220
(1565298845.596615) can0 086#DB0FC70000000000
(1565298845.597546) can0 11D#460F00C87E200000
(1565298845.597792) can0 09F#B50F8400000580F0
(1565298845.599004) can0 3D6#0E08000000000000
(1565298845.599952) can0 0AD#5FE6BFFF00200010
(1565298845.600155) can0 0AE#EC060000FF00FE01
(1565298845.600359) can0 12D#C843380000F8DB82
(1565298845.600755) can0 520#B00D0000000F0000
(1565298845.601003) can0 545#0000000000000000
(1565298845.601297) can0 107#0000FE0F0117E1E8
(1565298845.601576) can0 297#3F08000000000000
(1565298845.601802) can0 0A8#3AD7DFD19464280D
(1565298845.602022) can0 0A7#2F87E080FD11A83E
(1565298845.602271) can0 11B#0020000000000000
(1565298845.602536) can0 32C#000F000000250800
(1565298845.602788) can0 557#0000000000000000
(1565298845.605126) can0 0B2#0000000000000000
(1565298845.605444) can0 1AB#598A842A00101100
(1565298845.605612) can0 11E#F20E000000000000
(1565298845.605866) can0 116#7E0E05BECC6A105F
(1565298845.606239) can0 1A2#FE0C000000000000
(1565298845.606549) can0 086#9900C70000000000
(1565298845.607570) can0 09F#F7008400000580F0
(1565298845.608932) can0 3E5#B719000000000000
(1565298845.609952) can0 0AD#00E7BFFF00200010
(1565298845.610173) can0 0AE#7E070000FF00FE01
(1565298845.611089) can0 120#1B0400000004FF01
(1565298845.611327) can0 121#380400C037537EFE
(1565298845.611563) can0 0A7#6288E080FD11A83E
(1565298845.611786) can0 0A8#3CD8DFD194642E0D
(1565298845.612020) can0 15A#7508000001E60000
(1565298845.612272) can0 30B#1024000008000010
(1565298845.612497) can0 32F#007F000000000000
(1565298845.612721) can0 147#0000000000080000
(1565298845.612944) can0 6B4#01424A364246584C
(1565298845.615265) can0 0B2#0000000000000000
(1565298845.615487) can0 0FD#23EF3F8000000000
(1565298845.615756) can0 101#210F7FFE81060000
(1565298845.615985) can0 106#B38FA30400009220
(1565298845.616258) can0 3B5#80FE15020C001800
(1565298845.616527) can0 3DD#881C101800490A00
(1565298845.616813) can0 086#FD01C70000000000
(1565298845.617574) can0 11D#040000C87E200000
(1565298845.617769) can0 09F#93018400000580F0
(1565298845.619010) can0 3C0#74000300
(1565298845.619917) can0 0AD#97E8BFFF00200010
(1565298845.620128) can0 0AE#09080000FF00FE01
(1565298845.620405) can0 12D#4744380000F8DB82
(1565298845.620779) can0 12B#8E4F402800000000
(1565298845.621316) can0 107#0000FE0F0117E8E8
(1565298845.621541) can0 3BE#7B18E75188800C80
(1565298845.621757) can0 0A8#DED9DFD19464360D
(1565298845.622068) can0 0A7#B289E080FD11A83E
(1565298845.625162) can0 0B2#0000000000000000
(1565298845.625395) can0 116#1A0F05BECC6A105F
(1565298845.625685) can0 11E#960F000000000000
(1565298845.626148) can0 1B000077#7700080101000000
(1565298845.626381) can0 1B000015#1500040201000000
(1565298845.626607) can0 086#5102C70000000000
(1565298845.627514) can0 32A#FC06C0014A020000
(1565298845.627735) can0 09F#3F028400000580F0
(1565298845.629914) can0 0AD#93E9BFFF00200010
(1565298845.630208) can0 0AE#E1090000FF00FE01
(1565298845.630863) can0 120#190500000004FF01
(1565298845.631101) can0 121#0F0500C037537EFE
(1565298845.631316) can0 0A7#B48AE080FD11A83E
(1565298845.631541) can0 0A8#EDDADFD194643C0D
(1565298845.631775) can0 31E#5EEF3F0000000000
(1565298845.632053) can0 147#0000000000040000
(1565298845.632276) can0 3FB#0000000000000044
(1565298845.635174) can0 0B2#0000000000000000
(1565298845.635511) can0 0FD#59E03F8000000000
(1565298845.635732) can0 31B#670D0000005B1400
(1565298845.636030) can0 101#26007FFE81040000
(1565298845.636192) can0 106#F180A30400009220
(1565298845.636633) can0 086#3503C70000000000
(1565298845.637494) can0 11D#600100C87E200000
(1565298845.637810) can0 09F#EE038400000480F0
(1565298845.639176) can0 365#A5000C001100743C
(1565298845.639904) can0 0AD#C2EABFFF00200010
(1565298845.640200) can0 0AE#9D0A0000FF00FE01
(1565298845.640391) can0 12D#1C45380000F8DD82
(1565298845.640823) can0 12B#0540402800000000
(1565298845.641066) can0 040#69860000800060C2
(1565298845.641303) can0 0A7#DA8BE080FD11A83E
(1565298845.641458) can0 107#0000FE0F0117EEE8
(1565298845.641763) can0 0A8#20DBDFD194643C0D
(1565298845.645181) can0 0B2#0000000000000000
(1565298845.645450) can0 392#8507000000000004
(1565298845.645594) can0 11E#D400000000000000
(1565298845.645842) can0 116#580005BECC6A105F
(1565298845.646410) can0 1B000010#1000040501000000
(1565298845.646641) can0 086#2604C70000000000
(1565298845.646908) can0 3DB#500002000720019C
(1565298845.647550) can0 09F#48048400000580F0
(1565298845.649139) can0 395#100920009BFE631C
(1565298845.649970) can0 0AD#77EBBFFF00200010
(1565298845.650180) can0 0AE#3F0B0000FF00FE01
(1565298845.650547) can0 120#F60600000004FF01
(1565298845.650756) can0 121#080600C037537EFE
(1565298845.651001) can0 0A8#3EDCDFD194643C0D
(1565298845.651233) can0 0A7#3E7CE080FD0DA83E
(1565298845.651480) can0 147#0000000000040000
(1565298845.651675) can0 32C#000F000000250800
(1565298845.655212) can0 0B2#0000000000000000
(1565298845.655488) can0 0FD#53E13F8000000000
(1565298845.655689) can0 101#39017FFE81004000
(1565298845.655988) can0 106#0781A40400009220
(1565298845.656570) can0 086#4205C70000000000
(1565298845.657555) can0 11D#CC0200C87E200000
(1565298845.657827) can0 09F#99058400000480F0
(1565298845.659966) can0 0AD#1AECBFFF00200010
(1565298845.660194) can0 0AE#890C0000FF00FF01
(1565298845.660360) can0 12D#F946380000F8E282
(1565298845.661258) can0 30B#1025000008000010
(1565298845.661694) can0 107#0000FE0F0117F5E8
(1565298845.661931) can0 0A7#097DE080FD11A83E
(1565298845.662156) can0 0A8#31DDDFD194643E0D
(1565298845.662436) can0 32F#007F000000000000
(1565298845.665183) can0 0B2#0000000000000000
(1565298845.665436) can0 116#3C0105BECC6A105F
(1565298845.665671) can0 11E#B001000000000000
(1565298845.666518) can0 086#EE06C70000000000
(1565298845.667559) can0 09F#80068400000580F0
(1565298845.669329) can0 48E#0000000000000000
(1565298845.669595) can0 497#0200830046570068
(1565298845.669930) can0 0AD#6BEDBFFF00200010
(1565298845.670200) can0 0AE#EA0D0000FF00FF01
(1565298845.670826) can0 120#F40700000004FF01
(1565298845.671055) can0 121#5B0700C037537EFE
(1565298845.671285) can0 0A7#5C7EA080FD0DA83E
(1565298845.671530) can0 0A8#35DEDFD19464420D
(1565298845.671774) can0 147#0000000000040000
(1565298845.672646) can0 391#4188224C00250060
(1565298845.675224) can0 0B2#0000000000000000
(1565298845.675477) can0 0FD#9CE23F8000000000
(1565298845.675665) can0 101#D1027FFE81010000
(1565298845.675907) can0 106#3982A30400009220
(1565298845.676613) can0 086#8A07C70000000000
(1565298845.677555) can0 32A#9807C0014A020000
(1565298845.677791) can0 09F#E4078400000580F0
(1565298845.678037) can0 11D#A80300C87E200000
(1565298845.679921) can0 0AD#B1EEBFFF00200010
(1565298845.680202) can0 0AE#D20E0000FF00FF01
(1565298845.680404) can0 12D#A647380000F8E382
(1565298845.680810) can0 12B#7741402800000000
(1565298845.681657) can0 31E#CDE03F0000000000
(1565298845.681855) can0 107#0000FE0F0117FCE8
(1565298845.682111) can0 0A7#827FA080FD0DA83E
(1565298845.682357) can0 0A8#82DFDFD19464460D
(1565298845.682584) can0 0B1#0020000000000000
(1565298845.684164) can0 3C7#FD0000000040A000
(1565298845.685221) can0 0B2#0000000000000000
(1565298845.685345) can0 116#900205BECC6A105F
(1565298845.685652) can0 11E#1C02000000000000
(1565298845.685909) can0 31B#220E0000005B1400
(1565298845.686145) can0 3C8#0000544000120098
(1565298845.686551) can0 086#C808C70000000000
(1565298845.687584) can0 09F#A6088400000580F0
(1565298845.688854) can0 3D5#1FC9400004000000
(1565298845.689176) can0 365#A5000C001100743C
(1565298845.689959) can0 0AD#E0EFBFFF00200010
(1565298845.690206) can0 0AE#300F0000FF00FF01
(1565298845.690796) can0 040#25870000800060C4
(1565298845.691076) can0 120#AD0800000004FF01
(1565298845.691300) can0 121#980800C037537EFE
(1565298845.691548) can0 0A7#E960A080FD0DA83E
(1565298845.691738) can0 0A8#BED0DFD19464480D
(1565298845.691982) can0 147#0000000000000000
(1565298845.695223) can0 0B2#0000000000000000
(1565298845.695483) can0 0FD#E9E33F8000000000
(1565298845.695702) can0 101#01037FFE81034000
(1565298845.695953) can0 106#5D83A30400009220
(1565298845.696605) can0 086#AC09C70000000000
(1565298845.697554) can0 11D#BB0400C87E200000
(1565298845.697770) can0 09F#77098400000480F0
(1565298845.698661) can0 1B000076#7600080101000100
(1565298845.699005) can0 3D6#0F08000000000000
(1565298845.699980) can0 0AD#7DE0BFFF00200010
(1565298845.700230) can0 0AE#87000000FF00FF01
(1565298845.700455) can0 12D#6948380000F8E382
(1565298845.700792) can0 12B#D342402800000000
(1565298845.701361) can0 107#0000FE0F811602E9
(1565298845.701582) can0 297#7209000000000000
(1565298845.701835) can0 0A8#FCD1DFD194644C0D
(1565298845.702058) can0 0A7#6161A080FD0DA83E
(1565298845.702306) can0 11B#0020000000000000
(1565298845.702488) can0 32C#000F000000250800
(1565298845.704095) can0 394#0C4C000100010000
(1565298845.705180) can0 0B2#0000000000000000
(1565298845.705400) can0 116#F40305BECC6A105F
(1565298845.705619) can0 11E#7803000000000000
(1565298845.706550) can0 086#000AC70000000000
(1565298845.707533) can0 09F#DB0A8400000480F0
(1565298845.709058) can0 3E5#2F1A000000000000
(1565298845.709954) can0 0AD#B3E1BFFF00200010
(1565298845.710226) can0 0AE#68010000FF00FF01
(1565298845.710872) can0 120#FB0900000004FF01
(1565298845.711191) can0 121#E909000038537EFE
(1565298845.711333) can0 0A7#1562A080FD0DA83E
(1565298845.711563) can0 0A8#28D2DFD19464480D
(1565298845.711784) can0 15A#9509000001E60000
(1565298845.712044) can0 30B#1026000008000010
(1565298845.712280) can0 32F#007F000000000000
(1565298845.712537) can0 3FB#0000000000000060
(1565298845.712785) can0 147#0000000000000000
(1565298845.715224) can0 0B2#0000000000000000
(1565298845.715482) can0 0FD#7FE43F8000000000
(1565298845.715690) can0 101#E2047FFE81004000
(1565298845.716008) can0 106#4E84A30400009220
(1565298845.716223) can0 3B5#80FE15020C001800
(1565298845.716582) can0 086#640BC70000000000
(1565298845.716833) can0 3DD#881C101800490A00
(1565298845.717062) can0 668#0200004900080028
(1565298845.717534) can0 11D#DF0500C87E200000
(1565298845.717782) can0 09F#0A0B8400000580F0
(1565298845.718088) can0 1B000012#1200080111000000
(1565298845.718954) can0 3C0#C1010300
(1565298845.719172) can0 5A0#0001802078
(1565298845.719977) can0 0AD#57E2BFFF00200010
(1565298845.720199) can0 0AE#69020000FF00FF01
(1565298845.720451) can0 12D#CC49380000F8E382
(1565298845.721101) can0 107#0000FE0F811609E9
(1565298845.721327) can0 3BE#5819E75188800C80
(1565298845.721570) can0 0A8#93D3DFD19464460D
(1565298845.721798) can0 0A7#9463A080FD0DA83E
(1565298845.725204) can0 0B2#0000000000000000
(1565298845.725471) can0 116#E70405BECC6A105F
(1565298845.725683) can0 11E#6B04000000000000
(1565298845.726548) can0 086#770CC70000000000
(1565298845.727492) can0 32A#DA08C0014A020000
(1565298845.727733) can0 09F#190C8400000580F0
(1565298845.729943) can0 0AD#D6E3BFFF00200010
(1565298845.730164) can0 0AE#4C030000FF00FF01
(1565298845.730722) can0 120#200A00000004FF01
(1565298845.730971) can0 121#8C0A000038537EFE
(1565298845.731198) can0 31E#07E13F0000000000
(1565298845.731453) can0 0A8#23D4DFD19464440D
(1565298845.731641) can0 0A7#6754A080FD0DA83E
(1565298845.731932) can0 147#0000000000000000
(1565298845.735266) can0 0B2#0000000000000000
(1565298845.735453) can0 0FD#E5E53F8000000000
(1565298845.735725) can0 31B#E60F0000005B1400
(1565298845.735986) can0 101#33057FFE81014000
(1565298845.736200) can0 106#2A85A30400009220
(1565298845.736604) can0 086#130DC70000000000
(1565298845.737530) can0 11D#730600C87E200000
(1565298845.737788) can0 09F#7D0D8400000580F0
(1565298845.738972) can0 5F0#64E4640000640000
(1565298845.739253) can0 365#A5000C001100743C
(1565298845.739977) can0 0AD#74E4BFFF00200010
(1565298845.740207) can0 0AE#42040000FF00FF01
(1565298845.740439) can0 12D#614A380000F8E582
(1565298845.740811) can0 12B#8B43402800000000
(1565298845.741067) can0 040#9A880000800060C6
(1565298845.741290) can0 0A7#0555E080FD0DA83E
(1565298845.741531) can0 107#0000FE0F81160FE9
(1565298845.741689) can0 0A8#6DD5DFD19464420D
(1565298845.744265) can0 17332610#398E10
(1565298845.745212) can0 0B2#0000000000000000
(1565298845.745476) can0 392#C708000000000004
(1565298845.745725) can0 11E#0F05000000000000
(1565298845.745886) can0 116#830505BECC6A105F
(1565298845.746432) can0 3DB#500002000720019C
(1565298845.746731) can0 086#BF0EC70000000000
(1565298845.747498) can0 09F#D10E8400000580F0
(1565298845.749143) can0 395#100A20009BFE631C
(1565298845.749948) can0 0AD#41E5BFFF00200010
(1565298845.750203) can0 0AE#B9050000FF00FF01
(1565298845.751033) can0 120#8C0B00000004FF01
(1565298845.751288) can0 121#270B000038537EFE
(1565298845.751534) can0 0A7#9656E080FD0DA83E
(1565298845.751730) can0 0A8#EBD6DFD194643E0D
(1565298845.751987) can0 32C#000F000000250800
(1565298845.752231) can0 147#0000000000000000
(1565298845.755246) can0 0B2#0000000000000000
(1565298845.755467) can0 0FD#F7E63F8000000000
(1565298845.755782) can0 101#14067FFE81060000
(1565298845.755997) can0 106#8686A30400009220
(1565298845.756172) can0 64A#00000000
(1565298845.756592) can0 086#DB0FC70000000000
(1565298845.757528) can0 11D#170700C87E200000
(1565298845.757770) can0 09F#B50F8400000580F0
(1565298845.759975) can0 0AD#5FE6BFFF00200010
(1565298845.760224) can0 0AE#E2060000FF00FF01
(1565298845.760425) can0 12D#7A4B380000F8E582
(1565298845.760786) can0 12B#0B44402800000000
(1565298845.761055) can0 107#0000FE0F811616E9
(1565298845.761281) can0 0A7#1F57E080FD0DA83E
(1565298845.761527) can0 0A8#FED7DFD194643E0D
(1565298845.761772) can0 30B#1027000008000010
(1565298845.762018) can0 32F#007F000000000000
(1565298845.764336) can0 17330710#31CF00
(1565298845.764530) can0 17330A10#32840A
(1565298845.765246) can0 0B2#0000000000000000
(1565298845.765489) can0 116#2F0605BECC6A105F
(1565298845.765641) can0 11E#A306000000000000
(1565298845.765942) can0 17F00013#20130000001E0000
(1565298845.766471) can0 3EC#E300000000000000
(1565298845.766761) can0 086#9900C70000000000
(1565298845.767534) can0 09F#F7008400000580F0
(1565298845.769395) can0 48E#0000000000000000
(1565298845.769656) can0 497#0200830046570068
(1565298845.769918) can0 0AD#00E7BFFF00200010
(1565298845.770219) can0 0AE#70070000FF00FF01
(1565298845.770540) can0 120#560C00000004FF01
(1565298845.770761) can0 121#E20C000038537EFE
(1565298845.771006) can0 0A8#DCD8DFD194643E0D
(1565298845.771236) can0 0A7#5258E080FD0DA83E
(1565298845.771452) can0 670#15120000FE080080
(1565298845.771646) can0 147#0000000000000000
(1565298845.772580) can0 391#3F88224900250060
(1565298845.775259) can0 0B2#0000000000000000
(1565298845.775421) can0 0FD#CDE73F8000000000
(1565298845.775719) can0 101#70077FFE81060000
(1565298845.775976) can0 106#E287A30400009220
(1565298845.776264) can0 1B000013#1300080101000000
(1565298845.776599) can0 086#FD01C70000000000
(1565298845.777499) can0 32A#BE09C0014A020000
(1565298845.777765) can0 09F#93018400000580F0
(1565298845.777976) can0 11D#550800C87E200000
(1565298845.779958) can0 0AD#97E8BFFF00200010
(1565298845.780201) can0 0AE#07080000FF00FF01
(1565298845.780383) can0 12D#484C380000F8E582
(1565298845.780958) can0 31E#BDE23F0000000000
(1565298845.781173) can0 107#0000FE0F01161CE9
(1565298845.781425) can0 0A7#9B59A080FD0DA83E
(1565298845.781590) can0 0A8#04D9DFD19464400D
(1565298845.782114) can0 0B1#0020000000000000
(1565298845.783748) can0 3C7#2A0000000040A000
(1565298845.785194) can0 0B2#0000000000000000
(1565298845.785391) can0 116#4B0705BECC6A105F
(1565298845.785667) can0 11E#C707000000000000
(1565298845.785944) can0 31B#EB000000005B1400
(1565298845.786190) can0 3C8#0000544000120098
(1565298845.786542) can0 086#5102C70000000000
(1565298845.787532) can0 09F#3F028400000580F0
(1565298845.788092) can0 17F00077#2077000000000000
(1565298845.788966) can0 3D5#2CCA400004000000
(1565298845.789233) can0 365#A5000C001000743C
(1565298845.789983) can0 0AD#93E9BFFF00200010
(1565298845.790210) can0 0AE#EF090000FF00FF01
(1565298845.790434) can0 120#E60D00000004FF01
(1565298845.790649) can0 121#F10D000038537EFE
(1565298845.790895) can0 040#53890000800060C8
(1565298845.791143) can0 0A7#9D5AA080FD0DA83E
(1565298845.791355) can0 0A8#47DADFD19464420D
(1565298845.791562) can0 2C2#000000FC07000000
(1565298845.791883) can0 147#0000000000000000
(1565298845.792133) can0 3FB#0000000000000061
(1565298845.795267) can0 0B2#0000000000000000
(1565298845.795515) can0 0FD#0AE83F8000000000
(1565298845.795741) can0 101#87087FFE81070000
(1565298845.795997) can0 106#A088A30400009220
(1565298845.796572) can0 086#3503C70000000000
(1565298845.797524) can0 11D#310900C87E200000
(1565298845.797750) can0 09F#5B038400000580F0
(1565298845.799156) can0 3D6#0008000000000000
(1565298845.799938) can0 0AD#C2EABFFF00200010
(1565298845.800171) can0 0AE#930A0000FF00FF01
(1565298845.800407) can0 12D#364D380000F8E682
(1565298845.800729) can0 12B#AE45402800000000
(1565298845.800979) can0 520#1C0E0000000F0000
(1565298845.801233) can0 107#0000FE0F011622E9
(1565298845.801461) can0 297#100A000000000000
(1565298845.801714) can0 0A8#8ADBDFD19464420D
(1565298845.801968) can0 0A7#F35BA080FD0DA83E
(1565298845.802215) can0 11B#0020000000000000
(1565298845.802463) can0 32C#000F000000250800
(1565298845.802769) can0 545#0000000000000000
(1565298845.805192) can0 0B2#0000000000000000
(1565298845.805403) can0 1AB#C78B842A00101100
(1565298845.805648) can0 11E#8508000000000000
(1565298845.805945) can0 116#090805BECC6A105F
(1565298845.806157) can0 1A2#350D000000000000
(1565298845.806497) can0 086#2604C70000000000
(1565298845.807502) can0 09F#48048400000580F0
(1565298845.808806) can0 3E5#A41B000000000000
(1565298845.809952) can0 0AD#77EBBFFF00200010
(1565298845.810150) can0 0AE#310B0000FF00FF01
(1565298845.810752) can0 120#8D0E00000004FF01
(1565298845.810933) can0 121#620E000038537EFE
(1565298845.811187) can0 0A8#22DCDFD194643E0D
(1565298845.811435) can0 0A7#EE4CA080FD0DA83E
(1565298845.811651) can0 15A#020A0000018F0200
(1565298845.811910) can0 30B#1028000008000010
(1565298845.812161) can0 32F#007F000000000000
(1565298845.812387) can0 147#0000000000000000
(1565298845.812667) can0 643#00031A0000000000
(1565298845.812905) can0 6B4#0000000000394257
(1565298845.813161) can0 1A55552F#00C088FFD63B0000
(1565298845.815299) can0 0B2#0000000000000000
(1565298845.815542) can0 0FD#38E93F8000000000
(1565298845.815766) can0 101#56097FFE81060000
(1565298845.816010) can0 106#C489A30400009220
(1565298845.816272) can0 3B5#80FE15020C001800
(1565298845.816520) can0 086#4205C70000000000
(1565298845.816760) can0 3DD#881C101800490A00
(1565298845.817518) can0 11D#9D0A00C87E200000
(1565298845.817719) can0 09F#2C058400000580F0
(1565298845.818914) can0 3C0#31020300
(1565298845.819930) can0 0AD#1AECBFFF00200010
(1565298845.820140) can0 0AE#890C0000FF00FF01
(1565298845.820389) can0 12D#1A4E380000F8E482
(1565298845.820805) can0 12B#B746402800000000
(1565298845.821532) can0 107#0000FE0F011629E9
(1565298845.821772) can0 3BE#931AE75188800C80
(1565298845.821967) can0 0A8#41DDDFD19464360D
(1565298845.822219) can0 0A7#1E4DA080FD0DA83E
(1565298845.825176) can0 0B2#0000000000000000
(1565298845.825436) can0 116#6D0905BECC6A105F
(1565298845.825668) can0 11E#E109000000000000
(1565298845.826062) can0 1B000077#7700080101000000
(1565298845.826424) can0 1B000015#1500040201000000
(1565298845.826650) can0 086#EE06C70000000000
(1565298845.827478) can0 32A#120AC0014A020000
(1565298845.827764) can0 09F#80068400000580F0
(1565298845.829949) can0 0AD#6BEDBFFF00200010
(1565298845.830179) can0 0AE#EA0D0000FF00FF01
(1565298845.830427) can0 120#580F00000004FF01
(1565298845.830709) can0 121#D40F000038537EFE
(1565298845.830887) can0 0A7#954EA080FD0DA83E
(1565298845.831147) can0 0A8#EFDEDFD19464340D
(1565298845.831329) can0 31E#FFE33F0000000000
(1565298845.831665) can0 147#0000000000000000
(1565298845.835283) can0 0B2#0000000000000000
(1565298845.835533) can0 0FD#74EA3F8000000000
(1565298845.835758) can0 31B#3D010000005B1400
(1565298845.835965) can0 101#BF0A7FFE81040000
(1565298845.836190) can0 106#FA8AA40400009220
(1565298845.836516) can0 086#8A07C70000000000
(1565298845.837517) can0 11D#F90B00C87E200000
(1565298845.837747) can0 09F#E4078400000580F0
(1565298845.839092) can0 365#A5000C001100743C
(1565298845.839940) can0 0AD#B1EEBFFF00200010
(1565298845.840214) can0 0AE#D20E0000FF00FF01
(1565298845.840384) can0 12D#C74F380000F8E382
(1565298845.840818) can0 040#2A8A0000800060CC
(1565298845.841017) can0 0A7#4B4FA080FD0DA83E
(1565298845.841340) can0 107#0000FE0F01162FE9
(1565298845.841479) can0 0A8#44DFDFD19464320D
(1565298845.845181) can0 0B2#0000000000000000
(1565298845.845393) can0 392#A309000000000004
(1565298845.845639) can0 11E#4D0A000000000000
(1565298845.845924) can0 116#C10A05BECC6A105F
(1565298845.846480) can0 1B000010#1000040501000000
(1565298845.846706) can0 086#C808C70000000000
(1565298845.846898) can0 3DB#500002000720019C
(1565298845.847507) can0 09F#A6088400000580F0
(1565298845.849200) can0 395#100B20009BFE631C
(1565298845.849940) can0 0AD#E0EFBFFF00200010
(1565298845.850191) can0 0AE#300F0000FF00FF01
(1565298845.850492) can0 120#920000000004FF01
(1565298845.850743) can0 121#1A00000038537EFE
(1565298845.850947) can0 0A8#2CD0DFD19464320D
(1565298845.851135) can0 0A7#9B40E080FD0DA83E
(1565298845.851454) can0 147#0000000000000000
(1565298845.851671) can0 32C#000F000000250800
(1565298845.855266) can0 0B2#0000000000000000
(1565298845.855533) can0 0FD#5BEB3F8000000000
(1565298845.855751) can0 101#2F0B7FFE810A0000
(1565298845.855952) can0 106#9E8BA40400009220
(1565298845.856566) can0 086#AC09C70000000000
(1565298845.857513) can0 11D#EA0C00C87E200000
(1565298845.857703) can0 09F#C2098400000580F0
(1565298845.859912) can0 0AD#7DE0BFFF00200010
(1565298845.860140) can0 0AE#87000000FF00FF01
(1565298845.860404) can0 12D#6340380000F8E382
(1565298845.860813) can0 12B#9247402800000000
(1565298845.861042) can0 0A7#1341E080FD0DA83E
(1565298845.861296) can0 107#0000FE0F011635E9
(1565298845.861501) can0 0A8#4AD1DFD19464300D
(1565298845.861767) can0 30B#1029000008000010
(1565298845.862022) can0 32F#007F000000000000
(1565298845.862268) can0 65E#0000A60100000000
(1565298845.863966) can0 394#2A4D000100010000
(1565298845.865145) can0 0B2#0000000000000000
(1565298845.865374) can0 116#A50B05BECC6A105F
(1565298845.865689) can0 11E#290B000000000000
(1565298845.866501) can0 086#000AC70000000000
(1565298845.867506) can0 09F#DB0A8400000480F0
(1565298845.869407) can0 48E#0000000000000000
(1565298845.869655) can0 497#0200830046570068
(1565298845.869956) can0 0AD#B3E1BFFF00200010
(1565298845.870181) can0 0AE#68010000FF00FF01
(1565298845.870664) can0 120#670100000004FF01
(1565298845.870889) can0 121#7601000038537EFE
(1565298845.871180) can0 0A7#6742E080FD0DA83E
(1565298845.871357) can0 0A8#0ED2DFD194642C0D
(1565298845.871602) can0 3FB#0000000000000062
(1565298845.871851) can0 147#0000000000000000
(1565298845.873397) can0 391#3E88224800250060
(1565298845.875251) can0 0B2#0000000000000000
(1565298845.875512) can0 0FD#C2EC3F8000000000
(1565298845.875742) can0 101#8D0C7FFE81060000
(1565298845.875933) can0 106#8D8CA40400009220
(1565298845.876526) can0 086#640BC70000000000
(1565298845.877507) can0 32A#760BC0014A020000
(1565298845.877731) can0 09F#0A0B8400000580F0
(1565298845.877943) can0 11D#8E0D00C87E200000
(1565298845.878285) can0 17F00012#2012000000000000
(1565298845.880030) can0 0AD#57E2BFFF00200010
(1565298845.880245) can0 0AE#69020000FF00FF01
(1565298845.880488) can0 12D#2641380000F8E082
(1565298845.880809) can0 12B#4748402800000000
(1565298845.881066) can0 31E#52E43F0000000000
(1565298845.881295) can0 107#0000FE0F81153BE9
(1565298845.881501) can0 0A7#E643E080FD0DA83E
(1565298845.881726) can0 0A8#FDD3DFD194642E0D
(1565298845.882041) can0 0B1#0020000000000000
(1565298845.883943) can0 3C7#FD0000000040A000
(1565298845.885187) can0 0B2#0000000000000000
(1565298845.885400) can0 116#B60C05BECC6A105F
(1565298845.885685) can0 11E#3A0C000000000000
(1565298845.885945) can0 31B#5E020000005B1400
(1565298845.886179) can0 3C8#0000544000120098
(1565298845.886526) can0 086#770CC70000000000
(1565298845.887504) can0 09F#AC0C8400000480F0
(1565298845.889046) can0 3D5#C3CB400004000000
(1565298845.889253) can0 365#A5000C001000743C
(1565298845.890018) can0 0AD#D6E3BFFF00200010
(1565298845.890281) can0 0AE#4C030000FF00FF01
(1565298845.890502) can0 120#9F0200000004FF01
(1565298845.890699) can0 121#C402004038537EFE
(1565298845.890978) can0 040#B38B0000800060CE
(1565298845.891406) can0 0A8#F9D4DFD19464320D
(1565298845.891603) can0 0A7#1B44E080FD11A83E
(1565298845.891892) can0 147#0000000000000000
(1565298845.895248) can0 0B2#0000000000000000
(1565298845.895486) can0 0FD#4BED3F8000000000
(1565298845.895723) can0 101#5C0D7FFE81070000
(1565298845.895962) can0 106#7B8DA30400009220
(1565298845.896557) can0 086#130DC70000000000
(1565298845.897521) can0 11D#220E00C87E200000
(1565298845.897730) can0 09F#C80D8400000480F0
(1565298845.898297) can0 1B000076#7600080101000100
(1565298845.899017) can0 3D6#0108000000000000
(1565298845.900007) can0 0AD#74E4BFFF00200010
(1565298845.900261) can0 0AE#42040000FF00FF01
(1565298845.900488) can0 12D#6142380000F8DF82
(1565298845.901014) can0 107#0000FE0F811542E9
(1565298845.901254) can0 297#780B000000000000
(1565298845.901477) can0 0A8#B7D5DFD19464340D
(1565298845.901726) can0 0A7#A745E080FD0DA83E
(1565298845.901988) can0 11B#0020000000000000
(1565298845.902167) can0 32C#000F000000250800
(1565298845.905185) can0 0B2#0000000000000000
(1565298845.905436) can0 116#D20D05BECC6A105F
(1565298845.905674) can0 11E#5E0D000000000000
(1565298845.906504) can0 086#BF0EC70000000000
(1565298845.907468) can0 09F#640E8400000480F0
(1565298845.908907) can0 3E5#571C000000000000
(1565298845.909994) can0 0AD#41E5BFFF00200010
(1565298845.910195) can0 0AE#B9050000FF00FF01
(1565298845.910751) can0 120#4D0300000004FF01
(1565298845.910914) can0 121#3603004038537EFE
(1565298845.911166) can0 0A7#3446E080FD0DA83E
(1565298845.911374) can0 0A8#9BD6DFD19464360D
(1565298845.911624) can0 15A#520B0000018F0200
(1565298845.911871) can0 30B#102A000008000010
(1565298845.912163) can0 32F#007F000000000000
(1565298845.912384) can0 6B7#FB05A018000D0094
(1565298845.912592) can0 147#0000000000000000
(1565298845.912849) can0 6B8#BE276C9015630000
(1565298845.915307) can0 0B2#0000000000000000
(1565298845.915519) can0 0FD#B4EE3F8000000000
(1565298845.915808) can0 101#7A0E7FFE81030000
(1565298845.916028) can0 106#D78EA30400009220
(1565298845.916235) can0 3B5#80FE15020C001800
(1565298845.916540) can0 086#DB0FC70000000000
(1565298845.916704) can0 3DD#881C101800490A00
(1565298845.917372) can0 668#0200004900080028
(1565298845.917584) can0 09F#B50F8400000580F0
(1565298845.917838) can0 11D#460F00C87E200000
(1565298845.918186) can0 1B000012#1200080111000000
(1565298845.918956) can0 3C0#84030300
(1565298845.919114) can0 5A0#0001802078
(1565298845.920000) can0 0AD#5FE6BFFF00200010
(1565298845.920258) can0 0AE#E2060000FF00FF01
(1565298845.920489) can0 12D#A543380000F8E082
(1565298845.920815) can0 12B#4F49402800000000
(1565298845.921007) can0 107#0000FE0F811548E9
(1565298845.921245) can0 3BE#E51BE75188800C80
(1565298845.921487) can0 0A8#E2D7DFD194643C0D
(1565298845.921755) can0 0A7#BD47E080FD0DA83E
(1565298845.925253) can0 0B2#0000000000000000
(1565298845.925427) can0 116#7E0E05BECC6A105F
(1565298845.925646) can0 11E#F20E000000000000
(1565298845.926468) can0 086#9900C70000000000
(1565298845.927484) can0 32A#650CC0014A020000
(1565298845.927736) can0 09F#F7008400000580F0
(1565298845.930010) can0 0AD#00E7BFFF00200010
(1565298845.930235) can0 0AE#70070000FF00FF01
(1565298845.930479) can0 120#1B0400000004FF01
(1565298845.930690) can0 121#8B04004038537EFE
(1565298845.930905) can0 0A8#6AD8DFD19464420D
(1565298845.931115) can0 0A7#F048E080FD0DA83E
(1565298845.931363) can0 147#0000000000000000
(1565298845.931612) can0 31E#2DE53F0000000000
(1565298845.935267) can0 0B2#0000000000000000
(1565298845.935511) can0 0FD#23EF3F8000000000
(1565298845.935761) can0 31B#32030000005B1400
(1565298845.935976) can0 101#210F7FFE81060000
(1565298845.936236) can0 106#218FA40400009220
(1565298845.936529) can0 086#FD01C70000000000
(1565298845.937446) can0 11D#040000C87E200000
(1565298845.937734) can0 09F#93018400000580F0
(1565298845.938993) can0 5F0#64E4640000640000
(1565298845.939212) can0 365#A5000C001100743C
(1565298845.939989) can0 0AD#97E8BFFF00200010
(1565298845.940238) can0 0AE#07080000FF00FF01
(1565298845.940469) can0 12D#7F44380000F8DF82
(1565298845.940771) can0 12B#5F4A402800000000
(1565298845.941014) can0 040#288C0000800060D0
(1565298845.941261) can0 0A7#2049E080FD0DA83E
(1565298845.941479) can0 107#0000FE0F81154EE9
(1565298845.941726) can0 0A8#20D9DFD19464460D
(1565298845.945159) can0 0B2#0000000000000000
(1565298845.945393) can0 392#0F0A000000000004
(1565298845.945641) can0 11E#960F000000000000
(1565298845.945918) can0 116#1A0F05BECC6A105F
(1565298845.946454) can0 086#5102C70000000000
(1565298845.946681) can0 3DB#500002000720019C
(1565298845.947487) can0 09F#8A028400000480F0
(1565298845.949188) can0 395#100C20009BFE631C
(1565298845.949999) can0 0AD#93E9BFFF00200010
(1565298845.950166) can0 0AE#EF090000FF00FF01
(1565298845.950849) can0 120#190500000004FF01
(1565298845.951065) can0 121#BC05004038537EFE
(1565298845.951297) can0 0A7#3F4AA080FD0DA83E
(1565298845.951541) can0 0A8#2BDADFD19464480D
(1565298845.951762) can0 32C#000F000000250800
(1565298845.952022) can0 147#0000000000000000
(1565298845.952291) can0 3FB#0000000000000063
(1565298845.955299) can0 0B2#0000000000000000
(1565298845.955544) can0 0FD#59E03F8000000000
(1565298845.955793) can0 101#97007FFE81080000
(1565298845.956018) can0 106#F180A30400009220
(1565298845.956508) can0 086#3503C70000000000
(1565298845.957441) can0 11D#600100C87E200000
(1565298845.957736) can0 09F#5B038400000580F0
(1565298845.959979) can0 0AD#C2EABFFF00200010
(1565298845.960249) can0 0AE#930A0000FF00FF01
(1565298845.960412) can0 12D#0045380000F8DF82
(1565298845.960877) can0 107#0000FE0F811554E9
(1565298845.961033) can0 0A7#DB4BA080FD09A83E
(1565298845.961336) can0 0A8#B2DBDFD19464460D
(1565298845.961524) can0 30B#102B000008000010
(1565298845.961752) can0 32F#007F000000000000
(1565298845.965211) can0 0B2#0000000000000000
(1565298845.965433) can0 116#580005BECC6A105F
(1565298845.965688) can0 11E#D400000000000000
(1565298845.966445) can0 3EC#E300000000000000
(1565298845.966723) can0 086#2604C70000000000
(1565298845.967528) can0 09F#48048400000580F0
(1565298845.968888) can0 658#0030000000000000
(1565298845.969460) can0 48E#0000000000000000
(1565298845.969731) can0 497#0200830046570068
(1565298845.969945) can0 54B#0000000000000024
(1565298845.970210) can0 0AD#77EBBFFF00200010
(1565298845.970447) can0 0AE#310B0000FF00FF01
(1565298845.970686) can0 120#F60600000004FF01
(1565298845.970961) can0 121#BB06004038537EFE
(1565298845.971190) can0 0A8#ACDCDFD19464460D
(1565298845.971319) can0 0A7#7B3CA080FD09A83E
(1565298845.971572) can0 147#0000000000000000
(1565298845.971872) can0 17F0000A#000A000000000000
(1565298845.972167) can0 1A555593#00DFEFF7FBFD7EBF
(1565298845.972507) can0 1A555594#00DFEFF7FBFD7EBF
(1565298845.972729) can0 65F#0020000000002C7D
(1565298845.972989) can0 56F#0000D8057DFC0000
(1565298845.973222) can0 556#0000FEFE8100FE00
(1565298845.973480) can0 641#82170A50140E6E14
(1565298845.973709) can0 391#3C88224700250060
(1565298845.975234) can0 0B2#0000000000000000
(1565298845.975479) can0 0FD#53E13F8000000000
(1565298845.975701) can0 101#07017FFE81060000
(1565298845.975942) can0 106#9581A30400009220
(1565298845.976256) can0 1B000013#1300080101000000
(1565298845.976499) can0 086#4205C70000000000
(1565298845.977457) can0 32A#010DC0014A020000
(1565298845.977697) can0 09F#2C058400000580F0
(1565298845.977953) can0 11D#CC0200C87E200000
(1565298845.979994) can0 0AD#1AECBFFF00200010
(1565298845.980235) can0 0AE#890C0000FF00FF01
(1565298845.980440) can0 12D#EB46380000F8E182
(1565298845.980784) can0 12B#FA4B402800000000
(1565298845.981231) can0 31E#AAE63F0000000000
(1565298845.981482) can0 107#0000FE0F81155AE9
(1565298845.981714) can0 0A7#8B3DA080FD09A83E
(1565298845.981928) can0 0A8#A3DDDFD19464440D
(1565298845.982165) can0 0B1#0020000000000000
(1565298845.984086) can0 3C7#2A0000000040A000
(1565298845.985163) can0 0B2#0000000000000000
(1565298845.985411) can0 116#3C0105BECC6A105F
(1565298845.985628) can0 11E#B001000000000000
(1565298845.985935) can0 31B#2E040000005B1400
(1565298845.986158) can0 3C8#0000544000120098
(1565298845.986442) can0 086#EE06C70000000000
(1565298845.987461) can0 09F#35068400000480F0
(1565298845.988816) can0 3D5#BCCC400004000000
(1565298845.989183) can0 365#A5000C001000743C
(1565298845.989991) can0 0AD#6BEDBFFF00200010
(1565298845.990230) can0 0AE#EA0D0000FF00FF01
(1565298845.990510) can0 120#F40700000004FF01
(1565298845.990764) can0 121#E807004038537EFE
(1565298845.990912) can0 040#B18D0000800060D2
(1565298845.991170) can0 0A7#933EE080FD0DA83E
(1565298845.991397) can0 0A8#11DEDFD19464440D
(1565298845.991613) can0 147#0000000000000000
(1565298845.995305) can0 0B2#0000000000000000
(1565298845.995480) can0 0FD#9CE23F8000000000
(1565298845.995788) can0 101#AB027FFE81060000
(1565298845.995988) can0 106#3982A30400009220
(1565298845.996540) can0 086#8A07C70000000000
(1565298845.997477) can0 11D#A80300C87E200000
(1565298845.997717) can0 09F#51078400000480F0
(1565298845.999006) can0 3D6#0208000000000000
(1565298846.000023) can0 0AD#B1EEBFFF00200010
(1565298846.000166) can0 0AE#D20E0000FF00FF01
(1565298846.000398) can0 12D#B447380000F8E082
(1565298846.000740) can0 12B#BF4C402800000000
(1565298846.000992) can0 107#0000FE0F011560E9
(1565298846.001251) can0 297#5A0C000000000000
(1565298846.001469) can0 0A8#9EDFDFD19464440D
(1565298846.001718) can0 0A7#4D3FE080FD0DA83E
(1565298846.001962) can0 11B#0020000000000000
(1565298846.002252) can0 32C#000F000000250800
(1565298846.002505) can0 520#780F0000000F0000
(1565298846.002710) can0 545#0000000000000000
(1565298846.005176) can0 0B2#0000000000000000
(1565298846.005481) can0 1AB#1B8C842A00101100
(1565298846.005655) can0 11E#1C02000000000000
(1565298846.005861) can0 116#900205BECC6A105F
(1565298846.006206) can0 1A2#9E0E000000000000
(1565298846.006494) can0 086#C808C70000000000
(1565298846.007484) can0 09F#A6088400000580F0
(1565298846.008835) can0 3E5#631D000000000000
(1565298846.010039) can0 0AD#E0EFBFFF00200010
(1565298846.010232) can0 0AE#300F0000FF00FF01
(1565298846.010567) can0 120#AD0800000004FF01
(1565298846.010705) can0 121#2B08004038537EFE
(1565298846.010959) can0 0A8#F6D0DFD19464440D
(1565298846.011189) can0 15A#980C000001E60000
(1565298846.011435) can0 0A7#8430E080FD0DA83E
(1565298846.011720) can0 32F#007F000000000000
(1565298846.011984) can0 147#0000000000000000
(1565298846.012201) can0 30B#102C000008000010
(1565298846.012506) can0 6B4#0234303030363137
(1565298846.015321) can0 0B2#0000000000000000
(1565298846.015485) can0 0FD#E9E33F8000000000
(1565298846.015812) can0 101#8A037FFE81040000
(1565298846.015967) can0 106#5D83A30400009220
(1565298846.016300) can0 3B5#80FE15020C001800
(1565298846.016581) can0 086#AC09C70000000000
(1565298846.016780) can0 3DD#881C101800490A00
(1565298846.017482) can0 11D#BB0400C87E200000
(1565298846.017749) can0 09F#77098400000480F0
(1565298846.018901) can0 3C0#FE040300
(1565298846.020022) can0 0AD#7DE0BFFF00200010
(1565298846.020161) can0 0AE#87000000FF00FF01
(1565298846.020465) can0 12D#7548380000F8E182
(1565298846.021288) can0 107#0000FE0F011566E9
(1565298846.021417) can0 3BE#601CE75188800C80
(1565298846.021750) can0 0A8#8CD1DFD19464440D
(1565298846.021924) can0 0A7#0C31E080FD0DA83E
(1565298846.024080) can0 394#154E000100010000
(1565298846.025215) can0 0B2#0000000000000000
(1565298846.025476) can0 116#F40305BECC6A105F
(1565298846.025640) can0 11E#7803000000000000
(1565298846.026046) can0 1B000077#7700080101000000
(1565298846.026433) can0 1B000015#1500040201000000
(1565298846.026647) can0 086#000AC70000000000
(1565298846.027461) can0 32A#AD0EC0014A020000
(1565298846.027732) can0 09F#6E0A8400000580F0
(1565298846.028916) can0 366#0000000080030000
(1565298846.030013) can0 0AD#B3E1BFFF00200010
(1565298846.030235) can0 0AE#68010000FF00FF01
(1565298846.030461) can0 120#FB0900000004FF01
(1565298846.030687) can0 121#D409004038537EFE
(1565298846.030917) can0 0A7#6132A080FD0DA83E
(1565298846.031168) can0 0A8#60D2DFD19464440D
(1565298846.031336) can0 31E#ACE73F0000000000
(1565298846.031586) can0 147#0000000000000000
(1565298846.031890) can0 3FB#0000000000000064
(1565298846.035280) can0 0B2#0000000000000000
(1565298846.035517) can0 0FD#7FE43F8000000000
(1565298846.035767) can0 31B#C3050000005B1400
(1565298846.036007) can0 101#DC047FFE81060000
(1565298846.036218) can0 106#4E84A30400009220
(1565298846.036485) can0 086#640BC70000000000
(1565298846.037414) can0 11D#DF0500C87E200000
(1565298846.037705) can0 09F#0A0B8400000580F0
(1565298846.039065) can0 365#A5000C001100743C
(1565298846.040019) can0 0AD#57E2BFFF00200010
(1565298846.040261) can0 0AE#69020000FF00FF01
(1565298846.040420) can0 12D#CC49380000F8E382
(1565298846.040798) can0 12B#EB4D402800000000
(1565298846.041008) can0 040#C88E0000800060D6
(1565298846.041256) can0 0A7#E033A080FD0DA83E
(1565298846.041499) can0 107#0000FE0F01156CE9
(1565298846.041735) can0 0A8#8FD3DFD19464440D
(1565298846.045160) can0 0B2#0000000000000000
(1565298846.045433) can0 392#6B0B000000000004
(1565298846.045648) can0 11E#6B04000000000000
(1565298846.045885) can0 116#E70405BECC6A105F
(1565298846.046430) can0 1B000010#1000040501000000
(1565298846.046661) can0 086#770CC70000000000
(1565298846.046869) can0 3DB#500002000720019C
(1565298846.047460) can0 09F#190C8400000580F0
(1565298846.049191) can0 395#100D20009BFE631C
(1565298846.050015) can0 0AD#D6E3BFFF00200010
(1565298846.050234) can0 0AE#4C030000FF00FF01
(1565298846.050907) can0 120#200A00000004FF01
(1565298846.051124) can0 121#B10A004038537EFE
(1565298846.051318) can0 0A8#23D4DFD19464440D
(1565298846.051571) can0 0A7#DA34A080FD0DA83E
(1565298846.051839) can0 147#0000000000000000
(1565298846.052124) can0 32C#000F000000250800
(1565298846.055290) can0 0B2#0000000000000000
(1565298846.055467) can0 0FD#E5E53F8000000000
(1565298846.055722) can0 101#87057FFE81030000
(1565298846.055994) can0 106#B885A40400009220
(1565298846.056478) can0 086#130DC70000000000
(1565298846.057472) can0 11D#730600C87E200000
(1565298846.057671) can0 09F#7D0D8400000580F0
(1565298846.059958) can0 0AD#74E4BFFF00200010
(1565298846.060242) can0 0AE#42040000FF00FF01
(1565298846.060475) can0 12D#614A380000F8E582
(1565298846.060798) can0 12B#A44E402800000000
(1565298846.061063) can0 0A7#A135A080FD0DA83E
(1565298846.061301) can0 107#0000FE0F011571E9
(1565298846.061513) can0 30B#102D000008000010
(1565298846.061771) can0 0A8#71D5DFD19464400D
(1565298846.062000) can0 32F#007F000000000000
(1565298846.065268) can0 0B2#0000000000000000
(1565298846.065433) can0 116#830505BECC6A105F
(1565298846.065659) can0 11E#0F05000000000000
(1565298846.066505) can0 086#BF0EC70000000000
(1565298846.067486) can0 09F#D10E8400000580F0
(1565298846.068821) can0 3D4#8B038200000A0000
(1565298846.069028) can0 65A#0000002000803C00
(1565298846.069400) can0 48E#0000000000000000
(1565298846.069654) can0 497#0200830046570068
(1565298846.069949) can0 0AD#41E5BFFF00200010
(1565298846.070191) can0 0AE#B9050000FF00FF01
(1565298846.070822) can0 120#8C0B00000004FF01
(1565298846.071019) can0 121#1A0B004038537EFE
(1565298846.071228) can0 0A7#3236A080FD0DA83E
(1565298846.071524) can0 0A8#EBD6DFD194643E0D
(1565298846.071770) can0 147#0000000000000000
(1565298846.072690) can0 640#009194C180200810
(1565298846.072997) can0 17F00076#2076000000000000
(1565298846.073217) can0 647#B8F3FF7F000000B9
(1565298846.073464) can0 391#3B88224600250060
(1565298846.073651) can0 642#000000000C0C0F0F
(1565298846.075305) can0 0B2#0000000000000000
(1565298846.075488) can0 0FD#F7E63F8000000000
(1565298846.075791) can0 101#9F067FFE81014000
(1565298846.076016) can0 106#8686A30400009220
(1565298846.076519) can0 086#DB0FC70000000000
(1565298846.077455) can0 32A#C90FC0014A020000
(1565298846.077688) can0 09F#B50F8400000580F0
(1565298846.077959) can0 11D#170700C87E200000
(1565298846.079995) can0 0AD#5FE6BFFF00200010
(1565298846.080241) can0 0AE#E2060000FF00FF01
(1565298846.080469) can0 12D#744B380000F8E482
(1565298846.080852) can0 31E#E5E83F0000000000
(1565298846.081091) can0 107#0000FE0F011577E9
(1565298846.081340) can0 0A7#BB37A080FD0DA83E
(1565298846.081508) can0 0A8#C6D7DFD194643A0D
(1565298846.081828) can0 17F00015#0015000000000000
(1565298846.082042) can0 0B1#0020000000000000
(1565298846.083715) can0 3C7#FD0000000040A000
(1565298846.085185) can0 0B2#0000000000000000
(1565298846.085477) can0 116#2F0605BECC6A105F
(1565298846.085702) can0 11E#A306000000000000
(1565298846.085967) can0 31B#A3060000005B1400
(1565298846.086204) can0 3C8#0000544000120098
(1565298846.086474) can0 086#9900C70000000000
(1565298846.087463) can0 09F#F7008400000580F0
(1565298846.088801) can0 3D5#98CD400004000000
(1565298846.089085) can0 365#A5000C001000743C
(1565298846.090006) can0 0AD#00E7BFFF00200010
(1565298846.090224) can0 0AE#70070000FF00FF01
(1565298846.090473) can0 120#560C00000004FF01
(1565298846.090690) can0 121#DF0C004038537EFE
(1565298846.090918) can0 040#018F0000800060D8
(1565298846.091148) can0 0A7#F638A080FD0DA83E
(1565298846.091452) can0 0A8#B0D8DFD19464340D
(1565298846.091681) can0 147#0000000000000000
(1565298846.095254) can0 0B2#0000000000000000
(1565298846.095514) can0 0FD#CDE73F8000000000
(1565298846.095757) can0 101#FB077FFE81014000
(1565298846.095921) can0 106#E287A30400009220
(1565298846.096484) can0 086#FD01C70000000000
(1565298846.097402) can0 11D#550800C87E200000
(1565298846.097648) can0 09F#93018400000580F0
(1565298846.098304) can0 1B000076#7600080101000100
(1565298846.098955) can0 3D6#0308000000000000
(1565298846.100019) can0 0AD#97E8BFFF00200010
(1565298846.100265) can0 0AE#07080000FF00FF01
(1565298846.100498) can0 12D#464C380000F8E482
(1565298846.100818) can0 12B#8E4F402800000000
(1565298846.101067) can0 107#0000FE0F01157DE9
(1565298846.101231) can0 297#ED0D000000000000
(1565298846.101455) can0 0A8#4ED9DFD194642E0D
(1565298846.101708) can0 0A7#3F39E080FD0DA83E
(1565298846.101989) can0 11B#0020000000000000
(1565298846.102193) can0 32C#000F000000250800
(1565298846.102442) can0 557#0000000000000000
(1565298846.105233) can0 0B2#0000000000000000
(1565298846.105395) can0 116#4B0705BECC6A105F
(1565298846.105720) can0 11E#C707000000000000
(1565298846.106442) can0 3FE#0000000000000000
(1565298846.106652) can0 086#5102C70000000000
(1565298846.107465) can0 09F#8A028400000480F0
(1565298846.108803) can0 3E5#E11E000000000000
(1565298846.110007) can0 0AD#93E9BFFF00200010
(1565298846.110252) can0 0AE#EF090000FF00FF01
(1565298846.110540) can0 120#E60D00000004FF01
(1565298846.110769) can0 121#CC0D004038537EFE
(1565298846.111002) can0 0A7#393AE080FD0DA83E
(1565298846.111206) can0 0A8#0DDADFD194642C0D
(1565298846.111408) can0 15A#420D000001E60000
(1565298846.111621) can0 30B#102E000008000010
(1565298846.111894) can0 32F#007F000000000000
(1565298846.112153) can0 3FB#0000000000000000
(1565298846.112399) can0 147#0000000000000000
(1565298846.115251) can0 0B2#0000000000000000
(1565298846.115537) can0 0FD#0AE83F8000000000
(1565298846.115820) can0 101#0C087FFE81004000
(1565298846.115990) can0 106#A088A30400009220
(1565298846.116297) can0 3B5#80FE15020C001800
(1565298846.116525) can0 086#3503C70000000000
(1565298846.116724) can0 3DD#881C101800490A00
(1565298846.117006) can0 668#0200004900080028
(1565298846.117444) can0 11D#310900C87E200000
(1565298846.117697) can0 09F#5B038400000580F0
(1565298846.117999) can0 1B000012#1200080111000000
(1565298846.118913) can0 3C0#4B050300
(1565298846.119124) can0 5A0#0001802078
(1565298846.120024) can0 0AD#C2EABFFF00200010
(1565298846.120254) can0 0AE#930A0000FF00FF01
(1565298846.120502) can0 12D#2A4D380000F8E482
(1565298846.120817) can0 12B#0540402800000000
(1565298846.121252) can0 107#0000FE0F011583E9
(1565298846.121455) can0 3BE#DB1DE75188800C80
(1565298846.121665) can0 0A8#E4DBDFD194642A0D
(1565298846.121886) can0 0A7#573BE080FD0DA83E
(1565298846.124433) can0 130#D78BC70008000400
(1565298846.125243) can0 0B2#0000000000000000
(1565298846.125449) can0 116#090805BECC6A105F
(1565298846.125653) can0 11E#8508000000000000
(1565298846.126443) can0 086#2604C70000000000
(1565298846.127399) can0 32A#8B00C0014A020000
(1565298846.127642) can0 09F#48048400000580F0
(1565298846.129947) can0 0AD#77EBBFFF00200010
(1565298846.130190) can0 0AE#310B0000FF00FF01
(1565298846.130438) can0 120#8D0E00000004FF01
(1565298846.130685) can0 121#5F0E004038537EFE
(1565298846.130916) can0 0A8#E6DCDFD19464280D
(1565298846.131136) can0 0A7#2F3CE080FD11A83E
(1565298846.131395) can0 147#0000000000000000
(1565298846.131627) can0 31E#DAE93F0000000000
(1565298846.135259) can0 0B2#0000000000000000
(1565298846.135472) can0 0FD#38E93F8000000000
(1565298846.135723) can0 31B#43070000005B1400
(1565298846.135951) can0 101#E3097FFE81070000
(1565298846.136181) can0 106#C489A30400009220
(1565298846.136474) can0 086#4205C70000000000
(1565298846.137402) can0 11D#9D0A00C87E200000
(1565298846.137639) can0 09F#2C058400000580F0
(1565298846.138947) can0 5F0#64E4640000640000
(1565298846.139193) can0 365#A5000C001100743C
(1565298846.139962) can0 0AD#1AECBFFF00200010
(1565298846.140191) can0 0AE#890C0000FF00FF01
(1565298846.140445) can0 12D#3E4E380000F8E282
(1565298846.140793) can0 040#BE800000800060DA
(1565298846.141440) can0 107#0000FE0F811489E9
(1565298846.141645) can0 0A7#DF3DE080FD11A83E
(1565298846.141828) can0 0A8#F5DDDFD19464280D
(1565298846.145179) can0 0B2#0000000000000000
(1565298846.145418) can0 392#780C000000000004
(1565298846.145663) can0 11E#E109000000000000
(1565298846.145887) can0 116#6D0905BECC6A105F
(1565298846.146402) can0 086#EE06C70000000000
(1565298846.146640) can0 3DB#500002000720019C
(1565298846.147392) can0 09F#80068400000580F0
(1565298846.148914) can0 16A9540A#0000000000000000
(1565298846.149348) can0 395#100E20009BFE631C
(1565298846.149951) can0 0AD#6BEDBFFF00200010
(1565298846.150196) can0 0AE#EA0D0000FF00FF01
(1565298846.150479) can0 120#580F00000004FF01
(1565298846.150702) can0 121#E90F004038537EFE
(1565298846.150953) can0 0A7#543EE080FD11A83E
(1565298846.151175) can0 0A8#13DEDFD19464260D
(1565298846.151478) can0 32C#000F000000250800
(1565298846.151723) can0 147#0000000000000000
(1565298846.155254) can0 0B2#0000000000000000
(1565298846.155494) can0 0FD#74EA3F8000000000
(1565298846.155742) can0 101#BF0A7FFE81040000
(1565298846.155965) can0 106#688AA30400009220
(1565298846.156428) can0 086#8A07C70000000000
(1565298846.157373) can0 11D#F90B00C87E200000
(1565298846.157594) can0 09F#E4078400000580F0
(1565298846.159926) can0 0AD#B1EEBFFF00200010
(1565298846.160169) can0 0AE#D20E0000FF00FF01
(1565298846.160400) can0 12D#C94F380000F8E282
(1565298846.160745) can0 12B#7741402800000000
(1565298846.160989) can0 0A7#8A3FE080FD11A83E
(1565298846.161214) can0 107#0000FE0F81148FE9
(1565298846.161500) can0 0A8#80DFDFD19464240D
(1565298846.161726) can0 30B#102F000008000010
(1565298846.161952) can0 32F#007F000000000000
(1565298846.165150) can0 0B2#0000000000000000
(1565298846.165375) can0 116#C10A05BECC6A105F
(1565298846.165604) can0 11E#4D0A000000000000
(1565298846.166391) can0 086#C808C70000000000
(1565298846.166614) can0 3EC#E300000000000000
(1565298846.167369) can0 09F#13088400000480F0
(1565298846.169423) can0 48E#0000000000000000
(1565298846.169675) can0 497#0200830046570068
(1565298846.169925) can0 0AD#E0EFBFFF00200010
(1565298846.170167) can0 0AE#300F0000FF00FF01
(1565298846.170439) can0 120#920000000004FF01
(1565298846.170669) can0 121#2700004038537EFE
(1565298846.170925) can0 0A8#CCD0DFD19464220D
(1565298846.171197) can0 0A7#4330E080FD11A83E
(1565298846.171424) can0 147#0000000000000000
(1565298846.172577) can0 391#3A88224400250060
(1565298846.175269) can0 0B2#0000000000000000
(1565298846.175519) can0 0FD#5BEB3F8000000000
(1565298846.175690) can0 101#2B0B7FFE81070000
(1565298846.176015) can0 106#0C8BA30400009220
(1565298846.176285) can0 1B000013#1300080101000000
(1565298846.176517) can0 086#AC09C70000000000
(1565298846.177460) can0 32A#EF01C0014A020000
(1565298846.177691) can0 09F#C2098400000580F0
(1565298846.177892) can0 11D#EA0C00C87E200000
(1565298846.180053) can0 0AD#7DE0BFFF00200010
(1565298846.180240) can0 0AE#87000000FF00FF01
(1565298846.180470) can0 12D#7F40380000F8E182
(1565298846.180848) can0 12B#D342402800000000
(1565298846.181062) can0 107#0000FE0F811494E9
(1565298846.181259) can0 0A7#CB31E080FD11A83E
(1565298846.181441) can0 0A8#AAD1DFD19464200D
(1565298846.181738) can0 31E#EEEA3F0000000000
(1565298846.181974) can0 0B1#0020000000000000
(1565298846.183719) can0 3C7#2A0000000040A000
(1565298846.184015) can0 394#EA4F000100010000
(1565298846.185227) can0 0B2#0000000000000000
(1565298846.185391) can0 116#A50B05BECC6A105F
(1565298846.185639) can0 11E#290B000000000000
(1565298846.185895) can0 31B#41080000005B1400
(1565298846.186197) can0 3C8#0000544000120098
(1565298846.186428) can0 086#000AC70000000000
(1565298846.187430) can0 09F#6E0A8400000580F0
(1565298846.188846) can0 3D5#A6CE400004000000
(1565298846.189013) can0 365#A5000C001100743C
(1565298846.190045) can0 0AD#B3E1BFFF00200010
(1565298846.190255) can0 0AE#68010000FF00FF01
(1565298846.190683) can0 120#670100000004FF01
(1565298846.190930) can0 040#F2810000800060DC
(1565298846.191136) can0 0A8#1DD2DFD194641E0D
(1565298846.191343) can0 0A7#BF32E080FD11A83E
(1565298846.191606) can0 121#4B01004038537EFE
(1565298846.191828) can0 147#0000000000000000
(1565298846.192211) can0 3FB#0000000000000001
(1565298846.195274) can0 0B2#0000000000000000
(1565298846.195539) can0 0FD#C2EC3F8000000000
(1565298846.195754) can0 101#380C7FFE81070000
(1565298846.196039) can0 106#EB8CA20400009220
(1565298846.196471) can0 086#640BC70000000000
(1565298846.197495) can0 11D#8E0D00C87E200000
(1565298846.197676) can0 09F#0A0B8400000580F0
(1565298846.198994) can0 3D6#0408000000000000
(1565298846.199996) can0 0AD#57E2BFFF00200010
(1565298846.200185) can0 0AE#69020000FF00FF01
(1565298846.200388) can0 12D#6F41380000F8DD82
(1565298846.200766) can0 520#3A000000000F0000
(1565298846.201019) can0 545#0000000000000000
(1565298846.201294) can0 107#0000FE0F81149AE9
(1565298846.201511) can0 297#BD0E000000000000
(1565298846.201758) can0 0A8#EED3DFD194641C0D
(1565298846.201964) can0 0A7#41332081FD11A83E
(1565298846.202214) can0 11B#0020000000000000
(1565298846.202466) can0 32C#000F000000250800
(1565298846.205178) can0 08A#2507000000000000
(1565298846.205439) can0 0B2#0000000000000000
(1565298846.205662) can0 1AB#678D842A00101100
(1565298846.205921) can0 11E#3A0C000000000000
(1565298846.206200) can0 116#B60C05BECC6A105F
(1565298846.206341) can0 1A2#D50F000000000000
(1565298846.206650) can0 086#770CC70000000000
(1565298846.206919) can0 65D#15282B000000E47B
(1565298846.207213) can0 1A555521#0000000000000000
(1565298846.207520) can0 16A954C3#00F7000000000000
(1565298846.207697) can0 09F#190C8400000580F0
(1565298846.208937) can0 3E5#D11F000000000000
(1565298846.210017) can0 0AD#D6E3BFFF00200010
(1565298846.210227) can0 0AE#4C030000FF00FF01
(1565298846.211031) can0 120#9F0200000004FF01
(1565298846.211238) can0 121#C402004038537EFE
(1565298846.211463) can0 0A7#7B342081FD11A83E
(1565298846.211690) can0 0A8#7AD4DFD19464180D
(1565298846.211938) can0 15A#FF0E0000018F0200
(1565298846.212185) can0 30B#1020000008000010
(1565298846.212527) can0 32F#007F000000000000
(1565298846.212709) can0 6B4#0000000000394257
(1565298846.212933) can0 147#0000000000000000
(1565298846.215273) can0 0B2#0000000000000000
(1565298846.215555) can0 0FD#4BED3F8000000000
(1565298846.215790) can0 101#5C0D7FFE81070000
(1565298846.216071) can0 106#7B8DA30400009220
(1565298846.216338) can0 3B5#80FE15020C001800
(1565298846.216582) can0 086#130DC70000000000
(1565298846.216786) can0 3DD#881C101800490A00
(1565298846.217413) can0 11D#220E00C87E200000
(1565298846.217664) can0 09F#7D0D8400000580F0
(1565298846.218906) can0 3C0#BB060300
(1565298846.219988) can0 0AD#74E4BFFF00200010
(1565298846.220214) can0 0AE#42040000FF00FF01
(1565298846.220478) can0 12D#7342380000F8DC82
(1565298846.220829) can0 12B#8B43402800000000
(1565298846.221073) can0 107#0000FE0F8114A0E9
(1565298846.221299) can0 3BE#C41EE75188800C80
(1565298846.221472) can0 0A8#58D5DFD19464140D
(1565298846.221732) can0 0A7#00352081FD11A83E
(1565298846.225205) can0 0B2#0000000000000000
(1565298846.225424) can0 116#D20D05BECC6A105F
(1565298846.225668) can0 11E#5E0D000000000000
(1565298846.226094) can0 1B000077#7700080101000000
(1565298846.226432) can0 1B000015#1500040201000000
(1565298846.226624) can0 086#BF0EC70000000000
(1565298846.227423) can0 32A#4302C0014A020000
(1565298846.227646) can0 09F#D10E8400000580F0
(1565298846.229994) can0 0AD#41E5BFFF00200010
(1565298846.230181) can0 0AE#B9050000FF00FF01
(1565298846.230681) can0 120#4D0300000004FF01
(1565298846.230899) can0 121#3603004038537EFE
(1565298846.231190) can0 0A7#93362081FD11A83E
(1565298846.231404) can0 0A8#4CD6DFD19464120D
(1565298846.231631) can0 31E#C8EB3F0000000000
(1565298846.231898) can0 147#0000000000000000
(1565298846.235294) can0 0B2#0000000000000000
(1565298846.235484) can0 0FD#B4EE3F8000000000
(1565298846.235766) can0 31B#C0090000005B1400
(1565298846.236021) can0 101#000E7FFE81040000
(1565298846.236256) can0 106#D78EA30400009220
(1565298846.236492) can0 086#DB0FC70000000000
(1565298846.237379) can0 11D#460F00C87E200000
(1565298846.237630) can0 09F#B50F8400000580F0
(1565298846.239088) can0 365#A5000C001100743C
(1565298846.240018) can0 0AD#5FE6BFFF00200010
(1565298846.240233) can0 0AE#E2060000FF00FF01
(1565298846.240486) can0 12D#D443380000F8D982
(1565298846.240808) can0 12B#0B44402800000000
(1565298846.241062) can0 040#61820000800060E0
(1565298846.241300) can0 0A7#6537E080FD11A83E
(1565298846.241558) can0 107#0000FE0F8114A5E9
(1565298846.241781) can0 0A8#45D7DFD19464100D
(1565298846.244213) can0 6B2#A2FB053041249B29
(1565298846.245196) can0 0B2#0000000000000000
(1565298846.245401) can0 392#1C0D000000000004
(1565298846.245680) can0 11E#F20E000000000000
(1565298846.245902) can0 116#7E0E05BECC6A105F
(1565298846.246406) can0 1B000010#1000040501000000
(1565298846.246672) can0 086#9900C70000000000
(1565298846.246891) can0 3DB#500002000720019C
(1565298846.247412) can0 09F#F7008400000580F0
(1565298846.249191) can0 395#100F20009BFE631C
(1565298846.249987) can0 0AD#00E7BFFF00200010
(1565298846.250248) can0 0AE#70070000FF00FF01
(1565298846.250572) can0 120#1B0400000004FF01
(1565298846.250813) can0 121#CC04008038537EFE
(1565298846.251033) can0 0A8#D3D8DFD194640E0D
(1565298846.251225) can0 0A7#2838E080FD11A83E
(1565298846.251499) can0 147#0000000000040000
(1565298846.251744) can0 32C#000F000000250800
(1565298846.255345) can0 0B2#0000000000000000
(1565298846.255580) can0 0FD#23EF3F8000000000
(1565298846.255815) can0 101#640F7FFE81040000
(1565298846.256063) can0 106#B38FA30400009220
(1565298846.256182) can0 64A#00000000
(1565298846.256447) can0 086#FD01C70000000000
(1565298846.257410) can0 11D#040000C87E200000
(1565298846.257660) can0 09F#93018400000580F0
(1565298846.259954) can0 0AD#97E8BFFF00200010
(1565298846.260234) can0 0AE#07080000FF00FF01
(1565298846.260463) can0 12D#0144380000F8D682
(1565298846.261042) can0 107#0000FE0F8114ABE9
(1565298846.261270) can0 0A7#F839E080FD11A83E
(1565298846.261487) can0 0A8#BDD9DFD194640C0D
(1565298846.261675) can0 30B#1021000008000010
(1565298846.261976) can0 32F#007F000000000000
(1565298846.265249) can0 0B2#0000000000000000
(1565298846.265466) can0 116#1A0F05BECC6A105F
(1565298846.265696) can0 11E#960F000000000000
(1565298846.265961) can0 17F00013#20130000001E0000
(1565298846.266352) can0 086#5102C70000000000
(1565298846.267414) can0 09F#3F028400000580F0
(1565298846.269532) can0 48E#0000000000000000
(1565298846.269768) can0 497#0200830046570068
(1565298846.269993) can0 0AD#93E9BFFF00200010
(1565298846.270241) can0 0AE#EF090000FF00FF01
(1565298846.270655) can0 120#190500000004FF01
(1565298846.270929) can0 121#FB05008038537EFE
(1565298846.271200) can0 0A7#FE3AE080FD11A83E
(1565298846.271421) can0 0A8#DADADFD19464080D
(1565298846.271603) can0 3FB#0000000000000002
(1565298846.271849) can0 670#15120000FE080080
(1565298846.272119) can0 147#0000000000040000
(1565298846.272754) can0 391#3A88224400250060
(1565298846.275300) can0 0B2#0000000000000000
(1565298846.275521) can0 0FD#59E03F8000000000
(1565298846.275789) can0 101#D6007FFE81070000
(1565298846.276057) can0 106#0580A20400009220
(1565298846.276465) can0 086#3503C70000000000
(1565298846.277418) can0 32A#2703C0014A020000
(1565298846.277647) can0 09F#5B038400000580F0
(1565298846.277906) can0 11D#600100C87E200000
(1565298846.279999) can0 0AD#C2EABFFF00200010
(1565298846.280232) can0 0AE#930A0000FF00FF01
(1565298846.280464) can0 12D#7E45380000F8D682
(1565298846.280826) can0 31E#6BEC3F0000000000
(1565298846.281154) can0 107#0000FE0F8114B1E9
(1565298846.281295) can0 0A7#903BE080FD11A83E
(1565298846.281557) can0 0A8#43DBDFD19464060D
(1565298846.281830) can0 12B#AE45402800000000
(1565298846.282014) can0 0B1#0020000000000000
(1565298846.284193) can0 3C7#FD0000000040A000
(1565298846.285195) can0 0B2#0000000000000000
(1565298846.285476) can0 116#580005BECC6A105F
(1565298846.285722) can0 11E#D400000000000000
(1565298846.285964) can0 31B#9A0A0000005B1400
(1565298846.286221) can0 3C8#0000544000120098
(1565298846.286444) can0 086#2604C70000000000
(1565298846.287413) can0 09F#48048400000580F0
(1565298846.288196) can0 17F00077#2077000000000000
(1565298846.288879) can0 3D5#41CF400004000000
(1565298846.289155) can0 365#A5000C001100743C
(1565298846.289967) can0 0AD#77EBBFFF00200010
(1565298846.290236) can0 0AE#310B0000FF00FF01
(1565298846.290467) can0 120#F60600000004FF01
(1565298846.290686) can0 121#FC06008038537EFE
(1565298846.290975) can0 040#F8830000800060E2
(1565298846.291240) can0 0A7#304CE080FD11A83E
(1565298846.291439) can0 0A8#41DCDFD19464040D
(1565298846.291660) can0 2C2#000000FC07000000
(1565298846.291964) can0 147#0000000000040000
(1565298846.295293) can0 0B2#0000000000000000
(1565298846.295553) can0 0FD#53E13F8000000000
(1565298846.295773) can0 101#42017FFE81040000
(1565298846.295982) can0 106#9581A30400009220
(1565298846.296424) can0 086#4205C70000000000
(1565298846.297393) can0 11D#CC0200C87E200000
(1565298846.297641) can0 09F#2C058400000580F0
(1565298846.298371) can0 1B000076#7600080101000100
(1565298846.299011) can0 3D6#0508000000000000
(1565298846.300017) can0 0AD#1AECBFFF00200010
(1565298846.300184) can0 0AE#890C0000FF00FF01
(1565298846.300432) can0 12D#CE46380000F8D682
(1565298846.300807) can0 12B#B746402800000000
(1565298846.301391) can0 107#0000FE0F8114B6E9
(1565298846.301699) can0 297#6F0F000000000000
(1565298846.301900) can0 0A8#E4DDDFD19464FE0C
(1565298846.302169) can0 0A7#C04DE080FD11A83E
(1565298846.302342) can0 11B#0020000000000000
(1565298846.302572) can0 32C#000F000000250800
(1565298846.305215) can0 0B2#0000000000000000
(1565298846.305433) can0 116#3C0105BECC6A105F
(1565298846.305714) can0 11E#B001000000000000
(1565298846.306399) can0 086#EE06C70000000000
(1565298846.307420) can0 09F#80068400000580F0
(1565298846.308805) can0 585#000C0A7F11000000
(1565298846.309031) can0 3E5#3A10000000000000
(1565298846.309979) can0 0AD#6BEDBFFF00200010
(1565298846.310229) can0 0AE#EA0D0000FF00FF01
(1565298846.310459) can0 120#F40700000004FF01
(1565298846.310720) can0 121#AF07008038537EFE
(1565298846.310895) can0 0A7#344E2081FD11A83E
(1565298846.311181) can0 0A8#4ADEDFD19464FC0C
(1565298846.311358) can0 15A#770F0000018F0200
(1565298846.311671) can0 30B#1022000008000010
(1565298846.311920) can0 32F#007F000000000000
(1565298846.312202) can0 147#0000000000040000
(1565298846.312465) can0 1A55552F#00E088FFD63B0000
(1565298846.315280) can0 0B2#0000000000000000
(1565298846.315533) can0 0FD#9CE23F8000000000
(1565298846.315783) can0 101#AB027FFE81060000
(1565298846.315953) can0 106#3982A30400009220
(1565298846.316237) can0 3B5#80FE15020C001800
(1565298846.316527) can0 086#8A07C70000000000
(1565298846.316702) can0 3DD#881C101800490A00
(1565298846.316998) can0 668#0200004900080028
(1565298846.317420) can0 11D#A80300C87E200000
(1565298846.317655) can0 09F#51078400000480F0
(1565298846.317919) can0 1B000012#1200080111000000
(1565298846.318904) can0 3C0#0E070300
(1565298846.319188) can0 5A0#0001802078
(1565298846.319995) can0 0AD#B1EEBFFF00200010
(1565298846.320264) can0 0AE#D20E0000FF00FF01
(1565298846.320448) can0 12D#A947380000F8D382
(1565298846.321440) can0 107#0000FE0F8114BCE9
(1565298846.321658) can0 3BE#C91FE75188800C80
(1565298846.321917) can0 0A8#FDDFDFD19464F80C
(1565298846.322124) can0 0A7#EA4F2081FD11A83E
(1565298846.325247) can0 0B2#0000000000000000
(1565298846.325495) can0 116#900205BECC6A105F
(1565298846.325760) can0 11E#1C02000000000000
(1565298846.326395) can0 086#C808C70000000000
(1565298846.326638) can0 570#FB00000000000000
(1565298846.327396) can0 32A#3404C0014A020000
(1565298846.327648) can0 09F#A6088400000580F0
(1565298846.329978) can0 0AD#E0EFBFFF00200010
(1565298846.330173) can0 0AE#300F0000FF00FF01
(1565298846.330474) can0 120#AD0800000004FF01
(1565298846.330846) can0 121#6C08008038537EFE
(1565298846.330890) can0 31E#C2ED3F0000000000
(1565298846.331195) can0 0A8#C1D0DFD19464F60C
(1565298846.331415) can0 0A7#23402081FD11A83E
(1565298846.331671) can0 147#0000000000040000
(1565298846.335243) can0 0B2#0000000000000000
(1565298846.335516) can0 0FD#E9E33F8000000000
(1565298846.335727) can0 31B#550B0000005B1400
(1565298846.335987) can0 101#B5037FFE81010000
(1565298846.336210) can0 106#5D83A30400009220
(1565298846.336412) can0 086#AC09C70000000000
(1565298846.337393) can0 11D#BB0400C87E200000
(1565298846.337574) can0 09F#C2098400000580F0
(1565298846.338960) can0 5F0#64E4640000640000
(1565298846.339167) can0 365#A5000C001100743C
(1565298846.340011) can0 0AD#7DE0BFFF00200010
(1565298846.340233) can0 0AE#87000000FF00FF01
(1565298846.340400) can0 12D#CE48380000F8CF82
(1565298846.340777) can0 12B#9247402800000000
(1565298846.341040) can0 040#C3840000800060E4
(1565298846.341267) can0 0A7#AB412081FD11A83E
(1565298846.341514) can0 107#0000FE0F8114C2E9
(1565298846.341742) can0 0A8#A7D1DFD19464F40C
(1565298846.343976) can0 394#3D40000100010000
(1565298846.345185) can0 0B2#0000000000000000
(1565298846.345444) can0 392#B00E000000000004
(1565298846.345728) can0 11E#7803000000000000
(1565298846.345964) can0 116#F40305BECC6A105F
(1565298846.346409) can0 086#000AC70000000000
(1565298846.346613) can0 3DB#500002000720019C
(1565298846.347364) can0 09F#6E0A8400000580F0
(1565298846.349169) can0 395#100020009BFE631C
(1565298846.349965) can0 0AD#B3E1BFFF00200010
(1565298846.350209) can0 0AE#68010000FF00FF01
(1565298846.350517) can0 120#FB0900000004FF01
(1565298846.350742) can0 121#9309008038537EFE
(1565298846.350968) can0 0A7#55422081FD15A83E
(1565298846.351200) can0 0A8#DBD2DFD19464EC0C
(1565298846.351454) can0 32C#000F000000250800
(1565298846.351686) can0 147#0000000000040000
(1565298846.351934) can0 3FB#0000000000000003
(1565298846.355320) can0 0B2#0000000000000000
(1565298846.355559) can0 0FD#7FE43F8000000000
(1565298846.355792) can0 101#A6047FFE81010000
(1565298846.356063) can0 106#4E84A30400009220
(1565298846.356393) can0 16A954C7#00F9000000000000
(1565298846.356583) can0 086#640BC70000000000
(1565298846.357444) can0 11D#DF0500C87E200000
(1565298846.357632) can0 09F#0A0B8400000580F0
(1565298846.359997) can0 0AD#57E2BFFF00200010
(1565298846.360172) can0 0AE#69020000FF00FF01
(1565298846.360492) can0 12D#6549380000F8CE82
(1565298846.360826) can0 12B#4748402800000000
(1565298846.361041) can0 0A7#D4432081FD15A83E
(1565298846.361261) can0 107#0000FE0F8114C7E9
(1565298846.361480) can0 0A8#0CD3DFD19464E80C
(1565298846.361730) can0 30B#1023000008000010
(1565298846.361984) can0 32F#007F000000000000
(1565298846.362192) can0 65E#0000A40100000000
(1565298846.365233) can0 0B2#0000000000000000
(1565298846.365474) can0 116#E70405BECC6A105F
(1565298846.365733) can0 11E#6B04000000000000
(1565298846.366388) can0 086#770CC70000000000
(1565298846.366645) can0 3EC#E300000000000000
(1565298846.367393) can0 09F#190C8400000580F0
(1565298846.369541) can0 48E#0000000000000000
(1565298846.369794) can0 497#0200830046570068
(1565298846.370028) can0 0AD#D6E3BFFF00200010
(1565298846.370297) can0 0AE#4C030000FF00FF01
(1565298846.370663) can0 120#200A00000004FF01
(1565298846.370901) can0 121#F60A008038537EFE
(1565298846.371255) can0 0A8#CCD4DFD19464E20C
(1565298846.371470) can0 0A7#EE442081FD15A83E
(1565298846.371728) can0 147#0000000000040000
(1565298846.373803) can0 391#3A88224400250060
(1565298846.375278) can0 0B2#0000000000000000
(1565298846.375491) can0 0FD#E5E53F8000000000
(1565298846.375755) can0 101#FD057FFE81040000
(1565298846.375987) can0 106#DE85A20400009220
(1565298846.376294) can0 1B000013#1300080101000000
(1565298846.376523) can0 086#130DC70000000000
(1565298846.377380) can0 32A#5005C0014A020000
(1565298846.377622) can0 09F#C80D8400000480F0
(1565298846.377848) can0 11D#730600C87E200000
