1508449688.330920 can_line   can1  216   [8]  B5 CA 94 A9 00 00 00 00
1508449688.349766 can_line   can1  216   [8]  B5 CA 94 A9 00 00 00 00
1508449688.369698 can_line   can1  216   [8]  B5 CA 94 A9 00 00 00 00
1508449688.390408 can_line   can1  216   [8]  B5 CA 94 A9 00 00 00 00
1508449688.410224 can_line   can1  216   [8]  B5 CA 94 A9 00 00 00 00
1508449688.430558 can_line   can1  216   [8]  B5 CA 94 A9 00 00 00 00
1508449688.449548 can_line   can1  216   [8]  B5 CA 94 A9 00 00 00 00
1508449688.470660 can_line   can1  216   [8]  B5 CA 94 A9 00 00 00 00
1508449688.489683 can_line   can1  216   [8]  B5 CA 94 A9 00 00 00 00
1508449688.509527 can_line   can1  216   [8]  B5 CA 94 A9 00 00 00 00
1508449688.530457 can_line   can1  216   [8]  B5 CA 94 A9 00 00 00 00
1508449688.551273 can_line   can1  216   [8]  B5 CA 94 A9 00 00 00 00
1508449688.569655 can_line   can1  216   [8]  B5 CA 94 A9 00 00 00 00
1508449688.589690 can_line   can1  216   [8]  B5 CA 94 A9 00 00 00 00
1508449688.609790 can_line   can1  216   [8]  B5 CA 94 A9 00 00 00 00
1508449688.631485 can_line   can1  216   [8]  B5 CA 94 A9 00 00 00 00
1508449688.649817 can_line   can1  216   [8]  B5 CA 94 A9 00 00 00 00
1508449688.669877 can_line   can1  216   [8]  B5 CA 94 A9 00 00 00 00
1508449688.689525 can_line   can1  216   [8]  B5 CA 94 A9 00 00 00 00
1508449688.710472 can_line   can1  216   [8]  B5 CA 94 A9 00 00 00 00
1508449688.730729 can_line   can1  216   [8]  B5 CA 94 A9 00 00 00 00
1508449688.749773 can_line   can1  216   [8]  B5 CA 94 A9 00 00 00 00
1508449688.769782 can_line   can1  216   [8]  B5 CA 94 A9 00 00 00 00
1508449688.791821 can_line   can1  216   [8]  B5 CA 94 A9 00 00 00 00
1508449688.809410 can_line   can1  216   [8]  B5 CA 94 A9 00 00 00 00
1508449688.831038 can_line   can1  216   [8]  B5 CA 94 A9 00 00 00 00
1508449688.849601 can_line   can1  216   [8]  B5 CA 94 A9 00 00 00 00
1508449688.870911 can_line   can1  216   [8]  B5 CA 94 A9 00 00 00 00
1508449688.889528 can_line   can1  216   [8]  B5 CA 94 A9 00 00 00 00
1508449688.909992 can_line   can1  216   [8]  B5 CA 94 A9 00 00 00 00
1508449688.930771 can_line   can1  216   [8]  B5 CA 94 A9 00 00 00 00
1508449688.948920 can_line   can1  216   [8]  B5 CA 94 A9 00 00 00 00
1508449688.968708 can_line   can1  216   [8]  B5 CA 94 A9 00 00 00 00
1508449688.989675 can_line   can1  216   [8]  B5 CA 94 A9 00 00 00 00
1508449689.008791 can_line   can1  216   [8]  B5 CA 94 A9 00 00 00 00
1508449689.029875 can_line   can1  216   [8]  B5 CA 94 A9 00 00 00 00
1508449689.048831 can_line   can1  216   [8]  B5 CA 94 A9 00 00 00 00
1508449689.069006 can_line   can1  216   [8]  B5 CA 94 A9 00 00 00 00
1508449689.088779 can_line   can1  216   [8]  B5 CA 94 A9 00 00 00 00
1508449689.109425 can_line   can1  216   [8]  B5 CA 94 A9 00 00 00 00
1508449689.129482 can_line   can1  216   [8]  B5 CA 94 A9 00 00 00 00
1508449689.149046 can_line   can1  216   [8]  B5 CA 94 A9 00 00 00 00
1508449689.168943 can_line   can1  216   [8]  B5 CA 94 A9 00 00 00 00
1508449689.189622 can_line   can1  216   [8]  B5 CA 94 A9 00 00 00 00
1508449689.208942 can_line   can1  216   [8]  B5 CA 94 A9 00 00 00 00
1508449689.230105 can_line   can1  216   [8]  B5 CA 94 A9 00 00 00 00
1508449689.249281 can_line   can1  216   [8]  B5 CA 94 A9 00 00 00 00
1508449689.269593 can_line   can1  216   [8]  B5 CA 94 A9 00 00 00 00
1508449689.289247 can_line   can1  216   [8]  B5 CA 94 A9 00 00 00 00
1508449689.309688 can_line   can1  216   [8]  B5 CA 94 A9 00 00 00 00
1508449689.329635 can_line   can1  216   [8]  B5 CA 94 A9 00 00 00 00
1508449689.350154 can_line   can1  216   [8]  B5 CA 94 A9 00 00 00 00
1508449689.369851 can_line   can1  216   [8]  B5 CA 94 A9 00 00 00 00
1508449689.390255 can_line   can1  216   [8]  B5 CA 94 A9 00 00 00 00
1508449689.409350 can_line   can1  216   [8]  B5 CA 94 A9 00 00 00 00
1508449689.431686 can_line   can1  216   [8]  B5 CA 94 A9 00 00 00 00
1508449689.449539 can_line   can1  216   [8]  B5 CA 94 A9 00 00 00 00
1508449689.470184 can_line   can1  216   [8]  B5 CA 94 A9 00 00 00 00
1508449689.489386 can_line   can1  216   [8]  B5 CA 94 A9 00 00 00 00
1508449689.512023 can_line   can1  216   [8]  B5 CA 94 A9 00 00 00 00
1508449689.530629 can_line   can1  216   [8]  B5 CA 94 A9 00 00 00 00
1508449689.549925 can_line   can1  216   [8]  B5 CA 94 A9 00 00 00 00
1508449689.569427 can_line   can1  216   [8]  B5 CA 94 A9 00 00 00 00
1508449689.590850 can_line   can1  216   [8]  B5 CA 94 A9 00 00 00 00
1508449689.609355 can_line   can1  216   [8]  B5 CA 94 A9 00 00 00 00
1508449689.631088 can_line   can1  216   [8]  B5 CA 94 A9 00 00 00 00
1508449689.649350 can_line   can1  216   [8]  B5 CA 94 A9 00 00 00 00
1508449689.670868 can_line   can1  216   [8]  B5 CA 94 A9 00 00 00 00
1508449689.689345 can_line   can1  216   [8]  B5 CA 94 A9 00 00 00 00
1508449689.709905 can_line   can1  216   [8]  B5 CA 94 A9 00 00 00 00
1508449689.730467 can_line   can1  216   [8]  B5 CA 94 A9 00 00 00 00
1508449689.751931 can_line   can1  216   [8]  B5 CA 94 A9 00 00 00 00
1508449689.769512 can_line   can1  216   [8]  B5 CA 94 A9 00 00 00 00
1508449689.789857 can_line   can1  216   [8]  B5 CA 94 A9 00 00 00 00
1508449689.809371 can_line   can1  216   [8]  B5 CA 94 A9 00 00 00 00
1508449689.832963 can_line   can1  216   [8]  B5 CA 94 A9 00 00 00 00
1508449689.849705 can_line   can1  216   [8]  B5 CA 94 A9 00 00 00 00
1508449689.870152 can_line   can1  216   [8]  B5 CA 94 A9 00 00 00 00
1508449689.889363 can_line   can1  216   [8]  B5 CA 94 A9 00 00 00 00
1508449689.910142 can_line   can1  216   [8]  B5 CA 94 A9 00 00 00 00
1508449689.930599 can_line   can1  216   [8]  B5 CA 94 A9 00 00 00 00
1508449689.949857 can_line   can1  216   [8]  B5 CA 94 A9 00 00 00 00
1508449689.969378 can_line   can1  216   [8]  B5 CA 94 A9 00 00 00 00
1508449689.990558 can_line   can1  216   [8]  B5 CA 94 A9 00 00 00 00
1508449690.009350 can_line   can1  216   [8]  B5 CA 94 A9 00 00 00 00
1508449690.030987 can_line   can1  216   [8]  B5 CA 94 A9 00 00 00 00
1508449690.049370 can_line   can1  216   [8]  B5 CA 94 A9 00 00 00 00
1508449690.070357 can_line   can1  216   [8]  B5 CA 94 A9 00 00 00 00
1508449690.089425 can_line   can1  216   [8]  B5 CA 94 A9 00 00 00 00
1508449690.109990 can_line   can1  216   [8]  B5 CA 94 A9 00 00 00 00
1508449690.130314 can_line   can1  216   [8]  B5 CA 94 A9 00 00 00 00
1508449690.150072 can_line   can1  216   [8]  B5 CA 94 A9 00 00 00 00
1508449690.169405 can_line   can1  216   [8]  B5 CA 94 A9 00 00 00 00
1508449690.189728 can_line   can1  216   [8]  B5 CA 94 A9 00 00 00 00
1508449690.209381 can_line   can1  216   [8]  B5 CA 94 A9 00 00 00 00
1508449690.230199 can_line   can1  216   [8]  B5 CA 94 A9 00 00 00 00
1508449690.248915 can_line   can1  216   [8]  B5 CA 94 A9 00 00 00 00
1508449690.269186 can_line   can1  216   [8]  B5 CA 94 A9 00 00 00 00
1508449690.288935 can_line   can1  216   [8]  B5 CA 94 A9 00 00 00 00
1508449690.309562 can_line   can1  216   [8]  B5 CA 94 A9 00 00 00 00
1508449690.331267 can_line   can1  216   [8]  B5 CA 94 A9 00 00 00 00
1508449690.349142 can_line   can1  216   [8]  B5 CA 94 A9 00 00 00 00
1508449690.369292 can_line   can1  216   [8]  B5 CA 94 A9 00 00 00 00
1508449690.389516 can_line   can1  216   [8]  B5 CA 94 A9 00 00 00 00
1508449690.409117 can_line   can1  216   [8]  B5 CA 94 A9 00 00 00 00
1508449690.429652 can_line   can1  216   [8]  B5 CA 94 A9 00 00 00 00
1508449690.448932 can_line   can1  216   [8]  B5 CA 94 A9 00 00 00 00
1508449690.469427 can_line   can1  216   [8]  B5 CA 94 A9 00 00 00 00
1508449690.490075 can_line   can1  216   [8]  B5 CA 94 A9 00 00 00 00
1508449690.508763 can_line   can1  216   [8]  B5 CA 94 A9 00 00 00 00
1508449690.529418 can_line   can1  216   [8]  B5 CA 94 A9 00 00 00 00
1508449690.549576 can_line   can1  216   [8]  B5 CA 94 A9 00 00 00 00
1508449690.569212 can_line   can1  216   [8]  B5 CA 94 A9 00 00 00 00
1508449690.589515 can_line   can1  216   [8]  B5 CA 94 A9 00 00 00 00
1508449690.609295 can_line   can1  216   [8]  B5 CA 94 A9 00 00 00 00
1508449690.629600 can_line   can1  216   [8]  B5 CA 94 A9 00 00 00 00
1508449690.649310 can_line   can1  216   [8]  B5 CA 94 A9 00 00 00 00
1508449690.669146 can_line   can1  216   [8]  B5 CA 94 A9 00 00 00 00
1508449690.689170 can_line   can1  216   [8]  B5 CA 94 A9 00 00 00 00
1508449690.709678 can_line   can1  216   [8]  B5 CA 94 A9 00 00 00 00
1508449690.729381 can_line   can1  216   [8]  B5 CA 94 A9 00 00 00 00
1508449690.749293 can_line   can1  216   [8]  B5 CA 94 A9 00 00 00 00
1508449690.769927 can_line   can1  216   [8]  B5 CA 94 A9 00 00 00 00
1508449690.789122 can_line   can1  216   [8]  B5 CA 94 A9 00 00 00 00
1508449690.809365 can_line   can1  216   [8]  B5 CA 94 A9 00 00 00 00
1508449690.829832 can_line   can1  216   [8]  B5 CA 94 A9 00 00 00 00
1508449690.849338 can_line   can1  216   [8]  B5 CA 94 A9 00 00 00 00
1508449690.869496 can_line   can1  216   [8]  B5 CA 94 A9 00 00 00 00
1508449690.889603 can_line   can1  216   [8]  B5 CA 94 A9 00 00 00 00
1508449690.909049 can_line   can1  216   [8]  B5 CA 94 A9 00 00 00 00
1508449690.929492 can_line   can1  216   [8]  B5 CA 94 A9 00 00 00 00
1508449690.949257 can_line   can1  216   [8]  B5 CA 94 A9 00 00 00 00
1508449690.968919 can_line   can1  216   [8]  B5 CA 94 A9 00 00 00 00
1508449690.988922 can_line   can1  216   [8]  B5 CA 94 A9 00 00 00 00
1508449691.009423 can_line   can1  216   [8]  B5 CA 94 A9 00 00 00 00
1508449691.029369 can_line   can1  216   [8]  B5 CA 94 A9 00 00 00 00
1508449691.049417 can_line   can1  216   [8]  B5 CA 94 A9 00 00 00 00
1508449691.068904 can_line   can1  216   [8]  B5 CA 94 A9 00 00 00 00
1508449691.089267 can_line   can1  216   [8]  B5 CA 94 A9 00 00 00 00
1508449691.109098 can_line   can1  216   [8]  B5 CA 94 A9 00 00 00 00
1508449691.129492 can_line   can1  216   [8]  B5 CA 94 A9 00 00 00 00
1508449691.149032 can_line   can1  216   [8]  B5 CA 94 A9 00 00 00 00
1508449691.169122 can_line   can1  216   [8]  B5 CA 94 A9 00 00 00 00
1508449691.189569 can_line   can1  216   [8]  B5 CA 94 A9 00 00 00 00
1508449691.209073 can_line   can1  216   [8]  B5 CA 94 A9 00 00 00 00
1508449691.229356 can_line   can1  216   [8]  B5 CA 94 A9 00 00 00 00
1508449691.248916 can_line   can1  216   [8]  B5 CA 94 A9 00 00 00 00
1508449691.269121 can_line   can1  216   [8]  B5 CA 94 A9 00 00 00 00
1508449691.289311 can_line   can1  216   [8]  B5 CA 94 A9 00 00 00 00
1508449691.309604 can_line   can1  216   [8]  B5 CA 94 A9 00 00 00 00
1508449691.330725 can_line   can1  216   [8]  B5 CA 94 A9 00 00 00 00
1508449691.349391 can_line   can1  216   [8]  B5 CA 94 A9 00 00 00 00
1508449691.369034 can_line   can1  216   [8]  B5 CA 94 A9 00 00 00 00
1508449691.389949 can_line   can1  216   [8]  B5 CA 94 A9 00 00 00 00
1508449691.408712 can_line   can1  216   [8]  B5 CA 94 A9 00 00 00 00
1508449691.430194 can_line   can1  216   [8]  B5 CA 94 A9 00 00 00 00
1508449691.449407 can_line   can1  216   [8]  B5 CA 94 A9 00 00 00 00
1508449691.469644 can_line   can1  216   [8]  B5 CA 94 A9 00 00 00 00
1508449691.489388 can_line   can1  216   [8]  B5 CA 94 A9 00 00 00 00
1508449691.508997 can_line   can1  216   [8]  B5 CA 94 A9 00 00 00 00
1508449691.529870 can_line   can1  216   [8]  B5 CA 94 A9 00 00 00 00
1508449691.550036 can_line   can1  216   [8]  B5 CA 94 A9 00 00 00 00
1508449691.569102 can_line   can1  216   [8]  B5 CA 94 A9 00 00 00 00
1508449691.589108 can_line   can1  216   [8]  B5 CA 94 A9 00 00 00 00
1508449691.609039 can_line   can1  216   [8]  B5 CA 94 A9 00 00 00 00
1508449691.629930 can_line   can1  216   [8]  B5 CA 94 A9 00 00 00 00
1508449691.649593 can_line   can1  216   [8]  B5 CA 94 A9 00 00 00 00
1508449691.669191 can_line   can1  216   [8]  B5 CA 94 A9 00 00 00 00
1508449691.688945 can_line   can1  216   [8]  B5 CA 94 A9 00 00 00 00
1508449691.708714 can_line   can1  216   [8]  B5 CA 94 A9 00 00 00 00
1508449691.729365 can_line   can1  216   [8]  B5 CA 94 A9 00 00 00 00
1508449691.749352 can_line   can1  216   [8]  B5 CA 94 A9 00 00 00 00
1508449691.769351 can_line   can1  216   [8]  B5 CA 94 A9 00 00 00 00
1508449691.789164 can_line   can1  216   [8]  B5 CA 94 A9 00 00 00 00
1508449691.808838 can_line   can1  216   [8]  B5 CA 94 A9 00 00 00 00
1508449691.830150 can_line   can1  216   [8]  B5 CA 94 A9 00 00 00 00
1508449691.849029 can_line   can1  216   [8]  B5 CA 94 A9 00 00 00 00
1508449691.869227 can_line   can1  216   [8]  B5 CA 94 A9 00 00 00 00
1508449691.888941 can_line   can1  216   [8]  B5 CA 94 A9 00 00 00 00
1508449691.909432 can_line   can1  216   [8]  B5 CA 94 A9 00 00 00 00
1508449691.929349 can_line   can1  216   [8]  B5 CA 94 A9 00 00 00 00
1508449691.949096 can_line   can1  216   [8]  B5 CA 94 A9 00 00 00 00
1508449691.968930 can_line   can1  216   [8]  B5 CA 94 A9 00 00 00 00
1508449691.988815 can_line   can1  216   [8]  B5 CA 94 A9 00 00 00 00
1508449692.009638 can_line   can1  216   [8]  B5 CA 94 A9 00 00 00 00
1508449692.029570 can_line   can1  216   [8]  B5 CA 94 A9 00 00 00 00
1508449692.048832 can_line   can1  216   [8]  B5 CA 94 A9 00 00 00 00
1508449692.070277 can_line   can1  216   [8]  B5 CA 94 A9 00 00 00 00
1508449692.089199 can_line   can1  216   [8]  B5 CA 94 A9 00 00 00 00
1508449692.109101 can_line   can1  216   [8]  B5 CA 94 A9 00 00 00 00
1508449692.129515 can_line   can1  216   [8]  B5 CA 94 A9 00 00 00 00
1508449692.149332 can_line   can1  216   [8]  B5 CA 94 A9 00 00 00 00
1508449692.169295 can_line   can1  216   [8]  B5 CA 94 A9 00 00 00 00
1508449692.189098 can_line   can1  216   [8]  B5 CA 94 A9 00 00 00 00
1508449692.208775 can_line   can1  216   [8]  B5 CA 94 A9 00 00 00 00
1508449692.229279 can_line   can1  216   [8]  B5 CA 94 A9 00 00 00 00
1508449692.249406 can_line   can1  216   [8]  B5 CA 94 A9 00 00 00 00
1508449692.269176 can_line   can1  216   [8]  B5 CA 94 A9 00 00 00 00
1508449692.289001 can_line   can1  216   [8]  B5 CA 94 A9 00 00 00 00
1508449692.309311 can_line   can1  216   [8]  B5 CA 94 A9 00 00 00 00
1508449692.329433 can_line   can1  216   [8]  B5 CA 94 A9 00 00 00 00
1508449692.348783 can_line   can1  216   [8]  B5 CA 94 A9 00 00 00 00
1508449692.368960 can_line   can1  216   [8]  B5 CA 94 A9 00 00 00 00
1508449692.389175 can_line   can1  216   [8]  B5 CA 94 A9 00 00 00 00
1508449692.409195 can_line   can1  216   [8]  B5 CA 94 A9 00 00 00 00
1508449692.429346 can_line   can1  216   [8]  B5 CA 94 A9 00 00 00 00
1508449692.449002 can_line   can1  216   [8]  B5 CA 94 A9 00 00 00 00
1508449692.469040 can_line   can1  216   [8]  B5 CA 94 A9 00 00 00 00
1508449692.489547 can_line   can1  216   [8]  B5 CA 94 A9 00 00 00 00
1508449692.509193 can_line   can1  216   [8]  B5 CA 94 A9 00 00 00 00
1508449692.529139 can_line   can1  216   [8]  B5 CA 94 A9 00 00 00 00
1508449692.549206 can_line   can1  216   [8]  B5 CA 94 A9 00 00 00 00
1508449692.569256 can_line   can1  216   [8]  B5 CA 94 A9 00 00 00 00
1508449692.589031 can_line   can1  216   [8]  B5 CA 94 A9 00 00 00 00
1508449692.609051 can_line   can1  216   [8]  B5 CA 94 A9 00 00 00 00
1508449692.629446 can_line   can1  216   [8]  B5 CA 94 A9 00 00 00 00
1508449692.649444 can_line   can1  216   [8]  B5 CA 94 A9 00 00 00 00
1508449692.668994 can_line   can1  216   [8]  B5 CA 94 A9 00 00 00 00
1508449692.689093 can_line   can1  216   [8]  B5 CA 94 A9 00 00 00 00
1508449692.709238 can_line   can1  216   [8]  B5 CA 94 A9 00 00 00 00
1508449692.729508 can_line   can1  216   [8]  B5 CA 94 A9 00 00 00 00
1508449692.749087 can_line   can1  216   [8]  B5 CA 94 A9 00 00 00 00
1508449692.769309 can_line   can1  216   [8]  B5 CA 94 A9 00 00 00 00
1508449692.789190 can_line   can1  216   [8]  B5 CA 94 A9 00 00 00 00
1508449692.809043 can_line   can1  216   [8]  B5 CA 94 A9 00 00 00 00
1508449692.829275 can_line   can1  216   [8]  B5 CA 94 A9 00 00 00 00
1508449692.849188 can_line   can1  216   [8]  B5 CA 94 A9 00 00 00 00
1508449692.869279 can_line   can1  216   [8]  B5 CA 94 A9 00 00 00 00
1508449692.889060 can_line   can1  216   [8]  B5 CA 94 A9 00 00 00 00
1508449692.909088 can_line   can1  216   [8]  B5 CA 94 A9 00 00 00 00
1508449692.929568 can_line   can1  216   [8]  B5 CA 94 A9 00 00 00 00
1508449692.949183 can_line   can1  216   [8]  B5 CA 94 A9 00 00 00 00
1508449692.969101 can_line   can1  216   [8]  B5 CA 94 A9 00 00 00 00
1508449692.989122 can_line   can1  216   [8]  B5 CA 94 A9 00 00 00 00
1508449693.009141 can_line   can1  216   [8]  B5 CA 94 A9 00 00 00 00
1508449693.029436 can_line   can1  216   [8]  B5 CA 94 A9 00 00 00 00
1508449693.049800 can_line   can1  216   [8]  B5 CA 94 A9 00 00 00 00
1508449693.069221 can_line   can1  216   [8]  B5 CA 94 A9 00 00 00 00
1508449693.089038 can_line   can1  216   [8]  B5 CA 94 A9 00 00 00 00
1508449693.109206 can_line   can1  216   [8]  B5 CA 94 A9 00 00 00 00
1508449693.129787 can_line   can1  216   [8]  B5 CA 94 A9 00 00 00 00
1508449693.149253 can_line   can1  216   [8]  B5 CA 94 A9 00 00 00 00
1508449693.169753 can_line   can1  216   [8]  B5 CA 94 A9 00 00 00 00
1508449693.188813 can_line   can1  216   [8]  B5 CA 94 A9 00 00 00 00
1508449693.209320 can_line   can1  216   [8]  B5 CA 94 A9 00 00 00 00
1508449693.229234 can_line   can1  216   [8]  B5 CA 94 A9 00 00 00 00
1508449693.249442 can_line   can1  216   [8]  B5 CA 94 A9 00 00 00 00
1508449693.269240 can_line   can1  216   [8]  B5 CA 94 A9 00 00 00 00
1508449693.289968 can_line   can1  216   [8]  B5 CA 94 A9 00 00 00 00
1508449693.308937 can_line   can1  216   [8]  B5 CA 94 A9 00 00 00 00
1508449693.330634 can_line   can1  216   [8]  B5 CA 94 A9 00 00 00 00
1508449693.349246 can_line   can1  216   [8]  B5 CA 94 A9 00 00 00 00
1508449693.369803 can_line   can1  216   [8]  B5 CA 94 A9 00 00 00 00
1508449693.388771 can_line   can1  216   [8]  B5 CA 94 A9 00 00 00 00
1508449693.409378 can_line   can1  216   [8]  B5 CA 94 A9 00 00 00 00
1508449693.429249 can_line   can1  216   [8]  B5 CA 94 A9 00 00 00 00
1508449693.449964 can_line   can1  216   [8]  B5 CA 94 A9 00 00 00 00
1508449693.469244 can_line   can1  216   [8]  B5 CA 94 A9 00 00 00 00
1508449693.489601 can_line   can1  216   [8]  B5 CA 94 A9 00 00 00 00
1508449693.508929 can_line   can1  216   [8]  B5 CA 94 A9 00 00 00 00
1508449693.529862 can_line   can1  216   [8]  B5 CA 94 A9 00 00 00 00
1508449693.548918 can_line   can1  216   [8]  B5 CA 94 A9 00 00 00 00
1508449693.569884 can_line   can1  216   [8]  B5 CA 94 A9 00 00 00 00
1508449693.589223 can_line   can1  216   [8]  B5 CA 94 A9 00 00 00 00
1508449693.609952 can_line   can1  216   [8]  B5 CA 94 A9 00 00 00 00
1508449693.629424 can_line   can1  216   [8]  B5 CA 94 A9 00 00 00 00
1508449693.649089 can_line   can1  216   [8]  B5 CA 94 A9 00 00 00 00
1508449693.669278 can_line   can1  216   [8]  B5 CA 94 A9 00 00 00 00
1508449693.688848 can_line   can1  216   [8]  B5 CA 94 A9 00 00 00 00
1508449693.709041 can_line   can1  216   [8]  B5 CA 94 A9 00 00 00 00
1508449693.729577 can_line   can1  216   [8]  B5 CA 94 A9 00 00 00 00
1508449693.749097 can_line   can1  216   [8]  B5 CA 94 A9 00 00 00 00
1508449693.768992 can_line   can1  216   [8]  B5 CA 94 A9 00 00 00 00
1508449693.789215 can_line   can1  216   [8]  B5 CA 94 A9 00 00 00 00
1508449693.808900 can_line   can1  216   [8]  B5 CA 94 A9 00 00 00 00
1508449693.829040 can_line   can1  216   [8]  B5 CA 94 A9 00 00 00 00
1508449693.849369 can_line   can1  216   [8]  B5 CA 94 A9 00 00 00 00
1508449693.868930 can_line   can1  216   [8]  B5 CA 94 A9 00 00 00 00
1508449693.888903 can_line   can1  216   [8]  B5 CA 94 A9 00 00 00 00
1508449693.909135 can_line   can1  216   [8]  B5 CA 94 A9 00 00 00 00
1508449693.929258 can_line   can1  216   [8]  B5 CA 94 A9 00 00 00 00
1508449693.949760 can_line   can1  216   [8]  B5 CA 94 A9 00 00 00 00
1508449693.969437 can_line   can1  216   [8]  B5 CA 94 A9 00 00 00 00
1508449693.989060 can_line   can1  216   [8]  B5 CA 94 A9 00 00 00 00
1508449694.009153 can_line   can1  216   [8]  B5 CA 94 A9 00 00 00 00
1508449694.029233 can_line   can1  216   [8]  B5 CA 94 A9 00 00 00 00
1508449694.049036 can_line   can1  216   [8]  B5 CA 94 A9 00 00 00 00
1508449694.069261 can_line   can1  216   [8]  B5 CA 94 A9 00 00 00 00
1508449694.089032 can_line   can1  216   [8]  B5 CA 94 A9 00 00 00 00
1508449694.108982 can_line   can1  216   [8]  B5 CA 94 A9 00 00 00 00
1508449694.129292 can_line   can1  216   [8]  B5 CA 94 A9 00 00 00 00
1508449694.149251 can_line   can1  216   [8]  B5 CA 94 A9 00 00 00 00
1508449694.169148 can_line   can1  216   [8]  B5 CA 94 A9 00 00 00 00
1508449694.189042 can_line   can1  216   [8]  B5 CA 94 A9 00 00 00 00
1508449694.209165 can_line   can1  216   [8]  B5 CA 94 A9 00 00 00 00
1508449694.229153 can_line   can1  216   [8]  B5 CA 94 A9 00 00 00 00
1508449694.249024 can_line   can1  216   [8]  B5 CA 94 A9 00 00 00 00
1508449694.269518 can_line   can1  216   [8]  B5 CA 94 A9 00 00 00 00
1508449694.289086 can_line   can1  216   [8]  B5 CA 94 A9 00 00 00 00
1508449694.309130 can_line   can1  216   [8]  B5 CA 94 A9 00 00 00 00
1508449694.329256 can_line   can1  216   [8]  B5 CA 94 A9 00 00 00 00
1508449694.348687 can_line   can1  216   [8]  B5 CA 94 A9 00 00 00 00
1508449694.369120 can_line   can1  216   [8]  B5 CA 94 A9 00 00 00 00
1508449694.389012 can_line   can1  216   [8]  B5 CA 94 A9 00 00 00 00
1508449694.409276 can_line   can1  216   [8]  B5 CA 94 A9 00 00 00 00
1508449694.429381 can_line   can1  216   [8]  B5 CA 94 A9 00 00 00 00
1508449694.449130 can_line   can1  216   [8]  B5 CA 94 A9 00 00 00 00
1508449694.469247 can_line   can1  216   [8]  B5 CA 94 A9 00 00 00 00
1508449694.488850 can_line   can1  216   [8]  B5 CA 94 A9 00 00 00 00
1508449694.509246 can_line   can1  216   [8]  B5 CA 94 A9 00 00 00 00
1508449694.528957 can_line   can1  216   [8]  B5 CA 94 A9 00 00 00 00
1508449694.548888 can_line   can1  216   [8]  B5 CA 94 A9 00 00 00 00
1508449694.568843 can_line   can1  216   [8]  B5 CA 94 A9 00 00 00 00
1508449694.589637 can_line   can1  216   [8]  B5 CA 94 A9 00 00 00 00
1508449694.609006 can_line   can1  216   [8]  B5 CA 94 A9 00 00 00 00
1508449694.629695 can_line   can1  216   [8]  B5 CA 94 A9 00 00 00 00
1508449694.648987 can_line   can1  216   [8]  B5 CA 94 A9 00 00 00 00
1508449694.669353 can_line   can1  216   [8]  B5 CA 94 A9 00 00 00 00
1508449694.688837 can_line   can1  216   [8]  B5 CA 94 A9 00 00 00 00
1508449694.709068 can_line   can1  216   [8]  B5 CA 94 A9 00 00 00 00
1508449694.729166 can_line   can1  216   [8]  B5 CA 94 A9 00 00 00 00
1508449694.749949 can_line   can1  216   [8]  B5 CA 94 A9 00 00 00 00
1508449694.769237 can_line   can1  216   [8]  B5 CA 94 A9 00 00 00 00
1508449694.789022 can_line   can1  216   [8]  B5 CA 94 A9 00 00 00 00
1508449694.809190 can_line   can1  216   [8]  B5 CA 94 A9 00 00 00 00
1508449694.829389 can_line   can1  216   [8]  B5 CA 94 A9 00 00 00 00
1508449694.849116 can_line   can1  216   [8]  B5 CA 94 A9 00 00 00 00
1508449694.869515 can_line   can1  216   [8]  B5 CA 94 A9 00 00 00 00
1508449694.889049 can_line   can1  216   [8]  B5 CA 94 A9 00 00 00 00
1508449694.908948 can_line   can1  216   [8]  B5 CA 94 A9 00 00 00 00
1508449694.929321 can_line   can1  216   [8]  B5 CA 94 A9 00 00 00 00
1508449694.949073 can_line   can1  216   [8]  B5 CA 94 A9 00 00 00 00
1508449694.969034 can_line   can1  216   [8]  B5 CA 94 A9 00 00 00 00
1508449694.989207 can_line   can1  216   [8]  B5 CA 94 A9 00 00 00 00
1508449695.008916 can_line   can1  216   [8]  B5 CA 94 A9 00 00 00 00
1508449695.029247 can_line   can1  216   [8]  B5 CA 94 A9 00 00 00 00
1508449695.049194 can_line   can1  216   [8]  B5 CA 94 A9 00 00 00 00
1508449695.069037 can_line   can1  216   [8]  B5 CA 94 A9 00 00 00 00
1508449695.088949 can_line   can1  216   [8]  B5 CA 94 A9 00 00 00 00
1508449695.109066 can_line   can1  216   [8]  B5 CA 94 A9 00 00 00 00
1508449695.129077 can_line   can1  216   [8]  B5 CA 94 A9 00 00 00 00
1508449695.148956 can_line   can1  216   [8]  B5 CA 94 A9 00 00 00 00
1508449695.169222 can_line   can1  216   [8]  B5 CA 94 A9 00 00 00 00
1508449695.189056 can_line   can1  216   [8]  B5 CA 94 A9 00 00 00 00
1508449695.208914 can_line   can1  216   [8]  B5 CA 94 A9 00 00 00 00
1508449695.229161 can_line   can1  216   [8]  B5 CA 94 A9 00 00 00 00
1508449695.248884 can_line   can1  216   [8]  B5 CA 94 A9 00 00 00 00
1508449695.269211 can_line   can1  216   [8]  B5 CA 94 A9 00 00 00 00
1508449695.289181 can_line   can1  216   [8]  B5 CA 94 A9 00 00 00 00
1508449695.308917 can_line   can1  216   [8]  B5 CA 94 A9 00 00 00 00
1508449695.329187 can_line   can1  216   [8]  B5 CA 94 A9 00 00 00 00
1508449695.349057 can_line   can1  216   [8]  B5 CA 94 A9 00 00 00 00
1508449695.369101 can_line   can1  216   [8]  B5 CA 94 A9 00 00 00 00
1508449695.388919 can_line   can1  216   [8]  B5 CA 94 A9 00 00 00 00
1508449695.408908 can_line   can1  216   [8]  B5 CA 94 A9 00 00 00 00
1508449695.429443 can_line   can1  216   [8]  B5 CA 94 A9 00 00 00 00
1508449695.448877 can_line   can1  216   [8]  B5 CA 94 A9 00 00 00 00
1508449695.468943 can_line   can1  216   [8]  B5 CA 94 A9 00 00 00 00
1508449695.489001 can_line   can1  216   [8]  B5 CA 94 A9 00 00 00 00
1508449695.509054 can_line   can1  216   [8]  B5 CA 94 A9 00 00 00 00
1508449695.529185 can_line   can1  216   [8]  B5 CA 94 A9 00 00 00 00
1508449695.548722 can_line   can1  216   [8]  B5 CA 94 A9 00 00 00 00
1508449695.569008 can_line   can1  216   [8]  B5 CA 94 A9 00 00 00 00
1508449695.589079 can_line   can1  216   [8]  B5 CA 94 A9 00 00 00 00
1508449695.608940 can_line   can1  216   [8]  B5 CA 94 A9 00 00 00 00
1508449695.628939 can_line   can1  216   [8]  B5 CA 94 A9 00 00 00 00
1508449695.648892 can_line   can1  216   [8]  B5 CA 94 A9 00 00 00 00
1508449695.669051 can_line   can1  216   [8]  B5 CA 94 A9 00 00 00 00
1508449695.688889 can_line   can1  216   [8]  B5 CA 94 A9 00 00 00 00
1508449695.709782 can_line   can1  216   [8]  B5 CA 94 A9 00 00 00 00
1508449695.729153 can_line   can1  216   [8]  B5 CA 94 A9 00 00 00 00
1508449695.749023 can_line   can1  216   [8]  B5 CA 94 A9 00 00 00 00
1508449695.769207 can_line   can1  216   [8]  B5 CA 94 A9 00 00 00 00
1508449695.788792 can_line   can1  216   [8]  B5 CA 94 A9 00 00 00 00
1508449695.808817 can_line   can1  216   [8]  B5 CA 94 A9 00 00 00 00
1508449695.829202 can_line   can1  216   [8]  B5 CA 94 A9 00 00 00 00
1508449695.848829 can_line   can1  216   [8]  B5 CA 94 A9 00 00 00 00
1508449695.869020 can_line   can1  216   [8]  B5 CA 94 A9 00 00 00 00
1508449695.888973 can_line   can1  216   [8]  B5 CA 94 A9 00 00 00 00
1508449695.908926 can_line   can1  216   [8]  B5 CA 94 A9 00 00 00 00
1508449695.929172 can_line   can1  216   [8]  B5 CA 94 A9 00 00 00 00
1508449695.949608 can_line   can1  216   [8]  B5 CA 94 A9 00 00 00 00
1508449695.969084 can_line   can1  216   [8]  B5 CA 94 A9 00 00 00 00
1508449695.988928 can_line   can1  216   [8]  B5 CA 94 A9 00 00 00 00
1508449696.008939 can_line   can1  216   [8]  B5 CA 94 A9 00 00 00 00
1508449696.029526 can_line   can1  216   [8]  B5 CA 94 A9 00 00 00 00
1508449696.048830 can_line   can1  216   [8]  B5 CA 94 A9 00 00 00 00
1508449696.068932 can_line   can1  216   [8]  B5 CA 94 A9 00 00 00 00
1508449696.088821 can_line   can1  216   [8]  B5 CA 94 A9 00 00 00 00
1508449696.109051 can_line   can1  216   [8]  B5 CA 94 A9 00 00 00 00
1508449696.129268 can_line   can1  216   [8]  B5 CA 94 A9 00 00 00 00
1508449696.148932 can_line   can1  216   [8]  B5 CA 94 A9 00 00 00 00
1508449696.168998 can_line   can1  216   [8]  B5 CA 94 A9 00 00 00 00
1508449696.189438 can_line   can1  216   [8]  B5 CA 94 A9 00 00 00 00
1508449696.208785 can_line   can1  216   [8]  B5 CA 94 A9 00 00 00 00
1508449696.229232 can_line   can1  216   [8]  B5 CA 94 A9 00 00 00 00
1508449696.248754 can_line   can1  216   [8]  B5 CA 94 A9 00 00 00 00
1508449696.269180 can_line   can1  216   [8]  B5 CA 94 A9 00 00 00 00
1508449696.288848 can_line   can1  216   [8]  B5 CA 94 A9 00 00 00 00
1508449696.308928 can_line   can1  216   [8]  B5 CA 94 A9 00 00 00 00
1508449696.328967 can_line   can1  216   [8]  B5 CA 94 A9 00 00 00 00
1508449696.349101 can_line   can1  216   [8]  B5 CA 94 A9 00 00 00 00
1508449696.368955 can_line   can1  216   [8]  B5 CA 94 A9 00 00 00 00
1508449696.389186 can_line   can1  216   [8]  B5 CA 94 A9 00 00 00 00
1508449696.408712 can_line   can1  216   [8]  B5 CA 94 A9 00 00 00 00
1508449696.429308 can_line   can1  216   [8]  B5 CA 94 A9 00 00 00 00
1508449696.448824 can_line   can1  216   [8]  B5 CA 94 A9 00 00 00 00
1508449696.468792 can_line   can1  216   [8]  B5 CA 94 A9 00 00 00 00
1508449696.488947 can_line   can1  216   [8]  B5 CA 94 A9 00 00 00 00
1508449696.509220 can_line   can1  216   [8]  B5 CA 94 A9 00 00 00 00
1508449696.528981 can_line   can1  216   [8]  B5 CA 94 A9 00 00 00 00
1508449696.548901 can_line   can1  216   [8]  B5 CA 94 A9 00 00 00 00
1508449696.568951 can_line   can1  216   [8]  B5 CA 94 A9 00 00 00 00
1508449696.589098 can_line   can1  216   [8]  B5 CA 94 A9 00 00 00 00
1508449696.608785 can_line   can1  216   [8]  B5 CA 94 A9 00 00 00 00
1508449696.629189 can_line   can1  216   [8]  B5 CA 94 A9 00 00 00 00
1508449696.648838 can_line   can1  216   [8]  B5 CA 94 A9 00 00 00 00
1508449696.669191 can_line   can1  216   [8]  B5 CA 94 A9 00 00 00 00
1508449696.688929 can_line   can1  216   [8]  B5 CA 94 A9 00 00 00 00
1508449696.708575 can_line   can1  216   [8]  B5 CA 94 A9 00 00 00 00
1508449696.729183 can_line   can1  216   [8]  B5 CA 94 A9 00 00 00 00
1508449696.748728 can_line   can1  216   [8]  B5 CA 94 A9 00 00 00 00
1508449696.768984 can_line   can1  216   [8]  B5 CA 94 A9 00 00 00 00
1508449696.789533 can_line   can1  216   [8]  B5 CA 94 A9 00 00 00 00
1508449696.808772 can_line   can1  216   [8]  B5 CA 94 A9 00 00 00 00
1508449696.829648 can_line   can1  216   [8]  B5 CA 94 A9 00 00 00 00
1508449696.848933 can_line   can1  216   [8]  B5 CA 94 A9 00 00 00 00
1508449696.869382 can_line   can1  216   [8]  B5 CA 94 A9 00 00 00 00
1508449696.888834 can_line   can1  216   [8]  B5 CA 94 A9 00 00 00 00
1508449696.908936 can_line   can1  216   [8]  B5 CA 94 A9 00 00 00 00
1508449696.929202 can_line   can1  216   [8]  B5 CA 94 A9 00 00 00 00
1508449696.948795 can_line   can1  216   [8]  B5 CA 94 A9 00 00 00 00
1508449696.968984 can_line   can1  216   [8]  B5 CA 94 A9 00 00 00 00
1508449696.989129 can_line   can1  216   [8]  B5 CA 94 A9 00 00 00 00
1508449697.008773 can_line   can1  216   [8]  B5 CA 94 A9 00 00 00 00
1508449697.029394 can_line   can1  216   [8]  B5 CA 94 A9 00 00 00 00
1508449697.048779 can_line   can1  216   [8]  B5 CA 94 A9 00 00 00 00
1508449697.069110 can_line   can1  216   [8]  B5 CA 94 A9 00 00 00 00
1508449697.088766 can_line   can1  216   [8]  B5 CA 94 A9 00 00 00 00
1508449697.108935 can_line   can1  216   [8]  B5 CA 94 A9 00 00 00 00
1508449697.129156 can_line   can1  216   [8]  B5 CA 94 A9 00 00 00 00
1508449697.149107 can_line   can1  216   [8]  B5 CA 94 A9 00 00 00 00
1508449697.168931 can_line   can1  216   [8]  B5 CA 94 A9 00 00 00 00
1508449697.188947 can_line   can1  216   [8]  B5 CA 94 A9 00 00 00 00
1508449697.208751 can_line   can1  216   [8]  B5 CA 94 A9 00 00 00 00
1508449697.230856 can_line   can1  216   [8]  B5 CA 94 A9 00 00 00 00
1508449697.248733 can_line   can1  216   [8]  B5 CA 94 A9 00 00 00 00
1508449697.268938 can_line   can1  216   [8]  B5 CA 94 A9 00 00 00 00
1508449697.288879 can_line   can1  216   [8]  B5 CA 94 A9 00 00 00 00
1508449697.309336 can_line   can1  216   [8]  B5 CA 94 A9 00 00 00 00
1508449697.328689 can_line   can1  216   [8]  B5 CA 94 A9 00 00 00 00
1508449697.349237 can_line   can1  216   [8]  B5 CA 94 A9 00 00 00 00
1508449697.368620 can_line   can1  216   [8]  B5 CA 94 A9 00 00 00 00
1508449697.390632 can_line   can1  216   [8]  B5 CA 94 A9 00 00 00 00
1508449697.409347 can_line   can1  216   [8]  B5 CA 94 A9 00 00 00 00
1508449697.431715 can_line   can1  216   [8]  B5 CA 94 A9 00 00 00 00
1508449697.449875 can_line   can1  216   [8]  B5 CA 94 A9 00 00 00 00
1508449697.470952 can_line   can1  216   [8]  B5 CA 94 A9 00 00 00 00
1508449697.489685 can_line   can1  216   [8]  B5 CA 94 A9 00 00 00 00
1508449697.510457 can_line   can1  216   [8]  B5 CA 94 A9 00 00 00 00
1508449697.529216 can_line   can1  216   [8]  B5 CA 94 A9 00 00 00 00
1508449697.549371 can_line   can1  216   [8]  B5 CA 94 A9 00 00 00 00
1508449697.568840 can_line   can1  216   [8]  B5 CA 94 A9 00 00 00 00
1508449697.588627 can_line   can1  216   [8]  B5 CA 94 A9 00 00 00 00
1508449697.608826 can_line   can1  216   [8]  B5 CA 94 A9 00 00 00 00
1508449697.629865 can_line   can1  216   [8]  B5 CA 94 A9 00 00 00 00
1508449697.648637 can_line   can1  216   [8]  B5 CA 94 A9 00 00 00 00
1508449697.668365 can_line   can1  216   [8]  B5 CA 94 A9 00 00 00 00
1508449697.688861 can_line   can1  216   [8]  B5 CA 94 A9 00 00 00 00
1508449697.709683 can_line   can1  216   [8]  B5 CA 94 A9 00 00 00 00
1508449697.728664 can_line   can1  216   [8]  B5 CA 94 A9 00 00 00 00
1508449697.748401 can_line   can1  216   [8]  B5 CA 94 A9 00 00 00 00
1508449697.768506 can_line   can1  216   [8]  B5 CA 94 A9 00 00 00 00
1508449697.788683 can_line   can1  216   [8]  B5 CA 94 A9 00 00 00 00
1508449697.808764 can_line   can1  216   [8]  B5 CA 94 A9 00 00 00 00
1508449697.829471 can_line   can1  216   [8]  B5 CA 94 A9 00 00 00 00
1508449697.848756 can_line   can1  216   [8]  B5 CA 94 A9 00 00 00 00
1508449697.868331 can_line   can1  216   [8]  B5 CA 94 A9 00 00 00 00
1508449697.888970 can_line   can1  216   [8]  B5 CA 94 A9 00 00 00 00
1508449697.908722 can_line   can1  216   [8]  B5 CA 94 A9 00 00 00 00
1508449697.928737 can_line   can1  216   [8]  B5 CA 94 A9 00 00 00 00
1508449697.948581 can_line   can1  216   [8]  B5 CA 94 A9 00 00 00 00
1508449697.968420 can_line   can1  216   [8]  B5 CA 94 A9 00 00 00 00
1508449697.988322 can_line   can1  216   [8]  B5 CA 94 A9 00 00 00 00
1508449698.008266 can_line   can1  216   [8]  B5 CA 94 A9 00 00 00 00
1508449698.028861 can_line   can1  216   [8]  B5 CA 94 A9 00 00 00 00
1508449698.048356 can_line   can1  216   [8]  B5 CA 94 A9 00 00 00 00
1508449698.068308 can_line   can1  216   [8]  B5 CA 94 A9 00 00 00 00
1508449698.088316 can_line   can1  216   [8]  B5 CA 94 A9 00 00 00 00
1508449698.108293 can_line   can1  216   [8]  B5 CA 94 A9 00 00 00 00
1508449698.128714 can_line   can1  216   [8]  B5 CA 94 A9 00 00 00 00
1508449698.148283 can_line   can1  216   [8]  B5 CA 94 A9 00 00 00 00
1508449698.168276 can_line   can1  216   [8]  B5 CA 94 A9 00 00 00 00
1508449698.188331 can_line   can1  216   [8]  B5 CA 94 A9 00 00 00 00
1508449698.208367 can_line   can1  216   [8]  B5 CA 94 A9 00 00 00 00
1508449698.228776 can_line   can1  216   [8]  B5 CA 94 A9 00 00 00 00
1508449698.248354 can_line   can1  216   [8]  B5 CA 94 A9 00 00 00 00
1508449698.268401 can_line   can1  216   [8]  B5 CA 94 A9 00 00 00 00
1508449698.288396 can_line   can1  216   [8]  B5 CA 94 A9 00 00 00 00
1508449698.308624 can_line   can1  216   [8]  B5 CA 94 A9 00 00 00 00
1508449698.328983 can_line   can1  216   [8]  B5 CA 94 A9 00 00 00 00
1508449698.348331 can_line   can1  216   [8]  B5 CA 94 A9 00 00 00 00
1508449698.368316 can_line   can1  216   [8]  B5 CA 94 A9 00 00 00 00
1508449698.388272 can_line   can1  216   [8]  B5 CA 94 A9 00 00 00 00
1508449698.408271 can_line   can1  216   [8]  B5 CA 94 A9 00 00 00 00
1508449698.428763 can_line   can1  216   [8]  B5 CA 94 A9 00 00 00 00
1508449698.448488 can_line   can1  216   [8]  B5 CA 94 A9 00 00 00 00
1508449698.468459 can_line   can1  216   [8]  B5 CA 94 A9 00 00 00 00
1508449698.488456 can_line   can1  216   [8]  B5 CA 94 A9 00 00 00 00
1508449698.508941 can_line   can1  216   [8]  B5 CA 94 A9 00 00 00 00
1508449698.529113 can_line   can1  216   [8]  B5 CA 94 A9 00 00 00 00
1508449698.548601 can_line   can1  216   [8]  B5 CA 94 A9 00 00 00 00
1508449698.568485 can_line   can1  216   [8]  B5 CA 94 A9 00 00 00 00
1508449698.588602 can_line   can1  216   [8]  B5 CA 94 A9 00 00 00 00
1508449698.608709 can_line   can1  216   [8]  B5 CA 94 A9 00 00 00 00
1508449698.629063 can_line   can1  216   [8]  B5 CA 94 A9 00 00 00 00
1508449698.648552 can_line   can1  216   [8]  B5 CA 94 A9 00 00 00 00
1508449698.668320 can_line   can1  216   [8]  B5 CA 94 A9 00 00 00 00
1508449698.689827 can_line   can1  216   [8]  B5 CA 94 A9 00 00 00 00
1508449698.708390 can_line   can1  216   [8]  B5 CA 94 A9 00 00 00 00
1508449698.728945 can_line   can1  216   [8]  B5 CA 94 A9 00 00 00 00
1508449698.748660 can_line   can1  216   [8]  B5 CA 94 A9 00 00 00 00
1508449698.768406 can_line   can1  216   [8]  B5 CA 94 A9 00 00 00 00
1508449698.788429 can_line   can1  216   [8]  B5 CA 94 A9 00 00 00 00
1508449698.808119 can_line   can1  216   [8]  B5 CA 94 A9 00 00 00 00
1508449698.828361 can_line   can1  216   [8]  B5 CA 94 A9 00 00 00 00
1508449698.848160 can_line   can1  216   [8]  B5 CA 94 A9 00 00 00 00
1508449698.869019 can_line   can1  216   [8]  B5 CA 94 A9 00 00 00 00
1508449698.888731 can_line   can1  216   [8]  B5 CA 94 A9 00 00 00 00
1508449698.908725 can_line   can1  216   [8]  B5 CA 94 A9 00 00 00 00
1508449698.929372 can_line   can1  216   [8]  B5 CA 94 A9 00 00 00 00
1508449698.948862 can_line   can1  216   [8]  B5 CA 94 A9 00 00 00 00
1508449698.968838 can_line   can1  216   [8]  B5 CA 94 A9 00 00 00 00
1508449698.988892 can_line   can1  216   [8]  B5 CA 94 A9 00 00 00 00
1508449699.008701 can_line   can1  216   [8]  B5 CA 94 A9 00 00 00 00
1508449699.028788 can_line   can1  216   [8]  B5 CA 94 A9 00 00 00 00
1508449699.048679 can_line   can1  216   [8]  B5 CA 94 A9 00 00 00 00
1508449699.068286 can_line   can1  216   [8]  B5 CA 94 A9 00 00 00 00
1508449699.088213 can_line   can1  216   [8]  B5 CA 94 A9 00 00 00 00
1508449699.107999 can_line   can1  216   [8]  B5 CA 94 A9 00 00 00 00
1508449699.128421 can_line   can1  216   [8]  B5 CA 94 A9 00 00 00 00
1508449699.147900 can_line   can1  216   [8]  B5 CA 94 A9 00 00 00 00
1508449699.168778 can_line   can1  216   [8]  B5 CA 94 A9 00 00 00 00
1508449699.188759 can_line   can1  216   [8]  B5 CA 94 A9 00 00 00 00
1508449699.208804 can_line   can1  216   [8]  B5 CA 94 A9 00 00 00 00
1508449699.229001 can_line   can1  216   [8]  B5 CA 94 A9 00 00 00 00
1508449699.248475 can_line   can1  216   [8]  B5 CA 94 A9 00 00 00 00
1508449699.269169 can_line   can1  216   [8]  B5 CA 94 A9 00 00 00 00
1508449699.288494 can_line   can1  216   [8]  B5 CA 94 A9 00 00 00 00
1508449699.308764 can_line   can1  216   [8]  B5 CA 94 A9 00 00 00 00
1508449699.329319 can_line   can1  216   [8]  B5 CA 94 A9 00 00 00 00
1508449699.349000 can_line   can1  216   [8]  B5 CA 94 A9 00 00 00 00
1508449699.368959 can_line   can1  216   [8]  B5 CA 94 A9 00 00 00 00
1508449699.388620 can_line   can1  216   [8]  B5 CA 94 A9 00 00 00 00
1508449699.409165 can_line   can1  216   [8]  B5 CA 94 A9 00 00 00 00
1508449699.429117 can_line   can1  216   [8]  B5 CA 94 A9 00 00 00 00
1508449699.448439 can_line   can1  216   [8]  B5 CA 94 A9 00 00 00 00
1508449699.468873 can_line   can1  216   [8]  B5 CA 94 A9 00 00 00 00
1508449699.488982 can_line   can1  216   [8]  B5 CA 94 A9 00 00 00 00
1508449699.508914 can_line   can1  216   [8]  B5 CA 94 A9 00 00 00 00
1508449699.529268 can_line   can1  216   [8]  B5 CA 94 A9 00 00 00 00
1508449699.548704 can_line   can1  216   [8]  B5 CA 94 A9 00 00 00 00
1508449699.568862 can_line   can1  216   [8]  B5 CA 94 A9 00 00 00 00
1508449699.588955 can_line   can1  216   [8]  B5 CA 94 A9 00 00 00 00
1508449699.608578 can_line   can1  216   [8]  B5 CA 94 A9 00 00 00 00
1508449699.628893 can_line   can1  216   [8]  B5 CA 94 A9 00 00 00 00
1508449699.649196 can_line   can1  216   [8]  B5 CA 94 A9 00 00 00 00
1508449699.668983 can_line   can1  216   [8]  B5 CA 94 A9 00 00 00 00
1508449699.688480 can_line   can1  216   [8]  B5 CA 94 A9 00 00 00 00
1508449699.708758 can_line   can1  216   [8]  B5 CA 94 A9 00 00 00 00
1508449699.729134 can_line   can1  216   [8]  B5 CA 94 A9 00 00 00 00
1508449699.748971 can_line   can1  216   [8]  B5 CA 94 A9 00 00 00 00
1508449699.768365 can_line   can1  216   [8]  B5 CA 94 A9 00 00 00 00
1508449699.788108 can_line   can1  216   [8]  B5 CA 94 A9 00 00 00 00
1508449699.808469 can_line   can1  216   [8]  B5 CA 94 A9 00 00 00 00
1508449699.829042 can_line   can1  216   [8]  B5 CA 94 A9 00 00 00 00
1508449699.848680 can_line   can1  216   [8]  B5 CA 94 A9 00 00 00 00
1508449699.869028 can_line   can1  216   [8]  B5 CA 94 A9 00 00 00 00
1508449699.888964 can_line   can1  216   [8]  B5 CA 94 A9 00 00 00 00
1508449699.908796 can_line   can1  216   [8]  B5 CA 94 A9 00 00 00 00
1508449699.928450 can_line   can1  216   [8]  B5 CA 94 A9 00 00 00 00
1508449699.948221 can_line   can1  216   [8]  B5 CA 94 A9 00 00 00 00
1508449699.968705 can_line   can1  216   [8]  B5 CA 94 A9 00 00 00 00
1508449699.988803 can_line   can1  216   [8]  B5 CA 94 A9 00 00 00 00
1508449700.008552 can_line   can1  216   [8]  B6 CA 94 A9 00 00 00 00
1508449700.028774 can_line   can1  216   [8]  B6 CA 95 A9 00 00 00 00
1508449700.048780 can_line   can1  216   [8]  B6 CA 95 A9 00 00 00 00
1508449700.068677 can_line   can1  216   [8]  B6 CA 95 A9 00 00 00 00
1508449700.088513 can_line   can1  216   [8]  B6 CA 95 A9 00 00 00 00
1508449700.108540 can_line   can1  216   [8]  B6 CA 95 A9 00 00 00 00
1508449700.128980 can_line   can1  216   [8]  B6 CA 95 AA 00 00 00 00
1508449700.148686 can_line   can1  216   [8]  B6 CB 95 AA 00 00 00 00
1508449700.168133 can_line   can1  216   [8]  B7 CB 95 AA 00 00 00 00
1508449700.188134 can_line   can1  216   [8]  B7 CB 96 AA 00 00 00 00
1508449700.208132 can_line   can1  216   [8]  B7 CB 96 AA 00 00 00 00
1508449700.228659 can_line   can1  216   [8]  B7 CB 96 AA 00 00 00 00
1508449700.248893 can_line   can1  216   [8]  B7 CC 96 AB 00 00 00 00
1508449700.268793 can_line   can1  216   [8]  B8 CC 96 AB 00 00 00 00
1508449700.289193 can_line   can1  216   [8]  B8 CC 97 AB 00 00 00 00
1508449700.308388 can_line   can1  216   [8]  B8 CC 97 AB 00 00 00 00
1508449700.328659 can_line   can1  216   [8]  B9 CD 97 AC 00 00 00 00
1508449700.348608 can_line   can1  216   [8]  B9 CD 98 AC 00 00 00 00
1508449700.369178 can_line   can1  216   [8]  B9 CE 98 AC 00 00 00 00
1508449700.388681 can_line   can1  216   [8]  BA CE 98 AD 00 00 00 00
1508449700.409024 can_line   can1  216   [8]  BA CE 99 AD 00 00 00 00
1508449700.428778 can_line   can1  216   [8]  BB CF 99 AD 00 00 00 00
1508449700.448647 can_line   can1  216   [8]  BB CF 9A AE 00 00 00 00
1508449700.468471 can_line   can1  216   [8]  BC D0 9A AE 00 00 00 00
1508449700.488916 can_line   can1  216   [8]  BC D1 9B AF 00 00 00 00
1508449700.508619 can_line   can1  216   [8]  BD D1 9B AF 00 00 00 00
1508449700.529552 can_line   can1  216   [8]  BE D2 9C B0 00 00 00 00
1508449700.548773 can_line   can1  216   [8]  BE D3 9D B1 00 00 00 00
1508449700.569403 can_line   can1  216   [8]  BF D3 9D B1 00 00 00 00
1508449700.588786 can_line   can1  216   [8]  C0 D4 9E B2 00 00 00 00
1508449700.608843 can_line   can1  216   [8]  C0 D5 9F B3 00 00 00 00
1508449700.629292 can_line   can1  216   [8]  C1 D5 9F B4 00 00 00 00
1508449700.649348 can_line   can1  216   [8]  C2 D6 A0 B5 00 00 00 00
1508449700.668798 can_line   can1  216   [8]  C3 D7 A1 B5 00 00 00 00
1508449700.689043 can_line   can1  216   [8]  C4 D8 A2 B6 00 00 00 00
1508449700.708393 can_line   can1  216   [8]  C5 D9 A3 B7 00 00 00 00
1508449700.728914 can_line   can1  216   [8]  C6 DA A4 B8 00 00 00 00
1508449700.748733 can_line   can1  216   [8]  C7 DB A5 B9 00 00 00 00
1508449700.769600 can_line   can1  216   [8]  C8 DC A6 BA 00 00 00 00
1508449700.788797 can_line   can1  216   [8]  C9 DD A7 BB 00 00 00 00
1508449700.809033 can_line   can1  216   [8]  CA DE A8 BC 00 00 00 00
1508449700.829364 can_line   can1  216   [8]  CB DF A9 BD 00 00 00 00
1508449700.849507 can_line   can1  216   [8]  CC E0 AA BF 00 00 00 00
1508449700.869605 can_line   can1  216   [8]  CE E2 AC C0 00 00 00 00
1508449700.889033 can_line   can1  216   [8]  CF E3 AD C1 00 00 00 00
1508449700.909334 can_line   can1  216   [8]  D0 E4 AE C2 00 00 00 00
1508449700.929492 can_line   can1  216   [8]  D2 E6 B0 C4 00 00 00 00
1508449700.949074 can_line   can1  216   [8]  D3 E7 B1 C5 00 00 00 00
1508449700.968901 can_line   can1  216   [8]  D4 E8 B2 C6 00 00 00 00
1508449700.988793 can_line   can1  216   [8]  D6 EA B4 C8 00 00 00 00
1508449701.009965 can_line   can1  216   [8]  D7 EB B5 C9 00 00 00 00
1508449701.029344 can_line   can1  216   [8]  D9 ED B7 CB 00 00 00 00
1508449701.049605 can_line   can1  216   [8]  DB EF B8 CC 00 00 00 00
1508449701.068694 can_line   can1  216   [8]  DC F0 BA CE 00 00 00 00
1508449701.089099 can_line   can1  216   [8]  DE F2 BC D0 00 00 00 00
1508449701.108738 can_line   can1  216   [8]  E0 F4 BD D1 00 00 00 00
1508449701.129596 can_line   can1  216   [8]  E1 F5 BF D3 00 00 00 00
1508449701.148661 can_line   can1  216   [8]  E3 F7 C1 D5 00 00 00 00
1508449701.168576 can_line   can1  216   [8]  E5 F9 C3 D7 00 00 00 00
1508449701.188171 can_line   can1  216   [8]  E7 FB C4 D8 00 00 00 00
1508449701.208281 can_line   can1  216   [8]  E9 FD C6 DA 00 00 00 00
1508449701.228322 can_line   can1  216   [8]  EB FF C8 DC 00 00 00 00
1508449701.249101 can_line   can1  216   [8]  ED 01 CA DE 00 00 00 00
1508449701.268875 can_line   can1  216   [8]  EF 03 CC E0 00 00 00 00
1508449701.288877 can_line   can1  216   [8]  F1 05 CE E2 00 00 00 00
1508449701.308639 can_line   can1  216   [8]  F3 07 D0 E4 00 00 00 00
1508449701.329647 can_line   can1  216   [8]  F5 09 D3 E6 00 00 00 00
1508449701.348768 can_line   can1  216   [8]  F7 0B D5 E9 00 00 00 00
1508449701.368792 can_line   can1  216   [8]  FA 0D D7 EB 00 00 00 00
1508449701.388552 can_line   can1  216   [8]  FC 10 D9 ED 00 00 00 00
1508449701.409063 can_line   can1  216   [8]  FE 12 DB EF 00 00 00 00
1508449701.429021 can_line   can1  216   [8]  00 14 DE F2 00 00 00 00
1508449701.448822 can_line   can1  216   [8]  03 17 E0 F4 00 00 00 00
1508449701.468658 can_line   can1  216   [8]  05 19 E2 F6 00 00 00 00
1508449701.489214 can_line   can1  216   [8]  08 1B E5 F9 00 00 00 00
1508449701.508654 can_line   can1  216   [8]  0A 1E E7 FB 00 00 00 00
1508449701.529168 can_line   can1  216   [8]  0D 20 EA FD 00 00 00 00
1508449701.548546 can_line   can1  216   [8]  0F 23 EC 00 00 00 00 00
1508449701.569007 can_line   can1  216   [8]  12 25 EF 02 00 00 00 00
1508449701.588694 can_line   can1  216   [8]  15 28 F1 05 00 00 00 00
1508449701.608816 can_line   can1  216   [8]  17 2B F4 08 00 00 00 00
1508449701.628781 can_line   can1  216   [8]  1A 2D F7 0A 00 00 00 00
1508449701.649043 can_line   can1  216   [8]  1D 30 FA 0D 00 00 00 00
1508449701.669210 can_line   can1  216   [8]  1F 33 FC 10 00 00 00 00
1508449701.688860 can_line   can1  216   [8]  22 36 FF 13 00 00 00 00
1508449701.708657 can_line   can1  216   [8]  25 39 02 15 00 00 00 00
1508449701.728975 can_line   can1  216   [8]  28 3B 05 18 00 00 00 00
1508449701.748575 can_line   can1  216   [8]  2B 3E 08 1B 00 00 00 00
1508449701.768827 can_line   can1  216   [8]  2E 41 0B 1E 00 00 00 00
1508449701.788658 can_line   can1  216   [8]  31 44 0E 21 00 00 00 00
1508449701.808831 can_line   can1  216   [8]  34 47 11 24 00 00 00 00
1508449701.828947 can_line   can1  216   [8]  37 4A 14 27 00 00 00 00
1508449701.848784 can_line   can1  216   [8]  3A 4E 17 2A 00 00 00 00
1508449701.869002 can_line   can1  216   [8]  3E 51 1A 2D 00 00 00 00
1508449701.889243 can_line   can1  216   [8]  41 54 1D 30 00 00 00 00
1508449701.908971 can_line   can1  216   [8]  44 57 20 33 00 00 00 00
1508449701.929184 can_line   can1  216   [8]  47 5A 24 37 00 00 00 00
1508449701.948988 can_line   can1  216   [8]  4B 5E 27 3A 00 00 00 00
1508449701.968935 can_line   can1  216   [8]  4E 61 2A 3D 00 00 00 00
1508449701.988771 can_line   can1  216   [8]  51 64 2E 40 00 00 00 00
1508449702.008924 can_line   can1  216   [8]  55 68 31 44 00 00 00 00
1508449702.028877 can_line   can1  216   [8]  58 6B 34 47 00 00 00 00
1508449702.049104 can_line   can1  216   [8]  5C 6F 38 4B 00 00 00 00
1508449702.068932 can_line   can1  216   [8]  5F 72 3B 4E 00 00 00 00
1508449702.088837 can_line   can1  216   [8]  63 76 3F 52 00 00 00 00
1508449702.108500 can_line   can1  216   [8]  66 79 42 55 00 00 00 00
1508449702.128819 can_line   can1  216   [8]  6A 7D 46 59 00 00 00 00
1508449702.149014 can_line   can1  216   [8]  6E 81 4A 5C 00 00 00 00
1508449702.168872 can_line   can1  216   [8]  71 84 4D 60 00 00 00 00
1508449702.188720 can_line   can1  216   [8]  75 88 51 64 00 00 00 00
1508449702.208953 can_line   can1  216   [8]  79 8C 55 67 00 00 00 00
1508449702.228771 can_line   can1  216   [8]  7D 90 59 6B 00 00 00 00
1508449702.248498 can_line   can1  216   [8]  81 94 5C 6F 00 00 00 00
1508449702.268810 can_line   can1  216   [8]  84 97 60 73 00 00 00 00
1508449702.288854 can_line   can1  216   [8]  88 9B 64 77 00 00 00 00
1508449702.308631 can_line   can1  216   [8]  8C 9F 68 7B 00 00 00 00
1508449702.328839 can_line   can1  216   [8]  90 A3 6C 7E 00 00 00 00
1508449702.348387 can_line   can1  216   [8]  94 A7 70 82 00 00 00 00
1508449702.368856 can_line   can1  216   [8]  98 AB 74 86 00 00 00 00
1508449702.388808 can_line   can1  216   [8]  9C AF 78 8B 00 00 00 00
1508449702.408767 can_line   can1  216   [8]  A0 B3 7C 8F 00 00 00 00
1508449702.428882 can_line   can1  216   [8]  A5 B8 80 93 00 00 00 00
1508449702.448981 can_line   can1  216   [8]  A9 BC 84 97 00 00 00 00
1508449702.468783 can_line   can1  216   [8]  AD C0 88 9B 00 00 00 00
1508449702.491978 can_line   can1  216   [8]  B1 C4 8C 9F 00 00 00 00
1508449702.508755 can_line   can1  216   [8]  B6 C9 90 A3 00 00 00 00
1508449702.532958 can_line   can1  216   [8]  BA CD 95 A8 00 00 00 00
1508449702.548118 can_line   can1  216   [8]  BE D1 99 AC 00 00 00 00
1508449702.568897 can_line   can1  216   [8]  C3 D6 9D B0 00 00 00 00
1508449702.588585 can_line   can1  216   [8]  C7 DA A2 B5 00 00 00 00
1508449702.608728 can_line   can1  216   [8]  CB DE A6 B9 00 00 00 00
1508449702.629578 can_line   can1  216   [8]  D0 E3 AB BE 00 00 00 00
1508449702.651486 can_line   can1  216   [8]  D4 E7 AF C2 00 00 00 00
1508449702.668890 can_line   can1  216   [8]  D9 EC B4 C7 00 00 00 00
1508449702.688721 can_line   can1  216   [8]  DD F0 B8 CB 00 00 00 00
1508449702.708848 can_line   can1  216   [8]  E2 F5 BD D0 00 00 00 00
1508449702.729193 can_line   can1  216   [8]  E7 FA C1 D4 00 00 00 00
1508449702.748763 can_line   can1  216   [8]  EB FE C6 D9 00 00 00 00
1508449702.769032 can_line   can1  216   [8]  F0 03 CB DD 00 00 00 00
1508449702.788936 can_line   can1  216   [8]  F5 08 CF E2 00 00 00 00
1508449702.809005 can_line   can1  216   [8]  F9 0C D4 E6 00 00 00 00
1508449702.828891 can_line   can1  216   [8]  FE 11 D9 EB 00 00 00 00
1508449702.848842 can_line   can1  216   [8]  03 16 DE F0 00 00 00 00
1508449702.869296 can_line   can1  216   [8]  08 1B E2 F5 00 00 00 00
1508449702.888624 can_line   can1  216   [8]  0D 20 E7 FA 00 00 00 00
1508449702.908622 can_line   can1  216   [8]  12 25 EC FE 00 00 00 00
1508449702.928932 can_line   can1  216   [8]  16 2A F1 03 00 00 00 00
1508449702.948726 can_line   can1  216   [8]  1B 2F F5 08 00 00 00 00
1508449702.968746 can_line   can1  216   [8]  20 33 FA 0D 00 00 00 00
1508449702.988713 can_line   can1  216   [8]  25 38 FF 12 00 00 00 00
1508449703.008738 can_line   can1  216   [8]  2A 3D 04 17 00 00 00 00
1508449703.029208 can_line   can1  216   [8]  2F 42 09 1C 00 00 00 00
1508449703.048710 can_line   can1  216   [8]  34 47 0E 21 00 00 00 00
1508449703.068392 can_line   can1  216   [8]  39 4C 13 26 00 00 00 00
1508449703.088588 can_line   can1  216   [8]  3E 51 18 2B 00 00 00 00
1508449703.108714 can_line   can1  216   [8]  44 57 1D 30 00 00 00 00
1508449703.128946 can_line   can1  216   [8]  49 5C 23 35 00 00 00 00
1508449703.148419 can_line   can1  216   [8]  4E 61 28 3A 00 00 00 00
1508449703.168784 can_line   can1  216   [8]  53 66 2D 3F 00 00 00 00
1508449703.188974 can_line   can1  216   [8]  58 6B 32 45 00 00 00 00
1508449703.208256 can_line   can1  216   [8]  5E 71 37 4A 00 00 00 00
1508449703.229221 can_line   can1  216   [8]  63 76 3D 4F 00 00 00 00
1508449703.248725 can_line   can1  216   [8]  68 7B 42 54 00 00 00 00
1508449703.269014 can_line   can1  216   [8]  6E 81 47 5A 00 00 00 00
1508449703.288511 can_line   can1  216   [8]  73 86 4C 5F 00 00 00 00
1508449703.308561 can_line   can1  216   [8]  78 8B 52 64 00 00 00 00
1508449703.328940 can_line   can1  216   [8]  7E 91 57 6A 00 00 00 00
1508449703.349147 can_line   can1  216   [8]  83 96 5D 6F 00 00 00 00
1508449703.368409 can_line   can1  216   [8]  89 9C 62 75 00 00 00 00
1508449703.388676 can_line   can1  216   [8]  8E A1 67 7A 00 00 00 00
1508449703.408546 can_line   can1  216   [8]  94 A7 6D 80 00 00 00 00
1508449703.429175 can_line   can1  216   [8]  99 AC 72 85 00 00 00 00
1508449703.448677 can_line   can1  216   [8]  9F B2 78 8B 00 00 00 00
1508449703.468410 can_line   can1  216   [8]  A5 B8 7D 90 00 00 00 00
1508449703.488845 can_line   can1  216   [8]  AA BD 83 96 00 00 00 00
1508449703.508641 can_line   can1  216   [8]  B0 C3 89 9B 00 00 00 00
1508449703.529377 can_line   can1  216   [8]  B6 C9 8E A1 00 00 00 00
1508449703.548471 can_line   can1  216   [8]  BB CF 94 A7 00 00 00 00
1508449703.568513 can_line   can1  216   [8]  C1 D4 9A AC 00 00 00 00
1508449703.589399 can_line   can1  216   [8]  C7 DA 9F B2 00 00 00 00
1508449703.608440 can_line   can1  216   [8]  CD E0 A5 B8 00 00 00 00
1508449703.629327 can_line   can1  216   [8]  D2 E6 AB BE 00 00 00 00
1508449703.648350 can_line   can1  216   [8]  D8 EB B1 C3 00 00 00 00
1508449703.668895 can_line   can1  216   [8]  DE F1 B7 C9 00 00 00 00
1508449703.688698 can_line   can1  216   [8]  E4 F7 BD CF 00 00 00 00
1508449703.708316 can_line   can1  216   [8]  EA FD C2 D5 00 00 00 00
1508449703.729174 can_line   can1  216   [8]  F0 03 C8 DB 00 00 00 00
1508449703.748453 can_line   can1  216   [8]  F6 09 CE E1 00 00 00 00
1508449703.769277 can_line   can1  216   [8]  FC 0F D4 E7 00 00 00 00
1508449703.788858 can_line   can1  216   [8]  02 15 DA ED 00 00 00 00
1508449703.808881 can_line   can1  216   [8]  08 1B E0 F3 00 00 00 00
1508449703.829891 can_line   can1  216   [8]  0E 21 E6 F9 00 00 00 00
1508449703.849301 can_line   can1  216   [8]  14 28 EC FF 00 00 00 00
1508449703.870100 can_line   can1  216   [8]  1A 2E F2 05 00 00 00 00
1508449703.889131 can_line   can1  216   [8]  20 34 F8 0B 00 00 00 00
1508449703.908985 can_line   can1  216   [8]  27 3A FE 11 00 00 00 00
1508449703.929246 can_line   can1  216   [8]  2D 40 05 17 00 00 00 00
1508449703.948422 can_line   can1  216   [8]  33 46 0B 1D 00 00 00 00
1508449703.968798 can_line   can1  216   [8]  39 4D 11 24 00 00 00 00
1508449703.988681 can_line   can1  216   [8]  40 53 17 2A 00 00 00 00
1508449704.008655 can_line   can1  216   [8]  46 59 1E 30 00 00 00 00
1508449704.029378 can_line   can1  216   [8]  4C 60 24 36 00 00 00 00
1508449704.048521 can_line   can1  216   [8]  53 66 2A 3D 00 00 00 00
1508449704.068800 can_line   can1  216   [8]  59 6D 30 43 00 00 00 00
1508449704.088244 can_line   can1  216   [8]  60 73 37 49 00 00 00 00
1508449704.108477 can_line   can1  216   [8]  66 7A 3D 50 00 00 00 00
1508449704.128890 can_line   can1  216   [8]  6D 80 44 56 00 00 00 00
1508449704.149575 can_line   can1  216   [8]  73 87 4A 5D 00 00 00 00
1508449704.169167 can_line   can1  216   [8]  7A 8D 51 63 00 00 00 00
1508449704.188749 can_line   can1  216   [8]  80 94 57 6A 00 00 00 00
1508449704.208971 can_line   can1  216   [8]  87 9A 5E 70 00 00 00 00
1508449704.231426 can_line   can1  216   [8]  8D A1 64 77 00 00 00 00
1508449704.248828 can_line   can1  216   [8]  94 A8 6B 7D 00 00 00 00
1508449704.269075 can_line   can1  216   [8]  9B AE 72 84 00 00 00 00
1508449704.288679 can_line   can1  216   [8]  A2 B5 78 8B 00 00 00 00
1508449704.310651 can_line   can1  216   [8]  A8 BC 7F 91 00 00 00 00
1508449704.328101 can_line   can1  216   [8]  AF C2 85 98 00 00 00 00
1508449704.348252 can_line   can1  216   [8]  B6 C9 8C 9F 00 00 00 00
1508449704.368246 can_line   can1  216   [8]  BD D0 93 A6 00 00 00 00
1508449704.388585 can_line   can1  216   [8]  C3 D7 9A AC 00 00 00 00
1508449704.408159 can_line   can1  216   [8]  CA DE A0 B3 00 00 00 00
1508449704.428527 can_line   can1  216   [8]  D1 E5 A7 BA 00 00 00 00
1508449704.448200 can_line   can1  216   [8]  D8 EC AE C1 00 00 00 00
1508449704.468309 can_line   can1  216   [8]  DF F2 B5 C8 00 00 00 00
1508449704.488411 can_line   can1  216   [8]  E6 F9 BC CF 00 00 00 00
1508449704.508242 can_line   can1  216   [8]  ED 00 C3 D6 00 00 00 00
1508449704.528733 can_line   can1  216   [8]  F4 07 CA DD 00 00 00 00
1508449704.548328 can_line   can1  216   [8]  FB 0E D1 E4 00 00 00 00
1508449704.568211 can_line   can1  216   [8]  02 16 D8 EB 00 00 00 00
1508449704.588269 can_line   can1  216   [8]  09 1D DF F2 00 00 00 00
1508449704.608114 can_line   can1  216   [8]  10 24 E6 F9 00 00 00 00
1508449704.628754 can_line   can1  216   [8]  18 2B ED 00 00 00 00 00
1508449704.648031 can_line   can1  216   [8]  1F 32 F4 07 00 00 00 00
1508449704.668263 can_line   can1  216   [8]  26 39 FC 0E 00 00 00 00
1508449704.688082 can_line   can1  216   [8]  2D 41 03 15 00 00 00 00
1508449704.708093 can_line   can1  216   [8]  34 48 0A 1C 00 00 00 00
1508449704.728457 can_line   can1  216   [8]  3B 4F 11 23 00 00 00 00
1508449704.748333 can_line   can1  216   [8]  43 56 18 2B 00 00 00 00
1508449704.767990 can_line   can1  216   [8]  4A 5D 1F 32 00 00 00 00
1508449704.788609 can_line   can1  216   [8]  51 64 27 39 00 00 00 00
1508449704.808024 can_line   can1  216   [8]  58 6C 2E 40 00 00 00 00
1508449704.828904 can_line   can1  216   [8]  60 73 35 47 00 00 00 00
1508449704.848244 can_line   can1  216   [8]  67 7A 3C 4F 00 00 00 00
1508449704.868480 can_line   can1  216   [8]  6E 81 44 56 00 00 00 00
1508449704.888570 can_line   can1  216   [8]  75 89 4B 5D 00 00 00 00
1508449704.908668 can_line   can1  216   [8]  7C 90 52 64 00 00 00 00
1508449704.928896 can_line   can1  216   [8]  84 97 59 6C 00 00 00 00
1508449704.948936 can_line   can1  216   [8]  8B 9E 61 73 00 00 00 00
1508449704.968013 can_line   can1  216   [8]  92 A5 68 7A 00 00 00 00
1508449704.988738 can_line   can1  216   [8]  99 AD 6F 81 00 00 00 00
1508449705.008411 can_line   can1  216   [8]  A1 B4 76 89 00 00 00 00
1508449705.028971 can_line   can1  216   [8]  A8 BB 7D 90 00 00 00 00
1508449705.048005 can_line   can1  216   [8]  AF C2 85 97 00 00 00 00
1508449705.068834 can_line   can1  216   [8]  B6 CA 8C 9E 00 00 00 00
1508449705.087898 can_line   can1  216   [8]  BD D1 93 A6 00 00 00 00
1508449705.110280 can_line   can1  216   [8]  C5 D8 9A AD 00 00 00 00
1508449705.130176 can_line   can1  216   [8]  CC DF A1 B4 00 00 00 00
1508449705.149173 can_line   can1  216   [8]  D3 E6 A9 BB 00 00 00 00
1508449705.168592 can_line   can1  216   [8]  DA EE B0 C2 00 00 00 00
1508449705.189942 can_line   can1  216   [8]  E1 F5 B7 CA 00 00 00 00
1508449705.208736 can_line   can1  216   [8]  E8 FC BE D1 00 00 00 00
1508449705.230067 can_line   can1  216   [8]  EF 03 C5 D8 00 00 00 00
1508449705.248706 can_line   can1  216   [8]  F7 0A CD DF 00 00 00 00
1508449705.270954 can_line   can1  216   [8]  FE 11 D4 E6 00 00 00 00
1508449705.288733 can_line   can1  216   [8]  05 18 DB ED 00 00 00 00
1508449705.309108 can_line   can1  216   [8]  0C 1F E2 F4 00 00 00 00
1508449705.329615 can_line   can1  216   [8]  13 26 E9 FB 00 00 00 00
1508449705.351019 can_line   can1  216   [8]  1A 2D F0 02 00 00 00 00
1508449705.369394 can_line   can1  216   [8]  21 34 F7 09 00 00 00 00
1508449705.389144 can_line   can1  216   [8]  28 3B FE 11 00 00 00 00
1508449705.408677 can_line   can1  216   [8]  2F 42 05 18 00 00 00 00
1508449705.429299 can_line   can1  216   [8]  36 49 0C 1F 00 00 00 00
1508449705.448566 can_line   can1  216   [8]  3D 50 13 26 00 00 00 00
1508449705.468694 can_line   can1  216   [8]  44 57 1A 2D 00 00 00 00
1508449705.489246 can_line   can1  216   [8]  4B 5E 21 33 00 00 00 00
1508449705.512069 can_line   can1  216   [8]  52 65 28 3A 00 00 00 00
1508449705.530047 can_line   can1  216   [8]  58 6C 2F 41 00 00 00 00
1508449705.549321 can_line   can1  216   [8]  5F 73 36 48 00 00 00 00
1508449705.568857 can_line   can1  216   [8]  66 79 3C 4F 00 00 00 00
1508449705.588986 can_line   can1  216   [8]  6D 80 43 56 00 00 00 00
1508449705.608590 can_line   can1  216   [8]  74 87 4A 5D 00 00 00 00
1508449705.629429 can_line   can1  216   [8]  7A 8E 51 63 00 00 00 00
1508449705.648483 can_line   can1  216   [8]  81 95 58 6A 00 00 00 00
1508449705.668333 can_line   can1  216   [8]  88 9B 5E 71 00 00 00 00
1508449705.688680 can_line   can1  216   [8]  8F A2 65 77 00 00 00 00
1508449705.709082 can_line   can1  216   [8]  95 A9 6C 7E 00 00 00 00
1508449705.729524 can_line   can1  216   [8]  9C AF 73 85 00 00 00 00
1508449705.751132 can_line   can1  216   [8]  A3 B6 79 8B 00 00 00 00
1508449705.769095 can_line   can1  216   [8]  A9 BC 80 92 00 00 00 00
1508449705.789138 can_line   can1  216   [8]  B0 C3 86 98 00 00 00 00
1508449705.808615 can_line   can1  216   [8]  B6 C9 8D 9F 00 00 00 00
1508449705.828622 can_line   can1  216   [8]  BD D0 93 A6 00 00 00 00
1508449705.848539 can_line   can1  216   [8]  C3 D6 9A AC 00 00 00 00
1508449705.869166 can_line   can1  216   [8]  C9 DD A0 B2 00 00 00 00
1508449705.888392 can_line   can1  216   [8]  D0 E3 A7 B9 00 00 00 00
1508449705.910844 can_line   can1  216   [8]  D6 EA AD BF 00 00 00 00
1508449705.929756 can_line   can1  216   [8]  DC F0 B3 C6 00 00 00 00
1508449705.949100 can_line   can1  216   [8]  E3 F6 BA CC 00 00 00 00
1508449705.968750 can_line   can1  216   [8]  E9 FC C0 D2 00 00 00 00
1508449705.991783 can_line   can1  216   [8]  EF 03 C6 D9 00 00 00 00
1508449706.008697 can_line   can1  216   [8]  F5 09 CC DF 00 00 00 00
1508449706.028886 can_line   can1  216   [8]  FB 0F D3 E5 00 00 00 00
1508449706.048631 can_line   can1  216   [8]  02 15 D9 EB 00 00 00 00
1508449706.070092 can_line   can1  216   [8]  08 1B DF F1 00 00 00 00
1508449706.090210 can_line   can1  216   [8]  0E 21 E5 F7 00 00 00 00
1508449706.109312 can_line   can1  216   [8]  14 27 EB FD 00 00 00 00
1508449706.130038 can_line   can1  216   [8]  1A 2D F1 03 00 00 00 00
1508449706.149881 can_line   can1  216   [8]  20 33 F7 09 00 00 00 00
1508449706.167865 can_line   can1  216   [8]  25 39 FD 0F 00 00 00 00
1508449706.187826 can_line   can1  216   [8]  2B 3F 03 15 00 00 00 00
1508449706.207829 can_line   can1  216   [8]  31 45 09 1B 00 00 00 00
1508449706.228531 can_line   can1  216   [8]  37 4A 0F 21 00 00 00 00
1508449706.247775 can_line   can1  216   [8]  3D 50 15 27 00 00 00 00
1508449706.267806 can_line   can1  216   [8]  43 56 1B 2D 00 00 00 00
1508449706.287914 can_line   can1  216   [8]  48 5C 20 32 00 00 00 00
1508449706.307859 can_line   can1  216   [8]  4E 61 26 38 00 00 00 00
1508449706.328210 can_line   can1  216   [8]  54 67 2C 3E 00 00 00 00
1508449706.347797 can_line   can1  216   [8]  59 6D 31 44 00 00 00 00
1508449706.367825 can_line   can1  216   [8]  5F 72 37 49 00 00 00 00
1508449706.388109 can_line   can1  216   [8]  64 78 3D 4F 00 00 00 00
1508449706.407928 can_line   can1  216   [8]  6A 7D 42 54 00 00 00 00
1508449706.428425 can_line   can1  216   [8]  6F 83 48 5A 00 00 00 00
1508449706.447787 can_line   can1  216   [8]  75 88 4D 5F 00 00 00 00
1508449706.467818 can_line   can1  216   [8]  7A 8E 53 65 00 00 00 00
1508449706.488237 can_line   can1  216   [8]  80 93 58 6A 00 00 00 00
1508449706.508269 can_line   can1  216   [8]  85 98 5D 70 00 00 00 00
1508449706.528764 can_line   can1  216   [8]  8A 9E 62 75 00 00 00 00
1508449706.549817 can_line   can1  216   [8]  90 A3 68 7A 00 00 00 00
1508449706.570420 can_line   can1  216   [8]  95 A8 6D 7F 00 00 00 00
1508449706.589017 can_line   can1  216   [8]  9A AD 72 85 00 00 00 00
1508449706.608460 can_line   can1  216   [8]  9F B3 78 8A 00 00 00 00
1508449706.630689 can_line   can1  216   [8]  A4 B8 7D 8F 00 00 00 00
1508449706.647853 can_line   can1  216   [8]  A9 BD 82 94 00 00 00 00
1508449706.669050 can_line   can1  216   [8]  AE C2 87 99 00 00 00 00
1508449706.688644 can_line   can1  216   [8]  B3 C7 8C 9E 00 00 00 00
1508449706.710713 can_line   can1  216   [8]  B8 CC 91 A3 00 00 00 00
1508449706.728810 can_line   can1  216   [8]  BD D1 96 A8 00 00 00 00
1508449706.747801 can_line   can1  216   [8]  C2 D6 9B AD 00 00 00 00
1508449706.767812 can_line   can1  216   [8]  C7 DA A0 B2 00 00 00 00
1508449706.787755 can_line   can1  216   [8]  CB DF A5 B7 00 00 00 00
1508449706.808082 can_line   can1  216   [8]  D0 E4 A9 BB 00 00 00 00
1508449706.828169 can_line   can1  216   [8]  D5 E9 AE C0 00 00 00 00
1508449706.850435 can_line   can1  216   [8]  DA ED B3 C5 00 00 00 00
1508449706.869566 can_line   can1  216   [8]  DE F2 B7 CA 00 00 00 00
1508449706.888378 can_line   can1  216   [8]  E3 F7 BC CE 00 00 00 00
1508449706.907739 can_line   can1  216   [8]  E7 FB C1 D3 00 00 00 00
1508449706.928136 can_line   can1  216   [8]  EC 00 C5 D8 00 00 00 00
1508449706.947707 can_line   can1  216   [8]  F0 04 CA DC 00 00 00 00
1508449706.967811 can_line   can1  216   [8]  F5 09 CE E1 00 00 00 00
1508449706.987710 can_line   can1  216   [8]  F9 0D D3 E5 00 00 00 00
1508449707.007882 can_line   can1  216   [8]  FE 11 D7 EA 00 00 00 00
1508449707.028233 can_line   can1  216   [8]  02 16 DC EE 00 00 00 00
1508449707.048329 can_line   can1  216   [8]  06 1A E0 F2 00 00 00 00
1508449707.068480 can_line   can1  216   [8]  0A 1E E4 F7 00 00 00 00
1508449707.087802 can_line   can1  216   [8]  0F 23 E8 FB 00 00 00 00
1508449707.107891 can_line   can1  216   [8]  13 27 ED FF 00 00 00 00
1508449707.128331 can_line   can1  216   [8]  17 2B F1 03 00 00 00 00
1508449707.147798 can_line   can1  216   [8]  1B 2F F5 07 00 00 00 00
1508449707.167669 can_line   can1  216   [8]  1F 33 F9 0B 00 00 00 00
1508449707.187666 can_line   can1  216   [8]  23 37 FD 0F 00 00 00 00
1508449707.207709 can_line   can1  216   [8]  27 3B 01 13 00 00 00 00
1508449707.228449 can_line   can1  216   [8]  2B 3F 05 17 00 00 00 00
1508449707.247739 can_line   can1  216   [8]  2F 43 09 1B 00 00 00 00
1508449707.267718 can_line   can1  216   [8]  33 47 0D 1F 00 00 00 00
1508449707.288089 can_line   can1  216   [8]  37 4B 11 23 00 00 00 00
1508449707.307748 can_line   can1  216   [8]  3B 4E 15 27 00 00 00 00
1508449707.328046 can_line   can1  216   [8]  3E 52 18 2B 00 00 00 00
1508449707.347772 can_line   can1  216   [8]  42 56 1C 2E 00 00 00 00
1508449707.367681 can_line   can1  216   [8]  46 59 20 32 00 00 00 00
1508449707.387686 can_line   can1  216   [8]  49 5D 23 36 00 00 00 00
1508449707.407662 can_line   can1  216   [8]  4D 61 27 39 00 00 00 00
1508449707.428432 can_line   can1  216   [8]  50 64 2B 3D 00 00 00 00
1508449707.447704 can_line   can1  216   [8]  54 68 2E 40 00 00 00 00
1508449707.467753 can_line   can1  216   [8]  57 6B 32 44 00 00 00 00
1508449707.487741 can_line   can1  216   [8]  5B 6E 35 47 00 00 00 00
1508449707.507712 can_line   can1  216   [8]  5E 72 39 4B 00 00 00 00
1508449707.528024 can_line   can1  216   [8]  61 75 3C 4E 00 00 00 00
1508449707.547761 can_line   can1  216   [8]  65 78 3F 51 00 00 00 00
1508449707.568294 can_line   can1  216   [8]  68 7C 43 55 00 00 00 00
1508449707.588286 can_line   can1  216   [8]  6B 7F 46 58 00 00 00 00
1508449707.607832 can_line   can1  216   [8]  6E 82 49 5B 00 00 00 00
1508449707.628496 can_line   can1  216   [8]  71 85 4C 5E 00 00 00 00
1508449707.647725 can_line   can1  216   [8]  75 88 4F 61 00 00 00 00
1508449707.668377 can_line   can1  216   [8]  78 8B 52 65 00 00 00 00
1508449707.687937 can_line   can1  216   [8]  7B 8E 55 68 00 00 00 00
1508449707.708266 can_line   can1  216   [8]  7E 91 58 6B 00 00 00 00
1508449707.728490 can_line   can1  216   [8]  81 94 5B 6E 00 00 00 00
1508449707.748221 can_line   can1  216   [8]  83 97 5E 70 00 00 00 00
1508449707.767919 can_line   can1  216   [8]  86 9A 61 73 00 00 00 00
1508449707.787719 can_line   can1  216   [8]  89 9D 64 76 00 00 00 00
1508449707.807769 can_line   can1  216   [8]  8C A0 67 79 00 00 00 00
1508449707.828453 can_line   can1  216   [8]  8F A2 69 7C 00 00 00 00
1508449707.848240 can_line   can1  216   [8]  91 A5 6C 7E 00 00 00 00
1508449707.867687 can_line   can1  216   [8]  94 A8 6F 81 00 00 00 00
1508449707.887930 can_line   can1  216   [8]  96 AA 71 84 00 00 00 00
1508449707.907712 can_line   can1  216   [8]  99 AD 74 86 00 00 00 00
1508449707.928705 can_line   can1  216   [8]  9C AF 76 89 00 00 00 00
1508449707.947754 can_line   can1  216   [8]  9E B2 79 8B 00 00 00 00
1508449707.967771 can_line   can1  216   [8]  A0 B4 7B 8E 00 00 00 00
1508449707.987736 can_line   can1  216   [8]  A3 B7 7E 90 00 00 00 00
1508449708.007965 can_line   can1  216   [8]  A5 B9 80 92 00 00 00 00
1508449708.028807 can_line   can1  216   [8]  A8 BB 83 95 00 00 00 00
1508449708.047864 can_line   can1  216   [8]  AA BE 85 97 00 00 00 00
1508449708.067608 can_line   can1  216   [8]  AC C0 87 99 00 00 00 00
1508449708.088542 can_line   can1  216   [8]  AE C2 89 9C 00 00 00 00
1508449708.107677 can_line   can1  216   [8]  B1 C4 8C 9E 00 00 00 00
1508449708.128538 can_line   can1  216   [8]  B3 C6 8E A0 00 00 00 00
1508449708.148173 can_line   can1  216   [8]  B5 C9 90 A2 00 00 00 00
1508449708.168063 can_line   can1  216   [8]  B7 CB 92 A4 00 00 00 00
1508449708.187719 can_line   can1  216   [8]  B9 CD 94 A6 00 00 00 00
1508449708.208434 can_line   can1  216   [8]  BB CF 96 A8 00 00 00 00
1508449708.228335 can_line   can1  216   [8]  BD D1 98 AA 00 00 00 00
1508449708.248792 can_line   can1  216   [8]  BF D3 9A AC 00 00 00 00
1508449708.267762 can_line   can1  216   [8]  C1 D5 9C AE 00 00 00 00
1508449708.288309 can_line   can1  216   [8]  C3 D7 9E B0 00 00 00 00
1508449708.307573 can_line   can1  216   [8]  C5 D8 A0 B2 00 00 00 00
1508449708.330085 can_line   can1  216   [8]  C6 DA A1 B3 00 00 00 00
1508449708.347859 can_line   can1  216   [8]  C8 DC A3 B5 00 00 00 00
1508449708.367573 can_line   can1  216   [8]  CA DE A5 B7 00 00 00 00
1508449708.387610 can_line   can1  216   [8]  CC DF A7 B9 00 00 00 00
1508449708.407968 can_line   can1  216   [8]  CD E1 A8 BA 00 00 00 00
1508449708.428079 can_line   can1  216   [8]  CF E3 AA BC 00 00 00 00
1508449708.447597 can_line   can1  216   [8]  D0 E4 AB BE 00 00 00 00
1508449708.467412 can_line   can1  216   [8]  D2 E6 AD BF 00 00 00 00
1508449708.487556 can_line   can1  216   [8]  D4 E7 AE C1 00 00 00 00
1508449708.507903 can_line   can1  216   [8]  D5 E9 B0 C2 00 00 00 00
1508449708.528100 can_line   can1  216   [8]  D6 EA B1 C4 00 00 00 00
1508449708.547520 can_line   can1  216   [8]  D8 EB B3 C5 00 00 00 00
1508449708.567665 can_line   can1  216   [8]  D9 ED B4 C6 00 00 00 00
1508449708.587688 can_line   can1  216   [8]  DA EE B5 C8 00 00 00 00
1508449708.607762 can_line   can1  216   [8]  DC EF B6 C9 00 00 00 00
1508449708.628036 can_line   can1  216   [8]  DD F1 B8 CA 00 00 00 00
1508449708.647965 can_line   can1  216   [8]  DE F2 B9 CB 00 00 00 00
1508449708.667479 can_line   can1  216   [8]  DF F3 BA CC 00 00 00 00
1508449708.687660 can_line   can1  216   [8]  E0 F4 BB CD 00 00 00 00
1508449708.707584 can_line   can1  216   [8]  E1 F5 BC CE 00 00 00 00
1508449708.728170 can_line   can1  216   [8]  E2 F6 BD CF 00 00 00 00
1508449708.747619 can_line   can1  216   [8]  E3 F7 BE D0 00 00 00 00
1508449708.767776 can_line   can1  216   [8]  E4 F8 BF D1 00 00 00 00
1508449708.787459 can_line   can1  216   [8]  E5 F9 C0 D2 00 00 00 00
1508449708.808169 can_line   can1  216   [8]  E6 FA C1 D3 00 00 00 00
1508449708.827998 can_line   can1  216   [8]  E7 FA C1 D4 00 00 00 00
1508449708.847688 can_line   can1  216   [8]  E7 FB C2 D4 00 00 00 00
1508449708.867263 can_line   can1  216   [8]  E8 FC C3 D5 00 00 00 00
1508449708.888136 can_line   can1  216   [8]  E9 FD C4 D6 00 00 00 00
1508449708.907579 can_line   can1  216   [8]  EA FD C4 D6 00 00 00 00
1508449708.928204 can_line   can1  216   [8]  EA FE C5 D7 00 00 00 00
1508449708.947704 can_line   can1  216   [8]  EB FE C5 D8 00 00 00 00
1508449708.967932 can_line   can1  216   [8]  EB FF C6 D8 00 00 00 00
1508449708.987523 can_line   can1  216   [8]  EC FF C6 D9 00 00 00 00
1508449709.008172 can_line   can1  216   [8]  EC 00 C7 D9 00 00 00 00
1508449709.027999 can_line   can1  216   [8]  ED 00 C7 DA 00 00 00 00
1508449709.048044 can_line   can1  216   [8]  ED 01 C8 DA 00 00 00 00
1508449709.067507 can_line   can1  216   [8]  ED 01 C8 DA 00 00 00 00
1508449709.087759 can_line   can1  216   [8]  EE 01 C8 DB 00 00 00 00
1508449709.107492 can_line   can1  216   [8]  EE 02 C9 DB 00 00 00 00
1508449709.128426 can_line   can1  216   [8]  EE 02 C9 DB 00 00 00 00
1508449709.147607 can_line   can1  216   [8]  EF 02 C9 DB 00 00 00 00
1508449709.167499 can_line   can1  216   [8]  EF 02 C9 DC 00 00 00 00
1508449709.187458 can_line   can1  216   [8]  EF 03 C9 DC 00 00 00 00
1508449709.207521 can_line   can1  216   [8]  EF 03 CA DC 00 00 00 00
1508449709.227826 can_line   can1  216   [8]  EF 03 CA DC 00 00 00 00
1508449709.247434 can_line   can1  216   [8]  EF 03 CA DC 00 00 00 00
1508449709.267283 can_line   can1  216   [8]  EF 03 CA DC 00 00 00 00
1508449709.287629 can_line   can1  216   [8]  EF 03 CA DC 00 00 00 00
1508449709.307687 can_line   can1  216   [8]  F0 03 CA DC 00 00 00 00
1508449709.328004 can_line   can1  216   [8]  F0 03 CA DC 00 00 00 00
1508449709.347700 can_line   can1  216   [8]  F0 03 CA DC 00 00 00 00
1508449709.367435 can_line   can1  216   [8]  F0 03 CA DC 00 00 00 00
1508449709.387474 can_line   can1  216   [8]  F0 03 CA DC 00 00 00 00
1508449709.407717 can_line   can1  216   [8]  F0 03 CA DC 00 00 00 00
1508449709.427587 can_line   can1  216   [8]  F0 03 CA DC 00 00 00 00
1508449709.447496 can_line   can1  216   [8]  F0 03 CA DC 00 00 00 00
1508449709.467349 can_line   can1  216   [8]  F0 03 CA DC 00 00 00 00
1508449709.487487 can_line   can1  216   [8]  F0 03 CA DC 00 00 00 00
1508449709.507310 can_line   can1  216   [8]  F0 03 CA DC 00 00 00 00
1508449709.527586 can_line   can1  216   [8]  F0 03 CA DC 00 00 00 00
1508449709.547928 can_line   can1  216   [8]  F0 03 CA DC 00 00 00 00
1508449709.567538 can_line   can1  216   [8]  F0 03 CA DC 00 00 00 00
1508449709.587667 can_line   can1  216   [8]  F0 03 CA DC 00 00 00 00
1508449709.608839 can_line   can1  216   [8]  F0 03 CA DC 00 00 00 00
1508449709.627799 can_line   can1  216   [8]  F0 03 CA DC 00 00 00 00
1508449709.648296 can_line   can1  216   [8]  F0 03 CA DC 00 00 00 00
1508449709.667583 can_line   can1  216   [8]  F0 03 CA DC 00 00 00 00
1508449709.687720 can_line   can1  216   [8]  F0 03 CA DC 00 00 00 00
1508449709.707578 can_line   can1  216   [8]  F0 03 CA DC 00 00 00 00
1508449709.728427 can_line   can1  216   [8]  F0 03 CA DC 00 00 00 00
1508449709.747790 can_line   can1  216   [8]  F0 03 CA DC 00 00 00 00
1508449709.768000 can_line   can1  216   [8]  F0 03 CA DC 00 00 00 00
1508449709.787565 can_line   can1  216   [8]  F0 03 CA DC 00 00 00 00
1508449709.808140 can_line   can1  216   [8]  F0 03 CA DC 00 00 00 00
1508449709.829555 can_line   can1  216   [8]  F0 03 CA DC 00 00 00 00
1508449709.848584 can_line   can1  216   [8]  F0 03 CA DC 00 00 00 00
1508449709.867827 can_line   can1  216   [8]  F0 03 CA DC 00 00 00 00
1508449709.887359 can_line   can1  216   [8]  F0 03 CA DC 00 00 00 00
1508449709.907580 can_line   can1  216   [8]  F0 03 CA DC 00 00 00 00
1508449709.928299 can_line   can1  216   [8]  F0 03 CA DC 00 00 00 00
1508449709.947533 can_line   can1  216   [8]  F0 03 CA DC 00 00 00 00
1508449709.967514 can_line   can1  216   [8]  F0 03 CA DC 00 00 00 00
1508449709.987605 can_line   can1  216   [8]  F0 03 CA DC 00 00 00 00
1508449710.008175 can_line   can1  216   [8]  F0 03 CA DC 00 00 00 00
1508449710.028397 can_line   can1  216   [8]  F0 03 CA DC 00 00 00 00
1508449710.047804 can_line   can1  216   [8]  F0 03 CB DC 00 00 00 00
1508449710.068339 can_line   can1  216   [8]  F1 03 CB DC 00 00 00 00
1508449710.088015 can_line   can1  216   [8]  F1 03 CB DC 00 00 00 00
1508449710.108081 can_line   can1  216   [8]  F1 04 CB DC 00 00 00 00
1508449710.128332 can_line   can1  216   [8]  F1 04 CB DC 00 00 00 00
1508449710.147698 can_line   can1  216   [8]  F1 04 CB DC 00 00 00 00
1508449710.168529 can_line   can1  216   [8]  F1 04 CB DC 00 00 00 00
1508449710.187888 can_line   can1  216   [8]  F1 04 CB DD 00 00 00 00
1508449710.207840 can_line   can1  216   [8]  F2 04 CC DD 00 00 00 00
1508449710.228274 can_line   can1  216   [8]  F2 04 CC DD 00 00 00 00
1508449710.248334 can_line   can1  216   [8]  F2 05 CC DD 00 00 00 00
1508449710.267749 can_line   can1  216   [8]  F2 05 CC DD 00 00 00 00
1508449710.287588 can_line   can1  216   [8]  F2 05 CC DD 00 00 00 00
1508449710.307683 can_line   can1  216   [8]  F2 05 CC DE 00 00 00 00
1508449710.328307 can_line   can1  216   [8]  F3 05 CD DE 00 00 00 00
1508449710.347660 can_line   can1  216   [8]  F3 06 CD DE 00 00 00 00
1508449710.367506 can_line   can1  216   [8]  F3 06 CD DE 00 00 00 00
1508449710.387537 can_line   can1  216   [8]  F3 06 CD DE 00 00 00 00
1508449710.407483 can_line   can1  216   [8]  F4 06 CE DF 00 00 00 00
1508449710.428345 can_line   can1  216   [8]  F4 07 CE DF 00 00 00 00
1508449710.447707 can_line   can1  216   [8]  F4 07 CE DF 00 00 00 00
1508449710.467645 can_line   can1  216   [8]  F4 07 CE E0 00 00 00 00
1508449710.487703 can_line   can1  216   [8]  F5 08 CF E0 00 00 00 00
1508449710.508118 can_line   can1  216   [8]  F5 08 CF E0 00 00 00 00
1508449710.527946 can_line   can1  216   [8]  F6 08 CF E0 00 00 00 00
1508449710.547677 can_line   can1  216   [8]  F6 09 D0 E1 00 00 00 00
1508449710.567509 can_line   can1  216   [8]  F6 09 D0 E1 00 00 00 00
1508449710.587600 can_line   can1  216   [8]  F7 0A D0 E2 00 00 00 00
1508449710.607470 can_line   can1  216   [8]  F7 0A D1 E2 00 00 00 00
1508449710.628317 can_line   can1  216   [8]  F8 0B D1 E3 00 00 00 00
1508449710.647548 can_line   can1  216   [8]  F9 0B D2 E3 00 00 00 00
1508449710.667576 can_line   can1  216   [8]  F9 0C D2 E4 00 00 00 00
1508449710.687472 can_line   can1  216   [8]  FA 0C D3 E4 00 00 00 00
1508449710.707468 can_line   can1  216   [8]  FA 0D D4 E5 00 00 00 00
1508449710.728382 can_line   can1  216   [8]  FB 0E D4 E6 00 00 00 00
1508449710.747924 can_line   can1  216   [8]  FC 0F D5 E6 00 00 00 00
1508449710.768200 can_line   can1  216   [8]  FD 0F D6 E7 00 00 00 00
1508449710.787852 can_line   can1  216   [8]  FD 10 D6 E8 00 00 00 00
1508449710.807602 can_line   can1  216   [8]  FE 11 D7 E8 00 00 00 00
1508449710.829035 can_line   can1  216   [8]  FF 12 D8 E9 00 00 00 00
1508449710.847718 can_line   can1  216   [8]  00 13 D9 EA 00 00 00 00
1508449710.868883 can_line   can1  216   [8]  01 14 DA EB 00 00 00 00
1508449710.887618 can_line   can1  216   [8]  02 14 DB EC 00 00 00 00
1508449710.907782 can_line   can1  216   [8]  03 15 DC ED 00 00 00 00
1508449710.929261 can_line   can1  216   [8]  04 16 DD EE 00 00 00 00
1508449710.947851 can_line   can1  216   [8]  05 17 DE EF 00 00 00 00
1508449710.967562 can_line   can1  216   [8]  06 19 DF F0 00 00 00 00
1508449710.987140 can_line   can1  216   [8]  07 1A E0 F1 00 00 00 00
1508449711.007212 can_line   can1  216   [8]  08 1B E1 F2 00 00 00 00
1508449711.027521 can_line   can1  216   [8]  09 1C E2 F3 00 00 00 00
1508449711.047078 can_line   can1  216   [8]  0A 1D E3 F4 00 00 00 00
1508449711.067102 can_line   can1  216   [8]  0C 1E E5 F6 00 00 00 00
1508449711.087109 can_line   can1  216   [8]  0D 20 E6 F7 00 00 00 00
1508449711.107106 can_line   can1  216   [8]  0E 21 E7 F8 00 00 00 00
1508449711.127652 can_line   can1  216   [8]  10 22 E9 FA 00 00 00 00
1508449711.147164 can_line   can1  216   [8]  11 24 EA FB 00 00 00 00
1508449711.167222 can_line   can1  216   [8]  12 25 EB FC 00 00 00 00
1508449711.187021 can_line   can1  216   [8]  14 27 ED FE 00 00 00 00
1508449711.207130 can_line   can1  216   [8]  15 28 EE FF 00 00 00 00
1508449711.227649 can_line   can1  216   [8]  17 2A F0 01 00 00 00 00
1508449711.247277 can_line   can1  216   [8]  18 2B F1 02 00 00 00 00
1508449711.267100 can_line   can1  216   [8]  1A 2D F3 04 00 00 00 00
1508449711.286948 can_line   can1  216   [8]  1C 2F F5 06 00 00 00 00
1508449711.307010 can_line   can1  216   [8]  1D 30 F6 07 00 00 00 00
1508449711.327929 can_line   can1  216   [8]  1F 32 F8 09 00 00 00 00
1508449711.347457 can_line   can1  216   [8]  21 34 FA 0B 00 00 00 00
1508449711.367447 can_line   can1  216   [8]  23 36 FB 0C 00 00 00 00
1508449711.387240 can_line   can1  216   [8]  25 38 FD 0E 00 00 00 00
1508449711.407519 can_line   can1  216   [8]  26 3A FF 10 00 00 00 00
1508449711.427809 can_line   can1  216   [8]  28 3B 01 12 00 00 00 00
1508449711.447395 can_line   can1  216   [8]  2A 3D 03 14 00 00 00 00
1508449711.467586 can_line   can1  216   [8]  2C 3F 05 16 00 00 00 00
1508449711.487487 can_line   can1  216   [8]  2E 42 07 18 00 00 00 00
1508449711.507601 can_line   can1  216   [8]  31 44 09 1A 00 00 00 00
1508449711.528243 can_line   can1  216   [8]  33 46 0B 1C 00 00 00 00
1508449711.547473 can_line   can1  216   [8]  35 48 0D 1E 00 00 00 00
1508449711.567402 can_line   can1  216   [8]  37 4A 0F 21 00 00 00 00
1508449711.587445 can_line   can1  216   [8]  39 4C 12 23 00 00 00 00
1508449711.607377 can_line   can1  216   [8]  3C 4F 14 25 00 00 00 00
1508449711.628137 can_line   can1  216   [8]  3E 51 16 27 00 00 00 00
1508449711.647435 can_line   can1  216   [8]  40 54 18 2A 00 00 00 00
1508449711.667474 can_line   can1  216   [8]  43 56 1B 2C 00 00 00 00
1508449711.687413 can_line   can1  216   [8]  45 58 1D 2F 00 00 00 00
1508449711.707390 can_line   can1  216   [8]  48 5B 20 31 00 00 00 00
1508449711.727748 can_line   can1  216   [8]  4A 5E 22 34 00 00 00 00
1508449711.747376 can_line   can1  216   [8]  4D 60 25 36 00 00 00 00
1508449711.767437 can_line   can1  216   [8]  4F 63 27 39 00 00 00 00
1508449711.787601 can_line   can1  216   [8]  52 65 2A 3B 00 00 00 00
1508449711.807329 can_line   can1  216   [8]  55 68 2D 3E 00 00 00 00
1508449711.827557 can_line   can1  216   [8]  58 6B 2F 41 00 00 00 00
1508449711.847366 can_line   can1  216   [8]  5A 6E 32 44 00 00 00 00
1508449711.867554 can_line   can1  216   [8]  5D 71 35 46 00 00 00 00
1508449711.887244 can_line   can1  216   [8]  60 73 38 49 00 00 00 00
1508449711.907118 can_line   can1  216   [8]  63 76 3B 4C 00 00 00 00
1508449711.927858 can_line   can1  216   [8]  66 79 3D 4F 00 00 00 00
1508449711.947432 can_line   can1  216   [8]  69 7C 40 52 00 00 00 00
1508449711.967378 can_line   can1  216   [8]  6C 7F 43 55 00 00 00 00
1508449711.987594 can_line   can1  216   [8]  6F 82 46 58 00 00 00 00
1508449712.007501 can_line   can1  216   [8]  72 86 49 5B 00 00 00 00
1508449712.028269 can_line   can1  216   [8]  75 89 4C 5E 00 00 00 00
1508449712.047521 can_line   can1  216   [8]  79 8C 50 61 00 00 00 00
1508449712.068210 can_line   can1  216   [8]  7C 8F 53 65 00 00 00 00
1508449712.087441 can_line   can1  216   [8]  7F 93 56 68 00 00 00 00
1508449712.107750 can_line   can1  216   [8]  82 96 59 6B 00 00 00 00
1508449712.128379 can_line   can1  216   [8]  86 99 5D 6E 00 00 00 00
1508449712.147904 can_line   can1  216   [8]  89 9D 60 72 00 00 00 00
1508449712.167722 can_line   can1  216   [8]  8D A0 63 75 00 00 00 00
1508449712.187780 can_line   can1  216   [8]  90 A4 67 79 00 00 00 00
1508449712.207471 can_line   can1  216   [8]  94 A7 6A 7C 00 00 00 00
1508449712.228559 can_line   can1  216   [8]  97 AB 6E 7F 00 00 00 00
1508449712.247607 can_line   can1  216   [8]  9B AE 71 83 00 00 00 00
1508449712.267859 can_line   can1  216   [8]  9E B2 75 87 00 00 00 00
1508449712.287439 can_line   can1  216   [8]  A2 B6 79 8A 00 00 00 00
1508449712.307847 can_line   can1  216   [8]  A6 B9 7C 8E 00 00 00 00
1508449712.328199 can_line   can1  216   [8]  AA BD 80 92 00 00 00 00
1508449712.349185 can_line   can1  216   [8]  AD C1 84 95 00 00 00 00
1508449712.367439 can_line   can1  216   [8]  B1 C5 88 99 00 00 00 00
1508449712.387587 can_line   can1  216   [8]  B5 C9 8B 9D 00 00 00 00
1508449712.407421 can_line   can1  216   [8]  B9 CD 8F A1 00 00 00 00
1508449712.428660 can_line   can1  216   [8]  BD D1 93 A5 00 00 00 00
1508449712.447467 can_line   can1  216   [8]  C1 D5 97 A9 00 00 00 00
1508449712.467695 can_line   can1  216   [8]  C5 D9 9B AD 00 00 00 00
1508449712.487387 can_line   can1  216   [8]  C9 DD 9F B1 00 00 00 00
1508449712.507849 can_line   can1  216   [8]  CD E1 A3 B5 00 00 00 00
1508449712.528116 can_line   can1  216   [8]  D2 E5 A8 B9 00 00 00 00
1508449712.547717 can_line   can1  216   [8]  D6 E9 AC BD 00 00 00 00
1508449712.567368 can_line   can1  216   [8]  DA ED B0 C1 00 00 00 00
1508449712.588468 can_line   can1  216   [8]  DE F2 B4 C6 00 00 00 00
1508449712.607428 can_line   can1  216   [8]  E3 F6 B8 CA 00 00 00 00
1508449712.627905 can_line   can1  216   [8]  E7 FA BD CE 00 00 00 00
1508449712.647443 can_line   can1  216   [8]  EB FF C1 D3 00 00 00 00
1508449712.668226 can_line   can1  216   [8]  F0 03 C5 D7 00 00 00 00
1508449712.687450 can_line   can1  216   [8]  F4 08 CA DB 00 00 00 00
1508449712.707792 can_line   can1  216   [8]  F9 0C CE E0 00 00 00 00
1508449712.728348 can_line   can1  216   [8]  FD 11 D3 E4 00 00 00 00
1508449712.748344 can_line   can1  216   [8]  02 15 D7 E9 00 00 00 00
1508449712.767432 can_line   can1  216   [8]  06 1A DC ED 00 00 00 00
1508449712.788753 can_line   can1  216   [8]  0B 1E E0 F2 00 00 00 00
1508449712.807743 can_line   can1  216   [8]  10 23 E5 F6 00 00 00 00
1508449712.829925 can_line   can1  216   [8]  14 28 E9 FB 00 00 00 00
1508449712.847735 can_line   can1  216   [8]  19 2D EE 00 00 00 00 00
1508449712.869511 can_line   can1  216   [8]  1E 31 F3 04 00 00 00 00
1508449712.887630 can_line   can1  216   [8]  23 36 F8 09 00 00 00 00
1508449712.908559 can_line   can1  216   [8]  27 3B FC 0E 00 00 00 00
1508449712.928248 can_line   can1  216   [8]  2C 40 01 13 00 00 00 00
1508449712.947462 can_line   can1  216   [8]  31 45 06 17 00 00 00 00
1508449712.967428 can_line   can1  216   [8]  36 49 0B 1C 00 00 00 00
1508449712.987992 can_line   can1  216   [8]  3B 4E 10 21 00 00 00 00
1508449713.007374 can_line   can1  216   [8]  40 53 14 26 00 00 00 00
1508449713.028761 can_line   can1  216   [8]  45 58 1A 2B 00 00 00 00
1508449713.047458 can_line   can1  216   [8]  4A 5D 1E 30 00 00 00 00
1508449713.068466 can_line   can1  216   [8]  4F 62 23 35 00 00 00 00
1508449713.087438 can_line   can1  216   [8]  54 68 29 3A 00 00 00 00
1508449713.107650 can_line   can1  216   [8]  59 6D 2E 3F 00 00 00 00
1508449713.128672 can_line   can1  216   [8]  5E 72 33 44 00 00 00 00
1508449713.148627 can_line   can1  216   [8]  64 77 38 49 00 00 00 00
1508449713.167458 can_line   can1  216   [8]  69 7C 3D 4E 00 00 00 00
1508449713.187480 can_line   can1  216   [8]  6E 81 42 54 00 00 00 00
1508449713.207434 can_line   can1  216   [8]  73 87 47 59 00 00 00 00
1508449713.228413 can_line   can1  216   [8]  79 8C 4D 5E 00 00 00 00
1508449713.247415 can_line   can1  216   [8]  7E 91 52 64 00 00 00 00
1508449713.268212 can_line   can1  216   [8]  83 97 57 69 00 00 00 00
1508449713.287413 can_line   can1  216   [8]  89 9C 5D 6E 00 00 00 00
1508449713.307514 can_line   can1  216   [8]  8E A1 62 73 00 00 00 00
1508449713.328444 can_line   can1  216   [8]  94 A7 67 79 00 00 00 00
1508449713.347755 can_line   can1  216   [8]  99 AC 6D 7E 00 00 00 00
1508449713.367548 can_line   can1  216   [8]  9F B2 72 83 00 00 00 00
1508449713.387382 can_line   can1  216   [8]  A4 B7 77 89 00 00 00 00
1508449713.407411 can_line   can1  216   [8]  AA BD 7D 8E 00 00 00 00
1508449713.428588 can_line   can1  216   [8]  AF C2 83 94 00 00 00 00
1508449713.447372 can_line   can1  216   [8]  B5 C8 88 9A 00 00 00 00
1508449713.468178 can_line   can1  216   [8]  BA CE 8E 9F 00 00 00 00
1508449713.487516 can_line   can1  216   [8]  C0 D3 93 A5 00 00 00 00
1508449713.507502 can_line   can1  216   [8]  C6 D9 99 AA 00 00 00 00
1508449713.527819 can_line   can1  216   [8]  CB DF 9F B0 00 00 00 00
1508449713.547483 can_line   can1  216   [8]  D1 E4 A4 B6 00 00 00 00
1508449713.567290 can_line   can1  216   [8]  D7 EA AA BB 00 00 00 00
1508449713.587322 can_line   can1  216   [8]  DD F0 B0 C1 00 00 00 00
1508449713.607353 can_line   can1  216   [8]  E3 F6 B6 C7 00 00 00 00
1508449713.627667 can_line   can1  216   [8]  E9 FC BC CD 00 00 00 00
1508449713.647271 can_line   can1  216   [8]  EE 02 C1 D3 00 00 00 00
1508449713.667434 can_line   can1  216   [8]  F4 08 C7 D8 00 00 00 00
1508449713.687374 can_line   can1  216   [8]  FA 0D CD DE 00 00 00 00
1508449713.707421 can_line   can1  216   [8]  00 13 D3 E4 00 00 00 00
1508449713.727906 can_line   can1  216   [8]  06 19 D9 EA 00 00 00 00
1508449713.747553 can_line   can1  216   [8]  0C 1F DF F0 00 00 00 00
1508449713.767863 can_line   can1  216   [8]  12 25 E5 F6 00 00 00 00
1508449713.787598 can_line   can1  216   [8]  18 2B EB FC 00 00 00 00
1508449713.807363 can_line   can1  216   [8]  1E 32 F1 02 00 00 00 00
1508449713.828329 can_line   can1  216   [8]  24 38 F7 08 00 00 00 00
1508449713.847373 can_line   can1  216   [8]  2B 3E FD 0E 00 00 00 00
1508449713.867770 can_line   can1  216   [8]  31 44 03 14 00 00 00 00
1508449713.887409 can_line   can1  216   [8]  37 4A 09 1A 00 00 00 00
1508449713.907546 can_line   can1  216   [8]  3D 50 0F 20 00 00 00 00
1508449713.928307 can_line   can1  216   [8]  43 56 15 26 00 00 00 00
1508449713.947602 can_line   can1  216   [8]  49 5D 1C 2D 00 00 00 00
1508449713.967808 can_line   can1  216   [8]  50 63 22 33 00 00 00 00
1508449713.987484 can_line   can1  216   [8]  56 69 28 39 00 00 00 00
1508449714.007370 can_line   can1  216   [8]  5C 6F 2E 3F 00 00 00 00
1508449714.028309 can_line   can1  216   [8]  62 76 34 46 00 00 00 00
1508449714.047324 can_line   can1  216   [8]  69 7C 3B 4C 00 00 00 00
1508449714.067405 can_line   can1  216   [8]  6F 82 41 52 00 00 00 00
1508449714.087383 can_line   can1  216   [8]  75 89 47 58 00 00 00 00
1508449714.107352 can_line   can1  216   [8]  7C 8F 4E 5F 00 00 00 00
1508449714.128121 can_line   can1  216   [8]  82 95 54 65 00 00 00 00
1508449714.147579 can_line   can1  216   [8]  89 9C 5A 6B 00 00 00 00
1508449714.167371 can_line   can1  216   [8]  8F A2 61 72 00 00 00 00
1508449714.187309 can_line   can1  216   [8]  96 A9 67 78 00 00 00 00
1508449714.207499 can_line   can1  216   [8]  9C AF 6E 7F 00 00 00 00
1508449714.227586 can_line   can1  216   [8]  A3 B6 74 85 00 00 00 00
1508449714.247321 can_line   can1  216   [8]  A9 BC 7B 8C 00 00 00 00
1508449714.267429 can_line   can1  216   [8]  B0 C3 81 92 00 00 00 00
1508449714.287325 can_line   can1  216   [8]  B6 C9 88 99 00 00 00 00
1508449714.307502 can_line   can1  216   [8]  BD D0 8E 9F 00 00 00 00
1508449714.327981 can_line   can1  216   [8]  C4 D7 95 A6 00 00 00 00
1508449714.347423 can_line   can1  216   [8]  CA DD 9C AC 00 00 00 00
1508449714.368307 can_line   can1  216   [8]  D1 E4 A2 B3 00 00 00 00
1508449714.388460 can_line   can1  216   [8]  D8 EB A9 BA 00 00 00 00
1508449714.407722 can_line   can1  216   [8]  DE F2 B0 C0 00 00 00 00
1508449714.427199 can_line   can1  216   [8]  E5 F8 B6 C7 00 00 00 00
1508449714.447741 can_line   can1  216   [8]  EC FF BD CE 00 00 00 00
1508449714.467350 can_line   can1  216   [8]  F3 06 C4 D4 00 00 00 00
1508449714.487336 can_line   can1  216   [8]  FA 0D CA DB 00 00 00 00
1508449714.507350 can_line   can1  216   [8]  00 14 D1 E2 00 00 00 00
1508449714.527618 can_line   can1  216   [8]  07 1A D8 E9 00 00 00 00
1508449714.547305 can_line   can1  216   [8]  0E 21 DF F0 00 00 00 00
1508449714.567353 can_line   can1  216   [8]  15 28 E6 F6 00 00 00 00
1508449714.587181 can_line   can1  216   [8]  1C 2F EC FD 00 00 00 00
1508449714.607245 can_line   can1  216   [8]  23 36 F3 04 00 00 00 00
1508449714.627487 can_line   can1  216   [8]  2A 3D FA 0B 00 00 00 00
1508449714.647291 can_line   can1  216   [8]  30 44 00 12 00 00 00 00
1508449714.667278 can_line   can1  216   [8]  37 4B 07 18 00 00 00 00
1508449714.687497 can_line   can1  216   [8]  3E 51 0E 1F 00 00 00 00
1508449714.707265 can_line   can1  216   [8]  45 58 15 26 00 00 00 00
1508449714.727628 can_line   can1  216   [8]  4C 5F 1C 2D 00 00 00 00
1508449714.747251 can_line   can1  216   [8]  53 66 23 34 00 00 00 00
1508449714.767229 can_line   can1  216   [8]  5A 6D 2A 3B 00 00 00 00
1508449714.787448 can_line   can1  216   [8]  61 74 31 42 00 00 00 00
1508449714.807254 can_line   can1  216   [8]  68 7B 38 49 00 00 00 00
1508449714.828217 can_line   can1  216   [8]  6F 82 3F 50 00 00 00 00
1508449714.847341 can_line   can1  216   [8]  76 89 46 57 00 00 00 00
1508449714.867555 can_line   can1  216   [8]  7D 90 4E 5E 00 00 00 00
1508449714.887373 can_line   can1  216   [8]  84 97 54 65 00 00 00 00
1508449714.907298 can_line   can1  216   [8]  8B 9F 5B 6C 00 00 00 00
1508449714.928601 can_line   can1  216   [8]  92 A6 62 74 00 00 00 00
1508449714.947426 can_line   can1  216   [8]  9A AD 6A 7B 00 00 00 00
1508449714.967305 can_line   can1  216   [8]  A1 B4 71 82 00 00 00 00
1508449714.987350 can_line   can1  216   [8]  A8 BB 78 89 00 00 00 00
1508449715.007454 can_line   can1  216   [8]  AF C2 7F 90 00 00 00 00
1508449715.027996 can_line   can1  216   [8]  B6 CA 86 97 00 00 00 00
1508449715.047642 can_line   can1  216   [8]  BE D1 8D 9E 00 00 00 00
1508449715.067386 can_line   can1  216   [8]  C5 D8 94 A6 00 00 00 00
1508449715.087597 can_line   can1  216   [8]  CC DF 9B AD 00 00 00 00
1508449715.108152 can_line   can1  216   [8]  D3 E6 A2 B4 00 00 00 00
1508449715.128205 can_line   can1  216   [8]  DB EE AA BB 00 00 00 00
1508449715.147555 can_line   can1  216   [8]  E2 F5 B1 C2 00 00 00 00
1508449715.167793 can_line   can1  216   [8]  E9 FC B8 C9 00 00 00 00
1508449715.187508 can_line   can1  216   [8]  F0 03 BF D1 00 00 00 00
1508449715.207317 can_line   can1  216   [8]  F8 0B C7 D8 00 00 00 00
1508449715.227461 can_line   can1  216   [8]  FF 12 CE DF 00 00 00 00
1508449715.247051 can_line   can1  216   [8]  06 19 D5 E7 00 00 00 00
1508449715.267527 can_line   can1  216   [8]  0D 21 DC EE 00 00 00 00
1508449715.287315 can_line   can1  216   [8]  14 28 E4 F5 00 00 00 00
1508449715.307359 can_line   can1  216   [8]  1C 2F EB FC 00 00 00 00
1508449715.327776 can_line   can1  216   [8]  23 36 F2 03 00 00 00 00
1508449715.347531 can_line   can1  216   [8]  2A 3D FA 0B 00 00 00 00
1508449715.367378 can_line   can1  216   [8]  32 45 01 12 00 00 00 00
1508449715.387367 can_line   can1  216   [8]  39 4C 08 19 00 00 00 00
1508449715.408425 can_line   can1  216   [8]  40 53 0F 20 00 00 00 00
1508449715.427922 can_line   can1  216   [8]  47 5A 17 28 00 00 00 00
1508449715.447438 can_line   can1  216   [8]  4F 62 1E 2F 00 00 00 00
1508449715.467249 can_line   can1  216   [8]  56 69 25 36 00 00 00 00
1508449715.487230 can_line   can1  216   [8]  5D 70 2D 3E 00 00 00 00
1508449715.507386 can_line   can1  216   [8]  64 78 34 45 00 00 00 00
1508449715.527452 can_line   can1  216   [8]  6C 7F 3B 4C 00 00 00 00
1508449715.547088 can_line   can1  216   [8]  73 86 42 53 00 00 00 00
1508449715.567340 can_line   can1  216   [8]  7A 8D 49 5A 00 00 00 00
1508449715.587306 can_line   can1  216   [8]  81 94 51 62 00 00 00 00
1508449715.607058 can_line   can1  216   [8]  89 9C 58 69 00 00 00 00
1508449715.627267 can_line   can1  216   [8]  90 A3 5F 70 00 00 00 00
1508449715.647773 can_line   can1  216   [8]  97 AA 66 77 00 00 00 00
1508449715.667492 can_line   can1  216   [8]  9E B1 6E 7E 00 00 00 00
1508449715.687473 can_line   can1  216   [8]  A5 B8 75 85 00 00 00 00
1508449715.707234 can_line   can1  216   [8]  AD C0 7C 8D 00 00 00 00
1508449715.727699 can_line   can1  216   [8]  B4 C7 83 94 00 00 00 00
1508449715.747487 can_line   can1  216   [8]  BB CE 8A 9B 00 00 00 00
1508449715.767397 can_line   can1  216   [8]  C2 D5 92 A2 00 00 00 00
1508449715.787370 can_line   can1  216   [8]  C9 DC 99 A9 00 00 00 00
1508449715.807622 can_line   can1  216   [8]  D0 E3 A0 B0 00 00 00 00
1508449715.827892 can_line   can1  216   [8]  D7 EA A7 B8 00 00 00 00
1508449715.847360 can_line   can1  216   [8]  DE F1 AE BF 00 00 00 00
1508449715.868691 can_line   can1  216   [8]  E5 F8 B5 C6 00 00 00 00
1508449715.890750 can_line   can1  216   [8]  ED FF BC CD 00 00 00 00
1508449715.909092 can_line   can1  216   [8]  F4 06 C3 D4 00 00 00 00
1508449715.929997 can_line   can1  216   [8]  FB 0D CA DB 00 00 00 00
1508449715.950553 can_line   can1  216   [8]  02 14 D2 E2 00 00 00 00
1508449715.969022 can_line   can1  216   [8]  09 1B D9 E9 00 00 00 00
1508449715.988943 can_line   can1  216   [8]  10 22 E0 F0 00 00 00 00
1508449716.008704 can_line   can1  216   [8]  17 29 E6 F7 00 00 00 00
1508449716.028905 can_line   can1  216   [8]  1E 30 ED FE 00 00 00 00
1508449716.050655 can_line   can1  216   [8]  24 37 F4 05 00 00 00 00
1508449716.069009 can_line   can1  216   [8]  2B 3E FB 0C 00 00 00 00
1508449716.088785 can_line   can1  216   [8]  32 45 02 12 00 00 00 00
1508449716.107799 can_line   can1  216   [8]  39 4C 09 19 00 00 00 00
1508449716.131194 can_line   can1  216   [8]  40 53 10 20 00 00 00 00
1508449716.149150 can_line   can1  216   [8]  47 59 17 27 00 00 00 00
1508449716.168992 can_line   can1  216   [8]  4E 60 1D 2E 00 00 00 00
1508449716.187580 can_line   can1  216   [8]  54 67 24 35 00 00 00 00
1508449716.209322 can_line   can1  216   [8]  5B 6E 2B 3C 00 00 00 00
1508449716.230444 can_line   can1  216   [8]  62 75 32 42 00 00 00 00
1508449716.249448 can_line   can1  216   [8]  68 7B 39 49 00 00 00 00
1508449716.268791 can_line   can1  216   [8]  6F 82 3F 50 00 00 00 00
1508449716.289242 can_line   can1  216   [8]  76 89 46 57 00 00 00 00
1508449716.309090 can_line   can1  216   [8]  7C 8F 4D 5D 00 00 00 00
1508449716.330186 can_line   can1  216   [8]  83 96 53 64 00 00 00 00
1508449716.348976 can_line   can1  216   [8]  8A 9C 5A 6A 00 00 00 00
1508449716.371246 can_line   can1  216   [8]  90 A3 61 71 00 00 00 00
1508449716.389095 can_line   can1  216   [8]  97 A9 67 78 00 00 00 00
1508449716.409218 can_line   can1  216   [8]  9D B0 6E 7E 00 00 00 00
1508449716.429337 can_line   can1  216   [8]  A4 B6 74 85 00 00 00 00
1508449716.451191 can_line   can1  216   [8]  AA BD 7B 8B 00 00 00 00
1508449716.469219 can_line   can1  216   [8]  B1 C3 81 92 00 00 00 00
1508449716.490105 can_line   can1  216   [8]  B7 CA 88 98 00 00 00 00
1508449716.507558 can_line   can1  216   [8]  BE D0 8E 9E 00 00 00 00
1508449716.530967 can_line   can1  216   [8]  C4 D7 95 A5 00 00 00 00
1508449716.548149 can_line   can1  216   [8]  CA DD 9B AB 00 00 00 00
1508449716.568705 can_line   can1  216   [8]  D1 E3 A1 B1 00 00 00 00
1508449716.587539 can_line   can1  216   [8]  D7 E9 A7 B8 00 00 00 00
1508449716.610707 can_line   can1  216   [8]  DD F0 AE BE 00 00 00 00
1508449716.629935 can_line   can1  216   [8]  E3 F6 B4 C4 00 00 00 00
1508449716.648724 can_line   can1  216   [8]  E9 FC BA CB 00 00 00 00
1508449716.667526 can_line   can1  216   [8]  F0 02 C1 D1 00 00 00 00
1508449716.689566 can_line   can1  216   [8]  F6 08 C7 D7 00 00 00 00
1508449716.708159 can_line   can1  216   [8]  FC 0E CD DD 00 00 00 00
1508449716.729413 can_line   can1  216   [8]  02 15 D3 E3 00 00 00 00
1508449716.746896 can_line   can1  216   [8]  08 1B D9 E9 00 00 00 00
1508449716.768594 can_line   can1  216   [8]  0E 21 DF EF 00 00 00 00
1508449716.787418 can_line   can1  216   [8]  14 27 E5 F5 00 00 00 00
1508449716.807581 can_line   can1  216   [8]  1A 2C EB FB 00 00 00 00
1508449716.827655 can_line   can1  216   [8]  20 32 F1 01 00 00 00 00
1508449716.848056 can_line   can1  216   [8]  26 38 F7 07 00 00 00 00
1508449716.867944 can_line   can1  216   [8]  2C 3E FD 0D 00 00 00 00
