47.735084 atanOfCurrentCurvature -0.068287
47.760781 atanOfCurrentCurvature -0.068287
47.772072 can_line   can0  480   [4]  00 C8 60 01
47.783278 atanOfCurrentCurvature -0.068287
47.800809 atanOfCurrentCurvature -0.068479
47.822321 can_line   can0  480   [4]  00 C8 F0 01
47.837637 atanOfCurrentCurvature -0.071643
47.861924 atanOfCurrentCurvature -0.072841
47.872186 can_line   can0  480   [4]  00 C8 09 02
47.882271 atanOfCurrentCurvature -0.073800
47.901042 atanOfCurrentCurvature -0.074711
47.922144 can_line   can0  480   [4]  00 C8 0F 02
47.935069 atanOfCurrentCurvature -0.074471
47.960779 atanOfCurrentCurvature -0.073129
47.972423 can_line   can0  480   [4]  00 C8 F2 01
47.983272 atanOfCurrentCurvature -0.071547
48.000776 atanOfCurrentCurvature -0.070684
48.022415 can_line   can0  480   [4]  00 C8 A0 01
48.036190 atanOfCurrentCurvature -0.069006
48.061876 atanOfCurrentCurvature -0.068143
48.072484 can_line   can0  480   [4]  00 C8 AD 01
48.082176 atanOfCurrentCurvature -0.068143
48.100844 atanOfCurrentCurvature -0.068479
48.122283 can_line   can0  480   [4]  00 C8 C1 01
48.135213 atanOfCurrentCurvature -0.069150
48.160725 atanOfCurrentCurvature -0.069677
48.172419 can_line   can0  480   [4]  00 C8 FA 01
48.183195 atanOfCurrentCurvature -0.069677
48.200913 atanOfCurrentCurvature -0.069486
48.222410 can_line   can0  480   [4]  00 C8 F4 01
48.236350 atanOfCurrentCurvature -0.068862
48.261700 atanOfCurrentCurvature -0.068143
48.272070 can_line   can0  480   [4]  00 C8 B9 01
48.282150 atanOfCurrentCurvature -0.067856
48.300860 atanOfCurrentCurvature -0.067664
48.322119 can_line   can0  480   [4]  00 C8 BA 01
48.336510 atanOfCurrentCurvature -0.067664
48.360800 atanOfCurrentCurvature -0.067856
48.372067 can_line   can0  480   [4]  00 C8 C5 01
48.383304 atanOfCurrentCurvature -0.068047
48.400805 atanOfCurrentCurvature -0.068047
48.422112 can_line   can0  480   [4]  00 C8 FF 01
48.436218 atanOfCurrentCurvature -0.068047
48.461809 atanOfCurrentCurvature -0.067664
48.472243 can_line   can0  480   [4]  00 C8 C3 01
48.482078 atanOfCurrentCurvature -0.067616
48.500816 atanOfCurrentCurvature -0.067616
48.522149 can_line   can0  480   [4]  00 C8 C8 01
48.535143 atanOfCurrentCurvature -0.067616
48.560782 atanOfCurrentCurvature -0.067616
48.572006 can_line   can0  480   [4]  00 C8 D3 01
48.583247 atanOfCurrentCurvature -0.067616
48.600785 atanOfCurrentCurvature -0.067616
48.622336 can_line   can0  480   [4]  00 C8 E1 01
48.636181 atanOfCurrentCurvature -0.067616
48.661827 atanOfCurrentCurvature -0.067616
48.672283 can_line   can0  480   [4]  00 C8 E1 01
48.682215 atanOfCurrentCurvature -0.067616
48.700706 atanOfCurrentCurvature -0.067616
48.722271 can_line   can0  480   [4]  00 C8 E1 01
48.735138 atanOfCurrentCurvature -0.067616
48.760768 atanOfCurrentCurvature -0.067616
48.772479 can_line   can0  480   [4]  00 C8 E1 01
48.783250 atanOfCurrentCurvature -0.067616
48.800841 atanOfCurrentCurvature -0.067616
48.822181 can_line   can0  480   [4]  00 C8 E1 01
48.837584 atanOfCurrentCurvature -0.067616
48.861865 atanOfCurrentCurvature -0.067616
48.872066 can_line   can0  480   [4]  00 C8 E1 01
48.882209 atanOfCurrentCurvature -0.067616
48.900900 atanOfCurrentCurvature -0.067616
48.922332 can_line   can0  480   [4]  00 C8 E1 01
48.935203 atanOfCurrentCurvature -0.067616
48.960680 atanOfCurrentCurvature -0.067616
48.972336 can_line   can0  480   [4]  00 C8 E1 01
48.983224 atanOfCurrentCurvature -0.067616
49.000890 atanOfCurrentCurvature -0.067616
49.022428 can_line   can0  480   [4]  00 C8 E1 01
49.036252 atanOfCurrentCurvature -0.067616
49.061859 atanOfCurrentCurvature -0.067616
49.072331 can_line   can0  480   [4]  00 C8 E1 01
49.082218 atanOfCurrentCurvature -0.067616
49.100808 atanOfCurrentCurvature -0.067616
49.122324 can_line   can0  480   [4]  00 C8 E1 01
49.135206 atanOfCurrentCurvature -0.067616
49.160751 atanOfCurrentCurvature -0.067616
49.172364 can_line   can0  480   [4]  00 C8 E1 01
49.183233 atanOfCurrentCurvature -0.067616
49.200819 atanOfCurrentCurvature -0.067616
49.222509 can_line   can0  480   [4]  00 C8 E1 01
49.236292 atanOfCurrentCurvature -0.067616
49.261847 atanOfCurrentCurvature -0.067616
49.272494 can_line   can0  480   [4]  00 C8 E1 01
49.282216 atanOfCurrentCurvature -0.067616
49.300873 atanOfCurrentCurvature -0.067616
49.322147 can_line   can0  480   [4]  00 C8 E1 01
49.336608 atanOfCurrentCurvature -0.067616
49.360809 atanOfCurrentCurvature -0.067616
49.372017 can_line   can0  480   [4]  00 C8 E1 01
49.383208 atanOfCurrentCurvature -0.067616
49.400739 atanOfCurrentCurvature -0.067616
49.422141 can_line   can0  480   [4]  00 C8 E1 01
49.436237 atanOfCurrentCurvature -0.067616
49.461840 atanOfCurrentCurvature -0.067616
49.472242 can_line   can0  480   [4]  00 C8 E1 01
49.482150 atanOfCurrentCurvature -0.067616
49.500883 atanOfCurrentCurvature -0.067616
49.522100 can_line   can0  480   [4]  00 C8 E1 01
49.535087 atanOfCurrentCurvature -0.067616
49.560764 atanOfCurrentCurvature -0.067616
49.571997 can_line   can0  480   [4]  00 C8 E1 01
49.583131 atanOfCurrentCurvature -0.067616
49.600794 atanOfCurrentCurvature -0.067616
49.621983 can_line   can0  480   [4]  00 C8 E1 01
49.636214 atanOfCurrentCurvature -0.067616
49.661678 atanOfCurrentCurvature -0.067616
49.672117 can_line   can0  480   [4]  00 C8 E1 01
49.682165 atanOfCurrentCurvature -0.067616
49.700867 atanOfCurrentCurvature -0.067616
49.722251 can_line   can0  480   [4]  00 C8 E1 01
49.735193 atanOfCurrentCurvature -0.067616
49.760795 atanOfCurrentCurvature -0.067616
49.772244 can_line   can0  480   [4]  00 C8 E1 01
49.783196 atanOfCurrentCurvature -0.067616
49.800759 atanOfCurrentCurvature -0.067616
49.822218 can_line   can0  480   [4]  00 C8 E1 01
49.837508 atanOfCurrentCurvature -0.067616
49.861696 atanOfCurrentCurvature -0.067616
49.872111 can_line   can0  480   [4]  00 C8 E1 01
49.882024 atanOfCurrentCurvature -0.067616
49.900921 atanOfCurrentCurvature -0.067616
49.922019 can_line   can0  480   [4]  00 C8 E1 01
49.935119 atanOfCurrentCurvature -0.067616
49.960811 atanOfCurrentCurvature -0.067616
49.971969 can_line   can0  480   [4]  00 C8 E1 01
49.983164 atanOfCurrentCurvature -0.067616
50.000763 atanOfCurrentCurvature -0.067616
50.022119 can_line   can0  480   [4]  00 C8 E1 01
50.036241 atanOfCurrentCurvature -0.067616
50.061718 atanOfCurrentCurvature -0.067616
50.072038 can_line   can0  480   [4]  00 C8 E1 01
50.082026 atanOfCurrentCurvature -0.067616
50.100894 atanOfCurrentCurvature -0.067616
50.122005 can_line   can0  480   [4]  00 C8 E1 01
50.135118 atanOfCurrentCurvature -0.067616
50.160810 atanOfCurrentCurvature -0.067616
50.172008 can_line   can0  480   [4]  00 C8 E1 01
50.183507 atanOfCurrentCurvature -0.067616
50.200992 atanOfCurrentCurvature -0.067616
50.222001 can_line   can0  480   [4]  00 C8 E1 01
50.236258 atanOfCurrentCurvature -0.067616
50.261762 atanOfCurrentCurvature -0.067616
50.272033 can_line   can0  480   [4]  00 C8 E1 01
50.282112 atanOfCurrentCurvature -0.067616
50.300877 atanOfCurrentCurvature -0.067616
50.322086 can_line   can0  480   [4]  00 C8 E1 01
50.336484 atanOfCurrentCurvature -0.067616
50.360878 atanOfCurrentCurvature -0.067616
50.372421 can_line   can0  480   [4]  00 C8 E1 01
50.383130 atanOfCurrentCurvature -0.067616
50.400803 atanOfCurrentCurvature -0.067616
50.422378 can_line   can0  480   [4]  00 C8 E1 01
50.436082 atanOfCurrentCurvature -0.067616
50.461841 atanOfCurrentCurvature -0.067616
50.472291 can_line   can0  480   [4]  00 C8 E1 01
50.482133 atanOfCurrentCurvature -0.067616
50.500821 atanOfCurrentCurvature -0.067616
50.522424 can_line   can0  480   [4]  00 C8 E1 01
50.535118 atanOfCurrentCurvature -0.067616
50.560813 atanOfCurrentCurvature -0.067616
50.572340 can_line   can0  480   [4]  00 C8 E1 01
50.583168 atanOfCurrentCurvature -0.067616
50.600804 atanOfCurrentCurvature -0.067616
50.622023 can_line   can0  480   [4]  00 C8 E1 01
50.636385 atanOfCurrentCurvature -0.067616
50.661790 atanOfCurrentCurvature -0.067616
50.672434 can_line   can0  480   [4]  00 C8 E1 01
50.682129 atanOfCurrentCurvature -0.067616
50.700733 atanOfCurrentCurvature -0.067616
50.722222 can_line   can0  480   [4]  00 C8 E1 01
50.735192 atanOfCurrentCurvature -0.067616
50.760648 atanOfCurrentCurvature -0.067616
50.772025 can_line   can0  480   [4]  00 C8 E1 01
50.783199 atanOfCurrentCurvature -0.067616
50.800797 atanOfCurrentCurvature -0.067616
50.822102 can_line   can0  480   [4]  00 C8 E1 01
50.837614 atanOfCurrentCurvature -0.067616
50.861835 atanOfCurrentCurvature -0.067616
50.872405 can_line   can0  480   [4]  00 C8 E1 01
50.882084 atanOfCurrentCurvature -0.067616
50.900776 atanOfCurrentCurvature -0.067616
50.922095 can_line   can0  480   [4]  00 C8 E1 01
50.935126 atanOfCurrentCurvature -0.067616
50.960634 atanOfCurrentCurvature -0.067616
50.972466 can_line   can0  480   [4]  00 C8 E1 01
50.983261 atanOfCurrentCurvature -0.067616
51.000840 atanOfCurrentCurvature -0.067616
51.022469 can_line   can0  480   [4]  00 C8 E1 01
51.036349 atanOfCurrentCurvature -0.067616
51.062003 atanOfCurrentCurvature -0.067616
51.072280 can_line   can0  480   [4]  00 C8 E1 01
51.081905 atanOfCurrentCurvature -0.067616
51.100742 atanOfCurrentCurvature -0.067616
51.122434 can_line   can0  480   [4]  12 22 22 02
51.134998 atanOfCurrentCurvature -0.067616
51.160640 atanOfCurrentCurvature -0.067280
51.172130 can_line   can0  480   [4]  12 22 22 02
51.183017 atanOfCurrentCurvature -0.066849
51.200887 atanOfCurrentCurvature -0.066418
51.222170 can_line   can0  480   [4]  12 22 23 02
51.236189 atanOfCurrentCurvature -0.065219
51.261770 atanOfCurrentCurvature -0.063877
51.272001 can_line   can0  480   [4]  12 22 22 02
51.281827 atanOfCurrentCurvature -0.063158
51.300838 atanOfCurrentCurvature -0.062199
51.322312 can_line   can0  480   [4]  12 22 22 02
51.336415 atanOfCurrentCurvature -0.061480
51.360724 atanOfCurrentCurvature -0.060809
51.371985 can_line   can0  480   [4]  14 22 25 02
51.383069 atanOfCurrentCurvature -0.060617
51.400826 atanOfCurrentCurvature -0.060617
51.422138 can_line   can0  480   [4]  14 22 29 02
51.435976 atanOfCurrentCurvature -0.060617
51.461782 atanOfCurrentCurvature -0.060617
51.472207 can_line   can0  480   [4]  14 22 2C 02
51.481947 atanOfCurrentCurvature -0.060617
51.500871 atanOfCurrentCurvature -0.060521
51.522392 can_line   can0  480   [4]  14 22 2E 02
51.534927 atanOfCurrentCurvature -0.060330
51.560743 atanOfCurrentCurvature -0.059946
51.572346 can_line   can0  480   [4]  14 22 2F 02
51.583006 atanOfCurrentCurvature -0.059515
51.600794 atanOfCurrentCurvature -0.059083
51.622473 can_line   can0  480   [4]  14 22 2F 02
51.635927 atanOfCurrentCurvature -0.058316
51.661841 atanOfCurrentCurvature -0.057453
51.672519 can_line   can0  480   [4]  14 22 30 02
51.681895 atanOfCurrentCurvature -0.057070
51.700770 atanOfCurrentCurvature -0.056447
51.722392 can_line   can0  480   [4]  14 22 31 02
51.734869 atanOfCurrentCurvature -0.055919
51.760777 atanOfCurrentCurvature -0.055440
51.772484 can_line   can0  480   [4]  1A 22 37 02
51.783015 atanOfCurrentCurvature -0.055008
51.800675 atanOfCurrentCurvature -0.054865
51.822760 can_line   can0  480   [4]  1A 22 38 02
51.837460 atanOfCurrentCurvature -0.053906
51.861810 atanOfCurrentCurvature -0.053139
51.872183 can_line   can0  480   [4]  16 22 35 02
51.882418 atanOfCurrentCurvature -0.052659
51.900760 atanOfCurrentCurvature -0.051701
51.922096 can_line   can0  480   [4]  16 22 35 02
51.934957 atanOfCurrentCurvature -0.050790
51.960766 atanOfCurrentCurvature -0.049496
51.972544 can_line   can0  480   [4]  16 22 36 02
51.983030 atanOfCurrentCurvature -0.048729
52.000664 atanOfCurrentCurvature -0.048249
52.022482 can_line   can0  480   [4]  16 22 37 02
52.036027 atanOfCurrentCurvature -0.047243
52.061749 atanOfCurrentCurvature -0.046284
52.072002 can_line   can0  480   [4]  16 22 39 02
52.081965 atanOfCurrentCurvature -0.045756
52.100833 atanOfCurrentCurvature -0.045037
52.122099 can_line   can0  480   [4]  16 22 38 02
52.134872 atanOfCurrentCurvature -0.044175
52.160762 atanOfCurrentCurvature -0.043072
52.172068 can_line   can0  480   [4]  1C 22 3A 02
52.182975 atanOfCurrentCurvature -0.042161
52.200920 atanOfCurrentCurvature -0.041490
52.222638 can_line   can0  480   [4]  18 22 38 02
52.236077 atanOfCurrentCurvature -0.040148
52.261812 atanOfCurrentCurvature -0.038710
52.272263 can_line   can0  480   [4]  12 22 3B 02
52.282822 atanOfCurrentCurvature -0.037943
52.300865 atanOfCurrentCurvature -0.036600
52.322708 can_line   can0  480   [4]  10 22 38 02
52.336447 atanOfCurrentCurvature -0.035162
52.360648 atanOfCurrentCurvature -0.033005
52.372397 can_line   can0  480   [4]  10 22 3A 02
52.383019 atanOfCurrentCurvature -0.031231
52.400738 atanOfCurrentCurvature -0.029985
52.422480 can_line   can0  480   [4]  0E 22 37 02
52.436145 atanOfCurrentCurvature -0.027396
52.461759 atanOfCurrentCurvature -0.024616
52.472255 can_line   can0  480   [4]  16 22 3A 02
52.481845 atanOfCurrentCurvature -0.023274
52.500839 atanOfCurrentCurvature -0.021117
52.522196 can_line   can0  480   [4]  14 22 34 02
52.534910 atanOfCurrentCurvature -0.018863
52.560563 atanOfCurrentCurvature -0.015843
52.572429 can_line   can0  480   [4]  14 22 37 02
52.583115 atanOfCurrentCurvature -0.013686
52.600722 atanOfCurrentCurvature -0.012344
52.622106 can_line   can0  480   [4]  14 22 33 02
52.636090 atanOfCurrentCurvature -0.009755
52.661621 atanOfCurrentCurvature -0.007502
52.672598 can_line   can0  480   [4]  14 22 37 02
52.682106 atanOfCurrentCurvature -0.006400
52.700833 atanOfCurrentCurvature -0.004914
52.722632 can_line   can0  480   [4]  12 22 32 02
52.734964 atanOfCurrentCurvature -0.003332
52.760725 atanOfCurrentCurvature -0.001414
52.772301 can_line   can0  480   [4]  14 22 35 02
52.783026 atanOfCurrentCurvature 0.000072
52.800879 atanOfCurrentCurvature 0.001031
52.822653 can_line   can0  480   [4]  14 22 31 02
52.837395 atanOfCurrentCurvature 0.003811
52.861873 atanOfCurrentCurvature 0.005489
52.872565 can_line   can0  480   [4]  16 22 32 02
52.882042 atanOfCurrentCurvature 0.006543
52.900719 atanOfCurrentCurvature 0.008221
52.922734 can_line   can0  480   [4]  16 22 2C 02
52.934896 atanOfCurrentCurvature 0.009707
52.960766 atanOfCurrentCurvature 0.011625
52.972355 can_line   can0  480   [4]  14 22 29 02
52.983100 atanOfCurrentCurvature 0.013159
53.000872 atanOfCurrentCurvature 0.013974
53.022413 can_line   can0  480   [4]  16 22 29 02
53.035974 atanOfCurrentCurvature 0.015652
53.061954 atanOfCurrentCurvature 0.017042
53.072282 can_line   can0  480   [4]  12 22 28 02
53.081788 atanOfCurrentCurvature 0.017713
53.100706 atanOfCurrentCurvature 0.018720
53.122230 can_line   can0  480   [4]  14 22 24 02
53.135065 atanOfCurrentCurvature 0.019535
53.160677 atanOfCurrentCurvature 0.020541
53.172063 can_line   can0  480   [4]  14 22 21 02
53.183001 atanOfCurrentCurvature 0.021117
53.201007 atanOfCurrentCurvature 0.021452
53.222227 can_line   can0  480   [4]  16 22 20 02
53.236026 atanOfCurrentCurvature 0.021979
53.261689 atanOfCurrentCurvature 0.022363
53.272163 can_line   can0  480   [4]  16 22 1C 02
53.281977 atanOfCurrentCurvature 0.022507
53.300798 atanOfCurrentCurvature 0.022698
53.322277 can_line   can0  480   [4]  16 22 1B 02
53.336267 atanOfCurrentCurvature 0.022794
53.360766 atanOfCurrentCurvature 0.022794
53.372080 can_line   can0  480   [4]  16 22 17 02
53.383034 atanOfCurrentCurvature 0.022794
53.400742 atanOfCurrentCurvature 0.022698
53.422215 can_line   can0  480   [4]  14 22 15 02
53.435901 atanOfCurrentCurvature 0.022698
53.461665 atanOfCurrentCurvature 0.022698
53.472125 can_line   can0  480   [4]  16 22 0F 02
53.481842 atanOfCurrentCurvature 0.022698
53.500704 atanOfCurrentCurvature 0.022698
53.522291 can_line   can0  480   [4]  18 22 0D 02
53.534803 atanOfCurrentCurvature 0.022603
53.560729 atanOfCurrentCurvature 0.022507
53.572012 can_line   can0  480   [4]  16 22 06 02
53.582996 atanOfCurrentCurvature 0.022459
53.600760 atanOfCurrentCurvature 0.022363
53.622245 can_line   can0  480   [4]  16 22 FB 01
53.635904 atanOfCurrentCurvature 0.022123
53.661785 atanOfCurrentCurvature 0.021788
53.672160 can_line   can0  480   [4]  14 22 BA 01
53.682037 atanOfCurrentCurvature 0.021500
53.700722 atanOfCurrentCurvature 0.020925
53.722210 can_line   can0  480   [4]  18 22 B4 01
53.734815 atanOfCurrentCurvature 0.020110
53.760746 atanOfCurrentCurvature 0.018768
53.772385 can_line   can0  480   [4]  1A 22 B1 01
53.783027 atanOfCurrentCurvature 0.017617
53.800619 atanOfCurrentCurvature 0.016658
53.822198 can_line   can0  480   [4]  18 22 AC 01
53.837297 atanOfCurrentCurvature 0.014789
53.861720 atanOfCurrentCurvature 0.013111
53.872042 can_line   can0  480   [4]  14 22 AF 01
53.882009 atanOfCurrentCurvature 0.012344
53.900791 atanOfCurrentCurvature 0.011337
53.922155 can_line   can0  480   [4]  18 22 AA 01
53.934839 atanOfCurrentCurvature 0.010426
53.960784 atanOfCurrentCurvature 0.009324
53.972062 can_line   can0  480   [4]  18 22 A5 01
53.982969 atanOfCurrentCurvature 0.008509
54.000857 atanOfCurrentCurvature 0.008030
54.022073 can_line   can0  480   [4]  18 22 A0 01
54.035861 atanOfCurrentCurvature 0.006831
54.061736 atanOfCurrentCurvature 0.005441
54.072351 can_line   can0  480   [4]  14 22 A1 01
54.081921 atanOfCurrentCurvature 0.004674
54.100697 atanOfCurrentCurvature 0.003284
54.122400 can_line   can0  480   [4]  16 22 A1 01
54.134802 atanOfCurrentCurvature 0.001654
54.161143 atanOfCurrentCurvature -0.000599
54.172327 can_line   can0  480   [4]  1A 22 A4 01
54.182998 atanOfCurrentCurvature -0.002517
54.200908 atanOfCurrentCurvature -0.003715
54.222357 can_line   can0  480   [4]  18 22 A4 01
54.236201 atanOfCurrentCurvature -0.006064
54.261796 atanOfCurrentCurvature -0.008221
54.272302 can_line   can0  480   [4]  18 22 AD 01
54.281929 atanOfCurrentCurvature -0.009276
54.300817 atanOfCurrentCurvature -0.010762
54.322274 can_line   can0  480   [4]  1C 22 AE 01
54.336368 atanOfCurrentCurvature -0.011960
54.360818 atanOfCurrentCurvature -0.013159
54.372272 can_line   can0  480   [4]  18 22 AB 01
54.383049 atanOfCurrentCurvature -0.013590
54.400810 atanOfCurrentCurvature -0.013782
54.422458 can_line   can0  480   [4]  16 22 A6 01
54.435960 atanOfCurrentCurvature -0.013830
54.461650 atanOfCurrentCurvature -0.013974
54.472285 can_line   can0  480   [4]  16 22 A5 01
54.482081 atanOfCurrentCurvature -0.014166
54.500707 atanOfCurrentCurvature -0.014309
54.522242 can_line   can0  480   [4]  1C 22 A4 01
54.535031 atanOfCurrentCurvature -0.014501
54.560743 atanOfCurrentCurvature -0.014645
54.572221 can_line   can0  480   [4]  18 22 A5 01
54.583030 atanOfCurrentCurvature -0.014789
54.600803 atanOfCurrentCurvature -0.015076
54.622322 can_line   can0  480   [4]  1A 22 A7 01
54.636250 atanOfCurrentCurvature -0.015604
54.661861 atanOfCurrentCurvature -0.016467
54.672375 can_line   can0  480   [4]  1A 22 AC 01
54.681864 atanOfCurrentCurvature -0.016610
54.700691 atanOfCurrentCurvature -0.016946
54.722275 can_line   can0  480   [4]  1A 22 AC 01
54.735021 atanOfCurrentCurvature -0.017234
54.760596 atanOfCurrentCurvature -0.017234
54.772382 can_line   can0  480   [4]  18 22 AB 01
54.783071 atanOfCurrentCurvature -0.017234
54.800813 atanOfCurrentCurvature -0.017234
54.822386 can_line   can0  480   [4]  1A 22 AB 01
54.837429 atanOfCurrentCurvature -0.017282
54.861783 atanOfCurrentCurvature -0.017282
54.872431 can_line   can0  480   [4]  1A 22 AE 01
54.882020 atanOfCurrentCurvature -0.017282
54.900834 atanOfCurrentCurvature -0.017234
54.922231 can_line   can0  480   [4]  18 22 B1 01
54.935247 atanOfCurrentCurvature -0.017234
54.960605 atanOfCurrentCurvature -0.017234
54.972186 can_line   can0  480   [4]  18 22 B2 01
54.983130 atanOfCurrentCurvature -0.017234
55.000766 atanOfCurrentCurvature -0.017234
55.022133 can_line   can0  480   [4]  1C 22 B6 01
55.036053 atanOfCurrentCurvature -0.017234
55.061640 atanOfCurrentCurvature -0.017234
55.072097 can_line   can0  480   [4]  18 22 C1 01
55.081999 atanOfCurrentCurvature -0.017234
55.100673 atanOfCurrentCurvature -0.017186
55.122216 can_line   can0  480   [4]  1A 22 E2 01
55.135343 atanOfCurrentCurvature -0.017186
55.160585 atanOfCurrentCurvature -0.016994
55.172298 can_line   can0  480   [4]  1E 22 F8 01
55.182988 atanOfCurrentCurvature -0.016754
55.200800 atanOfCurrentCurvature -0.016419
55.222333 can_line   can0  480   [4]  1C 22 04 02
55.236101 atanOfCurrentCurvature -0.015652
55.261632 atanOfCurrentCurvature -0.014549
55.272251 can_line   can0  480   [4]  1A 22 FA 01
55.282907 atanOfCurrentCurvature -0.013878
55.301067 atanOfCurrentCurvature -0.013063
55.322258 can_line   can0  480   [4]  1C 22 FB 01
55.336287 atanOfCurrentCurvature -0.012104
55.360957 atanOfCurrentCurvature -0.011050
55.372253 can_line   can0  480   [4]  1C 22 03 02
55.382983 atanOfCurrentCurvature -0.010139
55.400724 atanOfCurrentCurvature -0.009611
55.422368 can_line   can0  480   [4]  1C 22 FA 01
55.435931 atanOfCurrentCurvature -0.008605
55.461870 atanOfCurrentCurvature -0.007790
55.472251 can_line   can0  480   [4]  1C 22 F5 01
55.481936 atanOfCurrentCurvature -0.007550
55.500801 atanOfCurrentCurvature -0.007215
55.522314 can_line   can0  480   [4]  1C 22 F7 01
55.534991 atanOfCurrentCurvature -0.006975
55.560831 atanOfCurrentCurvature -0.006831
55.572329 can_line   can0  480   [4]  12 22 F9 01
55.582956 atanOfCurrentCurvature -0.006735
55.600772 atanOfCurrentCurvature -0.006591
55.622219 can_line   can0  480   [4]  14 22 F8 01
55.635967 atanOfCurrentCurvature -0.006448
55.661951 atanOfCurrentCurvature -0.006400
55.672359 can_line   can0  480   [4]  20 22 04 02
55.681961 atanOfCurrentCurvature -0.006400
55.700829 atanOfCurrentCurvature -0.006256
55.722278 can_line   can0  480   [4]  1C 22 09 02
55.734970 atanOfCurrentCurvature -0.006160
55.760801 atanOfCurrentCurvature -0.006064
55.772268 can_line   can0  480   [4]  1E 22 0B 02
55.783078 atanOfCurrentCurvature -0.005872
55.800726 atanOfCurrentCurvature -0.005729
55.822316 can_line   can0  480   [4]  1E 22 0B 02
55.837375 atanOfCurrentCurvature -0.005393
55.861760 atanOfCurrentCurvature -0.005249
55.872269 can_line   can0  480   [4]  20 22 14 02
55.881915 atanOfCurrentCurvature -0.005153
55.900805 atanOfCurrentCurvature -0.004914
55.922399 can_line   can0  480   [4]  1E 22 10 02
55.934889 atanOfCurrentCurvature -0.004770
55.960650 atanOfCurrentCurvature -0.004434
55.972236 can_line   can0  480   [4]  1E 22 16 02
55.983122 atanOfCurrentCurvature -0.004147
56.000672 atanOfCurrentCurvature -0.003955
56.022345 can_line   can0  480   [4]  1A 22 14 02
56.035972 atanOfCurrentCurvature -0.003332
56.061668 atanOfCurrentCurvature -0.002996
56.072300 can_line   can0  480   [4]  1C 22 1A 02
56.082671 atanOfCurrentCurvature -0.002517
56.100868 atanOfCurrentCurvature -0.002133
56.122307 can_line   can0  480   [4]  1A 22 16 02
56.134899 atanOfCurrentCurvature -0.001558
56.160709 atanOfCurrentCurvature -0.000407
56.172331 can_line   can0  480   [4]  20 22 15 02
56.182990 atanOfCurrentCurvature 0.000312
56.200743 atanOfCurrentCurvature 0.000887
56.222311 can_line   can0  480   [4]  22 22 15 02
56.236160 atanOfCurrentCurvature 0.002181
56.261775 atanOfCurrentCurvature 0.002756
56.272297 can_line   can0  480   [4]  1E 22 13 02
56.282882 atanOfCurrentCurvature 0.002996
56.300861 atanOfCurrentCurvature 0.003475
56.322401 can_line   can0  480   [4]  1C 22 11 02
56.336455 atanOfCurrentCurvature 0.003907
56.360661 atanOfCurrentCurvature 0.004099
56.372237 can_line   can0  480   [4]  18 22 11 02
56.383097 atanOfCurrentCurvature 0.004099
56.400796 atanOfCurrentCurvature 0.004195
56.422338 can_line   can0  480   [4]  1C 22 12 02
56.436106 atanOfCurrentCurvature 0.004051
56.461712 atanOfCurrentCurvature 0.004099
56.472282 can_line   can0  480   [4]  22 22 13 02
56.482194 atanOfCurrentCurvature 0.004099
56.500758 atanOfCurrentCurvature 0.004099
56.522285 can_line   can0  480   [4]  22 22 12 02
56.534918 atanOfCurrentCurvature 0.004099
56.560745 atanOfCurrentCurvature 0.004099
56.572208 can_line   can0  480   [4]  1C 22 12 02
56.583064 atanOfCurrentCurvature 0.004099
56.600838 atanOfCurrentCurvature 0.004099
56.622321 can_line   can0  480   [4]  20 22 12 02
56.636002 atanOfCurrentCurvature 0.004195
56.661815 atanOfCurrentCurvature 0.004195
56.672268 can_line   can0  480   [4]  20 22 12 02
56.682087 atanOfCurrentCurvature 0.004195
56.700862 atanOfCurrentCurvature 0.004242
56.722432 can_line   can0  480   [4]  18 22 13 02
56.734935 atanOfCurrentCurvature 0.004195
56.760687 atanOfCurrentCurvature 0.004195
56.772232 can_line   can0  480   [4]  20 22 12 02
56.783037 atanOfCurrentCurvature 0.004242
56.800828 atanOfCurrentCurvature 0.004242
56.822297 can_line   can0  480   [4]  24 22 13 02
56.837751 atanOfCurrentCurvature 0.004338
56.861792 atanOfCurrentCurvature 0.004338
56.872303 can_line   can0  480   [4]  20 22 0E 02
56.881826 atanOfCurrentCurvature 0.004338
56.900878 atanOfCurrentCurvature 0.004482
56.922365 can_line   can0  480   [4]  1C 22 10 02
56.935076 atanOfCurrentCurvature 0.004578
56.960780 atanOfCurrentCurvature 0.004578
56.972028 can_line   can0  480   [4]  20 22 11 02
56.983080 atanOfCurrentCurvature 0.004722
57.000834 atanOfCurrentCurvature 0.004818
57.022054 can_line   can0  480   [4]  22 22 0E 02
57.036087 atanOfCurrentCurvature 0.004818
57.061789 atanOfCurrentCurvature 0.004962
57.072041 can_line   can0  480   [4]  22 22 0F 02
57.082835 atanOfCurrentCurvature 0.004866
57.100687 atanOfCurrentCurvature 0.004962
57.122225 can_line   can0  480   [4]  1E 22 0F 02
57.134995 atanOfCurrentCurvature 0.005201
57.160773 atanOfCurrentCurvature 0.005153
57.172247 can_line   can0  480   [4]  24 22 F7 01
57.186832 atanOfCurrentCurvature 0.005297
57.200921 atanOfCurrentCurvature 0.005153
57.222114 can_line   can0  480   [4]  26 22 06 02
57.236243 atanOfCurrentCurvature 0.004962
57.261773 atanOfCurrentCurvature 0.004866
57.272015 can_line   can0  480   [4]  26 22 03 02
57.283171 atanOfCurrentCurvature 0.004818
57.300900 atanOfCurrentCurvature 0.004626
57.322458 can_line   can0  480   [4]  1E 22 08 02
57.336569 atanOfCurrentCurvature 0.004626
57.360695 atanOfCurrentCurvature 0.004338
57.372316 can_line   can0  480   [4]  1E 22 08 02
57.383063 atanOfCurrentCurvature 0.004338
57.400683 atanOfCurrentCurvature 0.004242
57.422421 can_line   can0  480   [4]  20 22 02 02
57.436154 atanOfCurrentCurvature 0.004051
57.461813 atanOfCurrentCurvature 0.004003
57.472136 can_line   can0  480   [4]  22 22 09 02
57.482113 atanOfCurrentCurvature 0.003907
57.500815 atanOfCurrentCurvature 0.004003
57.522218 can_line   can0  480   [4]  1E 22 FC 01
57.535160 atanOfCurrentCurvature 0.004003
57.560814 atanOfCurrentCurvature 0.004051
57.571993 can_line   can0  480   [4]  20 22 CD 01
57.582996 atanOfCurrentCurvature 0.004051
57.600845 atanOfCurrentCurvature 0.003811
57.622336 can_line   can0  480   [4]  20 22 FA 01
57.636315 atanOfCurrentCurvature 0.003667
57.661807 atanOfCurrentCurvature 0.003332
57.672541 can_line   can0  480   [4]  22 22 07 02
57.681935 atanOfCurrentCurvature 0.003332
57.700697 atanOfCurrentCurvature 0.003428
57.722363 can_line   can0  480   [4]  24 22 D2 01
57.735085 atanOfCurrentCurvature 0.003332
57.760713 atanOfCurrentCurvature 0.003475
57.772147 can_line   can0  480   [4]  20 22 AA 01
57.783071 atanOfCurrentCurvature 0.002996
57.800748 atanOfCurrentCurvature 0.002852
57.822278 can_line   can0  480   [4]  1C 22 B5 01
57.837431 atanOfCurrentCurvature 0.001462
57.861716 atanOfCurrentCurvature 0.000839
57.872182 can_line   can0  480   [4]  28 22 C8 01
57.881934 atanOfCurrentCurvature 0.000312
57.900921 atanOfCurrentCurvature -0.000647
57.922084 can_line   can0  480   [4]  28 22 F8 01
57.935148 atanOfCurrentCurvature -0.001031
57.960683 atanOfCurrentCurvature -0.001462
57.971904 can_line   can0  480   [4]  26 22 01 02
57.983098 atanOfCurrentCurvature -0.001174
58.000696 atanOfCurrentCurvature -0.001127
58.022134 can_line   can0  480   [4]  26 22 BC 01
58.035959 atanOfCurrentCurvature -0.000503
58.061762 atanOfCurrentCurvature -0.000695
58.072126 can_line   can0  480   [4]  20 22 C3 01
58.081943 atanOfCurrentCurvature -0.000791
58.100791 atanOfCurrentCurvature -0.000791
58.122174 can_line   can0  480   [4]  24 22 B9 01
58.135036 atanOfCurrentCurvature -0.001462
58.160715 atanOfCurrentCurvature -0.001510
58.172027 can_line   can0  480   [4]  26 22 B9 01
58.182990 atanOfCurrentCurvature -0.002133
58.200819 atanOfCurrentCurvature -0.002133
58.222058 can_line   can0  480   [4]  24 22 B9 01
58.236037 atanOfCurrentCurvature -0.002708
58.261763 atanOfCurrentCurvature -0.002708
58.272073 can_line   can0  480   [4]  24 22 C6 01
58.282777 atanOfCurrentCurvature -0.002852
58.300742 atanOfCurrentCurvature -0.003044
58.322143 can_line   can0  480   [4]  1C 22 F1 01
58.336491 atanOfCurrentCurvature -0.002852
58.360594 atanOfCurrentCurvature -0.002708
58.372134 can_line   can0  480   [4]  20 22 C3 01
58.383095 atanOfCurrentCurvature -0.002277
58.400751 atanOfCurrentCurvature -0.002277
58.422194 can_line   can0  480   [4]  1E 22 BE 01
58.435977 atanOfCurrentCurvature -0.001989
58.461737 atanOfCurrentCurvature -0.002085
58.472163 can_line   can0  480   [4]  22 22 E7 01
58.481840 atanOfCurrentCurvature -0.002085
58.500840 atanOfCurrentCurvature -0.001989
58.522108 can_line   can0  480   [4]  26 22 C6 01
58.534985 atanOfCurrentCurvature -0.001989
58.560766 atanOfCurrentCurvature -0.001989
58.571974 can_line   can0  480   [4]  24 22 F5 01
58.583121 atanOfCurrentCurvature -0.001989
58.600879 atanOfCurrentCurvature -0.001894
58.622152 can_line   can0  480   [4]  2C 22 EB 01
58.636032 atanOfCurrentCurvature -0.001798
58.661734 atanOfCurrentCurvature -0.001750
58.672131 can_line   can0  480   [4]  24 22 EC 01
58.681925 atanOfCurrentCurvature -0.001750
58.700864 atanOfCurrentCurvature -0.001750
58.722086 can_line   can0  480   [4]  26 22 FB 01
58.735110 atanOfCurrentCurvature -0.001654
58.760709 atanOfCurrentCurvature -0.001606
58.772065 can_line   can0  480   [4]  2A 22 F0 01
58.783080 atanOfCurrentCurvature -0.001318
58.800824 atanOfCurrentCurvature -0.001318
58.822163 can_line   can0  480   [4]  24 22 CF 01
58.837449 atanOfCurrentCurvature -0.001127
58.861750 atanOfCurrentCurvature -0.001318
58.872146 can_line   can0  480   [4]  26 22 ED 01
58.881990 atanOfCurrentCurvature -0.001270
58.900805 atanOfCurrentCurvature -0.001270
58.922037 can_line   can0  480   [4]  24 22 D3 01
58.935087 atanOfCurrentCurvature -0.001270
58.960619 atanOfCurrentCurvature -0.001174
58.972001 can_line   can0  480   [4]  24 22 B4 01
58.982980 atanOfCurrentCurvature -0.001174
59.000773 atanOfCurrentCurvature -0.001270
59.022039 can_line   can0  480   [4]  26 22 EC 01
59.036040 atanOfCurrentCurvature -0.001462
59.061716 atanOfCurrentCurvature -0.001318
59.072040 can_line   can0  480   [4]  26 22 C0 01
59.082227 atanOfCurrentCurvature -0.001270
59.100685 atanOfCurrentCurvature -0.001270
59.122143 can_line   can0  480   [4]  2A 22 F7 01
59.135045 atanOfCurrentCurvature -0.001270
59.160573 atanOfCurrentCurvature -0.001127
59.172003 can_line   can0  480   [4]  22 22 EC 01
59.183054 atanOfCurrentCurvature -0.001127
59.200754 atanOfCurrentCurvature -0.001127
59.222162 can_line   can0  480   [4]  2C 22 F4 01
59.235943 atanOfCurrentCurvature -0.001031
59.261795 atanOfCurrentCurvature -0.001127
59.272070 can_line   can0  480   [4]  2A 22 FE 01
59.282817 atanOfCurrentCurvature -0.001127
59.300762 atanOfCurrentCurvature -0.001127
59.322064 can_line   can0  480   [4]  2C 22 FE 01
59.336330 atanOfCurrentCurvature -0.001031
59.360574 atanOfCurrentCurvature -0.000935
59.371987 can_line   can0  480   [4]  22 22 FC 01
59.383078 atanOfCurrentCurvature -0.000839
59.400763 atanOfCurrentCurvature -0.000839
59.422199 can_line   can0  480   [4]  26 22 FD 01
59.436042 atanOfCurrentCurvature -0.000839
59.461768 atanOfCurrentCurvature -0.000695
59.471997 can_line   can0  480   [4]  20 22 FC 01
59.482301 atanOfCurrentCurvature -0.000695
59.500635 atanOfCurrentCurvature -0.000503
59.522147 can_line   can0  480   [4]  2C 22 F2 01
59.535037 atanOfCurrentCurvature -0.000312
59.560770 atanOfCurrentCurvature -0.000168
59.571981 can_line   can0  480   [4]  24 22 F7 01
59.583036 atanOfCurrentCurvature -0.000216
59.600766 atanOfCurrentCurvature -0.000168
59.622287 can_line   can0  480   [4]  2E 22 F8 01
59.636081 atanOfCurrentCurvature -0.000168
59.661729 atanOfCurrentCurvature -0.000072
59.672224 can_line   can0  480   [4]  2A 22 02 02
59.682036 atanOfCurrentCurvature -0.000072
59.700764 atanOfCurrentCurvature -0.000072
59.722151 can_line   can0  480   [4]  2E 22 FE 01
59.734955 atanOfCurrentCurvature -0.000072
59.760759 atanOfCurrentCurvature -0.000024
59.772021 can_line   can0  480   [4]  24 22 FC 01
59.783063 atanOfCurrentCurvature -0.000024
59.800781 atanOfCurrentCurvature -0.000024
59.822161 can_line   can0  480   [4]  2C 22 00 02
59.837488 atanOfCurrentCurvature -0.000072
59.861747 atanOfCurrentCurvature -0.000072
59.872033 can_line   can0  480   [4]  26 22 FF 01
59.882053 atanOfCurrentCurvature -0.000024
59.900704 atanOfCurrentCurvature 0.000024
59.922156 can_line   can0  480   [4]  2A 22 FE 01
59.934956 atanOfCurrentCurvature 0.000024
59.960566 atanOfCurrentCurvature 0.000120
59.972099 can_line   can0  480   [4]  2A 22 04 02
59.982999 atanOfCurrentCurvature 0.000120
60.000648 atanOfCurrentCurvature 0.000216
60.022158 can_line   can0  480   [4]  28 22 04 02
60.035962 atanOfCurrentCurvature 0.000312
60.061772 atanOfCurrentCurvature 0.000312
60.072013 can_line   can0  480   [4]  2C 22 02 02
60.081964 atanOfCurrentCurvature 0.000455
60.100748 atanOfCurrentCurvature 0.000503
60.122048 can_line   can0  480   [4]  28 22 04 02
60.135010 atanOfCurrentCurvature 0.000599
60.160632 atanOfCurrentCurvature 0.000599
60.172032 can_line   can0  480   [4]  2C 22 0C 02
60.182949 atanOfCurrentCurvature 0.000599
60.200877 atanOfCurrentCurvature 0.000599
60.222288 can_line   can0  480   [4]  20 22 0B 02
60.236285 atanOfCurrentCurvature 0.000599
60.261956 atanOfCurrentCurvature 0.000647
60.272163 can_line   can0  480   [4]  26 22 04 02
60.282838 atanOfCurrentCurvature 0.000599
60.300793 atanOfCurrentCurvature 0.000599
60.322182 can_line   can0  480   [4]  2C 22 09 02
60.336464 atanOfCurrentCurvature 0.000599
60.360756 atanOfCurrentCurvature 0.000599
60.372041 can_line   can0  480   [4]  2C 22 0C 02
60.383197 atanOfCurrentCurvature 0.000599
60.400819 atanOfCurrentCurvature 0.000599
60.422229 can_line   can0  480   [4]  28 22 0A 02
60.436132 atanOfCurrentCurvature 0.000647
60.461723 atanOfCurrentCurvature 0.000743
60.472230 can_line   can0  480   [4]  2A 22 07 02
60.482174 atanOfCurrentCurvature 0.000743
60.500827 atanOfCurrentCurvature 0.000791
60.522276 can_line   can0  480   [4]  2C 22 07 02
60.535097 atanOfCurrentCurvature 0.000887
60.560837 atanOfCurrentCurvature 0.000887
60.572163 can_line   can0  480   [4]  2E 22 08 02
60.583242 atanOfCurrentCurvature 0.000887
60.600673 atanOfCurrentCurvature 0.000887
60.622310 can_line   can0  480   [4]  2C 22 01 02
60.636187 atanOfCurrentCurvature 0.000887
60.661799 atanOfCurrentCurvature 0.000791
60.672117 can_line   can0  480   [4]  2E 22 04 02
60.682207 atanOfCurrentCurvature 0.000791
60.700713 atanOfCurrentCurvature 0.000791
60.722164 can_line   can0  480   [4]  28 22 04 02
60.735179 atanOfCurrentCurvature 0.000791
60.760745 atanOfCurrentCurvature 0.000743
60.772037 can_line   can0  480   [4]  2A 22 01 02
60.783165 atanOfCurrentCurvature 0.000743
60.800809 atanOfCurrentCurvature 0.000647
60.822181 can_line   can0  480   [4]  28 22 04 02
60.837663 atanOfCurrentCurvature 0.000599
60.861735 atanOfCurrentCurvature 0.000599
60.872193 can_line   can0  480   [4]  2A 22 07 02
60.882208 atanOfCurrentCurvature 0.000599
60.900883 atanOfCurrentCurvature 0.000599
60.922114 can_line   can0  480   [4]  2C 22 FF 01
60.935164 atanOfCurrentCurvature 0.000599
60.960748 atanOfCurrentCurvature 0.000599
60.972472 can_line   can0  480   [4]  30 22 FB 01
60.983179 atanOfCurrentCurvature 0.000599
61.000724 atanOfCurrentCurvature 0.000599
61.022199 can_line   can0  480   [4]  30 22 FC 01
61.036271 atanOfCurrentCurvature 0.000599
61.061732 atanOfCurrentCurvature 0.000599
61.072139 can_line   can0  480   [4]  28 22 CB 01
61.082200 atanOfCurrentCurvature 0.000599
61.100773 atanOfCurrentCurvature 0.000503
61.122179 can_line   can0  480   [4]  24 22 01 02
61.135220 atanOfCurrentCurvature 0.000216
61.160794 atanOfCurrentCurvature 0.000216
61.172141 can_line   can0  480   [4]  28 22 C4 01
61.183371 atanOfCurrentCurvature 0.000216
61.200798 atanOfCurrentCurvature 0.000120
61.222186 can_line   can0  480   [4]  26 22 F0 01
61.236201 atanOfCurrentCurvature 0.000024
61.261670 atanOfCurrentCurvature 0.000120
61.272281 can_line   can0  480   [4]  22 22 C2 01
61.281876 atanOfCurrentCurvature 0.000120
61.301171 atanOfCurrentCurvature 0.000024
61.322250 can_line   can0  480   [4]  1A 22 C3 01
61.336400 atanOfCurrentCurvature -0.000024
61.360667 atanOfCurrentCurvature -0.000024
61.371962 can_line   can0  480   [4]  1A 22 E7 01
61.382913 atanOfCurrentCurvature -0.000168
61.400725 atanOfCurrentCurvature -0.000168
61.422163 can_line   can0  480   [4]  1C 22 EA 01
61.436092 atanOfCurrentCurvature -0.000072
61.461887 atanOfCurrentCurvature -0.000024
61.472221 can_line   can0  480   [4]  18 22 C7 01
61.483286 atanOfCurrentCurvature -0.000024
61.500731 atanOfCurrentCurvature -0.000024
61.522270 can_line   can0  480   [4]  1A 22 C8 01
61.534934 atanOfCurrentCurvature -0.000024
61.560792 atanOfCurrentCurvature -0.000072
61.572036 can_line   can0  480   [4]  1C 22 B9 01
61.583079 atanOfCurrentCurvature -0.000216
61.600716 atanOfCurrentCurvature -0.000216
61.622162 can_line   can0  480   [4]  1A 22 BD 01
61.636083 atanOfCurrentCurvature -0.000455
61.661686 atanOfCurrentCurvature -0.000503
61.672064 can_line   can0  480   [4]  1A 22 B2 01
61.682053 atanOfCurrentCurvature -0.000695
61.700688 atanOfCurrentCurvature -0.000743
61.722213 can_line   can0  480   [4]  1C 22 B5 01
61.735015 atanOfCurrentCurvature -0.000983
61.760622 atanOfCurrentCurvature -0.001127
61.772035 can_line   can0  480   [4]  1E 22 AB 01
61.783125 atanOfCurrentCurvature -0.001366
61.800674 atanOfCurrentCurvature -0.001414
61.822293 can_line   can0  480   [4]  20 22 B1 01
61.837491 atanOfCurrentCurvature -0.001894
61.861901 atanOfCurrentCurvature -0.001989
61.872134 can_line   can0  480   [4]  1C 22 B1 01
61.881975 atanOfCurrentCurvature -0.002277
61.900705 atanOfCurrentCurvature -0.002565
61.922116 can_line   can0  480   [4]  1E 22 BD 01
61.935032 atanOfCurrentCurvature -0.002852
61.960662 atanOfCurrentCurvature -0.002996
61.972032 can_line   can0  480   [4]  1E 22 B7 01
61.983027 atanOfCurrentCurvature -0.002996
62.000809 atanOfCurrentCurvature -0.002996
62.022196 can_line   can0  480   [4]  1E 22 BA 01
62.036063 atanOfCurrentCurvature -0.002996
62.061697 atanOfCurrentCurvature -0.002996
62.072132 can_line   can0  480   [4]  1E 22 B7 01
62.081992 atanOfCurrentCurvature -0.002996
62.100801 atanOfCurrentCurvature -0.002996
62.122325 can_line   can0  480   [4]  1C 22 B7 01
62.134910 atanOfCurrentCurvature -0.002996
62.160686 atanOfCurrentCurvature -0.002852
62.172288 can_line   can0  480   [4]  1E 22 C3 01
62.182985 atanOfCurrentCurvature -0.002852
62.200769 atanOfCurrentCurvature -0.002708
62.222403 can_line   can0  480   [4]  1C 22 B6 01
62.236080 atanOfCurrentCurvature -0.002613
62.261808 atanOfCurrentCurvature -0.002565
62.272305 can_line   can0  480   [4]  1C 22 BF 01
62.281880 atanOfCurrentCurvature -0.002613
62.300682 atanOfCurrentCurvature -0.002613
62.322421 can_line   can0  480   [4]  1C 22 BA 01
62.336364 atanOfCurrentCurvature -0.002613
62.360704 atanOfCurrentCurvature -0.002613
62.372332 can_line   can0  480   [4]  1A 22 BE 01
62.383002 atanOfCurrentCurvature -0.002613
62.400859 atanOfCurrentCurvature -0.002613
62.422405 can_line   can0  480   [4]  1C 22 BE 01
62.435988 atanOfCurrentCurvature -0.002613
62.461692 atanOfCurrentCurvature -0.002613
62.472187 can_line   can0  480   [4]  1C 22 C0 01
62.481776 atanOfCurrentCurvature -0.002565
62.500608 atanOfCurrentCurvature -0.002565
62.522140 can_line   can0  480   [4]  1C 22 C3 01
62.534987 atanOfCurrentCurvature -0.002565
62.560722 atanOfCurrentCurvature -0.002565
62.572116 can_line   can0  480   [4]  1E 22 EC 01
62.582940 atanOfCurrentCurvature -0.002565
62.600693 atanOfCurrentCurvature -0.002469
62.622340 can_line   can0  480   [4]  20 22 F9 01
62.635941 atanOfCurrentCurvature -0.002181
62.661773 atanOfCurrentCurvature -0.002037
62.672375 can_line   can0  480   [4]  1E 22 F5 01
62.681970 atanOfCurrentCurvature -0.001798
62.700778 atanOfCurrentCurvature -0.001654
62.722378 can_line   can0  480   [4]  16 22 C9 01
62.734829 atanOfCurrentCurvature -0.001558
62.760554 atanOfCurrentCurvature -0.001510
62.772257 can_line   can0  480   [4]  1A 22 C9 01
62.783061 atanOfCurrentCurvature -0.001558
62.800768 atanOfCurrentCurvature -0.001558
62.822226 can_line   can0  480   [4]  18 22 EF 01
62.837447 atanOfCurrentCurvature -0.001654
62.861726 atanOfCurrentCurvature -0.001510
62.872263 can_line   can0  480   [4]  1C 22 F4 01
62.881948 atanOfCurrentCurvature -0.001510
62.900698 atanOfCurrentCurvature -0.001270
62.922111 can_line   can0  480   [4]  1C 22 E9 01
62.934992 atanOfCurrentCurvature -0.001127
62.960664 atanOfCurrentCurvature -0.001079
62.971963 can_line   can0  480   [4]  1E 22 F9 01
62.982981 atanOfCurrentCurvature -0.001079
63.000734 atanOfCurrentCurvature -0.001079
63.022195 can_line   can0  480   [4]  1E 22 EE 01
63.036051 atanOfCurrentCurvature -0.001079
63.061663 atanOfCurrentCurvature -0.001079
63.072293 can_line   can0  480   [4]  1E 22 FF 01
63.081907 atanOfCurrentCurvature -0.000887
63.100707 atanOfCurrentCurvature -0.000839
63.122302 can_line   can0  480   [4]  1E 22 FB 01
63.134918 atanOfCurrentCurvature -0.000695
63.160704 atanOfCurrentCurvature -0.000599
63.172248 can_line   can0  480   [4]  1C 22 EF 01
63.182990 atanOfCurrentCurvature -0.000599
63.200827 atanOfCurrentCurvature -0.000599
63.222522 can_line   can0  480   [4]  16 22 FA 01
63.236185 atanOfCurrentCurvature -0.000599
63.261678 atanOfCurrentCurvature -0.000599
63.272469 can_line   can0  480   [4]  1C 22 0A 02
63.282066 atanOfCurrentCurvature -0.000599
63.300746 atanOfCurrentCurvature -0.000455
63.322379 can_line   can0  480   [4]  1E 22 06 02
63.336565 atanOfCurrentCurvature -0.000312
63.360690 atanOfCurrentCurvature -0.000312
63.372412 can_line   can0  480   [4]  18 22 FE 01
63.383127 atanOfCurrentCurvature -0.000312
63.400807 atanOfCurrentCurvature -0.000216
63.422450 can_line   can0  480   [4]  14 22 01 02
63.436299 atanOfCurrentCurvature -0.000312
63.461720 atanOfCurrentCurvature -0.000216
63.472324 can_line   can0  480   [4]  1A 22 BA 01
63.483081 atanOfCurrentCurvature -0.000216
63.500870 atanOfCurrentCurvature -0.000503
63.522320 can_line   can0  480   [4]  1A 22 03 02
63.535121 atanOfCurrentCurvature -0.000743
63.560607 atanOfCurrentCurvature -0.000983
63.572357 can_line   can0  480   [4]  18 22 09 02
63.583283 atanOfCurrentCurvature -0.000839
63.600801 atanOfCurrentCurvature -0.000743
63.622496 can_line   can0  480   [4]  16 22 03 02
63.636395 atanOfCurrentCurvature -0.000312
63.661727 atanOfCurrentCurvature -0.000072
63.672196 can_line   can0  480   [4]  1A 22 EE 01
63.682134 atanOfCurrentCurvature -0.000024
63.700762 atanOfCurrentCurvature 0.000120
63.722172 can_line   can0  480   [4]  1C 22 FA 01
63.735091 atanOfCurrentCurvature 0.000024
63.760809 atanOfCurrentCurvature 0.000120
63.772370 can_line   can0  480   [4]  1E 22 08 02
63.783237 atanOfCurrentCurvature 0.000024
63.800805 atanOfCurrentCurvature 0.000024
63.822147 can_line   can0  480   [4]  1E 22 05 02
63.837674 atanOfCurrentCurvature 0.000216
63.861819 atanOfCurrentCurvature 0.000264
63.872234 can_line   can0  480   [4]  18 22 09 02
63.882216 atanOfCurrentCurvature 0.000360
63.900835 atanOfCurrentCurvature 0.000360
63.922366 can_line   can0  480   [4]  1C 22 06 02
63.935151 atanOfCurrentCurvature 0.000455
63.960755 atanOfCurrentCurvature 0.000599
63.972404 can_line   can0  480   [4]  20 22 FA 01
63.983112 atanOfCurrentCurvature 0.000647
64.000756 atanOfCurrentCurvature 0.000599
64.022384 can_line   can0  480   [4]  20 22 06 02
64.036196 atanOfCurrentCurvature 0.000599
64.061831 atanOfCurrentCurvature 0.000647
64.072413 can_line   can0  480   [4]  22 22 0B 02
64.082088 atanOfCurrentCurvature 0.000647
64.100818 atanOfCurrentCurvature 0.000791
64.122250 can_line   can0  480   [4]  18 22 06 02
64.135172 atanOfCurrentCurvature 0.000791
64.160752 atanOfCurrentCurvature 0.000791
64.172091 can_line   can0  480   [4]  1A 22 0A 02
64.183293 atanOfCurrentCurvature 0.000791
64.200803 atanOfCurrentCurvature 0.000935
64.222181 can_line   can0  480   [4]  14 22 07 02
64.236207 atanOfCurrentCurvature 0.001031
64.261688 atanOfCurrentCurvature 0.001222
64.272150 can_line   can0  480   [4]  1C 22 08 02
64.282015 atanOfCurrentCurvature 0.001366
64.300819 atanOfCurrentCurvature 0.001366
64.322173 can_line   can0  480   [4]  1A 22 08 02
64.336442 atanOfCurrentCurvature 0.001510
64.360792 atanOfCurrentCurvature 0.001462
64.372039 can_line   can0  480   [4]  16 22 07 02
64.383003 atanOfCurrentCurvature 0.001462
64.400702 atanOfCurrentCurvature 0.001462
64.422124 can_line   can0  480   [4]  10 22 05 02
64.436141 atanOfCurrentCurvature 0.001462
64.461648 atanOfCurrentCurvature 0.001462
64.472070 can_line   can0  480   [4]  1C 22 07 02
64.482346 atanOfCurrentCurvature 0.001462
64.500829 atanOfCurrentCurvature 0.001462
64.522314 can_line   can0  480   [4]  16 22 07 02
64.534882 atanOfCurrentCurvature 0.001462
64.560778 atanOfCurrentCurvature 0.001462
64.571992 can_line   can0  480   [4]  1E 22 06 02
64.583011 atanOfCurrentCurvature 0.001558
64.600801 atanOfCurrentCurvature 0.001558
64.622134 can_line   can0  480   [4]  16 22 01 02
64.636028 atanOfCurrentCurvature 0.001558
64.661674 atanOfCurrentCurvature 0.001462
64.672170 can_line   can0  480   [4]  1A 22 FE 01
64.681921 atanOfCurrentCurvature 0.001462
64.700854 atanOfCurrentCurvature 0.001462
64.722188 can_line   can0  480   [4]  14 22 FB 01
64.735034 atanOfCurrentCurvature 0.001318
64.760829 atanOfCurrentCurvature 0.001174
64.772163 can_line   can0  480   [4]  1A 22 FB 01
64.783032 atanOfCurrentCurvature 0.000887
64.800665 atanOfCurrentCurvature 0.000887
64.822150 can_line   can0  480   [4]  18 22 FE 01
64.837539 atanOfCurrentCurvature 0.000791
64.861707 atanOfCurrentCurvature 0.000791
64.872196 can_line   can0  480   [4]  1C 22 FC 01
64.881985 atanOfCurrentCurvature 0.000887
64.900844 atanOfCurrentCurvature 0.000887
64.922224 can_line   can0  480   [4]  1C 22 FD 01
64.935026 atanOfCurrentCurvature 0.000887
64.960738 atanOfCurrentCurvature 0.000935
64.972121 can_line   can0  480   [4]  20 22 F1 01
64.983043 atanOfCurrentCurvature 0.000935
65.000845 atanOfCurrentCurvature 0.000935
65.022246 can_line   can0  480   [4]  18 22 F5 01
65.036157 atanOfCurrentCurvature 0.000935
65.061704 atanOfCurrentCurvature 0.000887
65.072301 can_line   can0  480   [4]  16 22 F2 01
65.081981 atanOfCurrentCurvature 0.000791
65.100873 atanOfCurrentCurvature 0.000743
65.122530 can_line   can0  480   [4]  12 22 ED 01
65.135063 atanOfCurrentCurvature 0.000599
65.160748 atanOfCurrentCurvature 0.000503
65.172277 can_line   can0  480   [4]  10 22 F5 01
65.182980 atanOfCurrentCurvature 0.000503
65.200772 atanOfCurrentCurvature 0.000503
65.222540 can_line   can0  480   [4]  0C 22 EB 01
65.235973 atanOfCurrentCurvature 0.000599
65.262415 atanOfCurrentCurvature 0.000503
65.272265 can_line   can0  480   [4]  06 22 BF 01
65.281917 atanOfCurrentCurvature 0.000503
65.300757 atanOfCurrentCurvature 0.000503
65.322206 can_line   can0  480   [4]  06 22 F2 01
65.336473 atanOfCurrentCurvature 0.000264
65.360744 atanOfCurrentCurvature 0.000455
65.372022 can_line   can0  480   [4]  0E 22 BC 01
65.383102 atanOfCurrentCurvature 0.000360
65.400798 atanOfCurrentCurvature 0.000216
65.422133 can_line   can0  480   [4]  1E 22 EF 01
65.435962 atanOfCurrentCurvature -0.000024
65.461772 atanOfCurrentCurvature -0.000024
65.472014 can_line   can0  480   [4]  14 22 C1 01
65.482067 atanOfCurrentCurvature -0.000024
65.500742 atanOfCurrentCurvature -0.000072
65.522136 can_line   can0  480   [4]  06 22 F9 01
65.534981 atanOfCurrentCurvature -0.000168
65.560761 atanOfCurrentCurvature -0.000024
65.572050 can_line   can0  480   [4]  08 22 B4 01
65.582939 atanOfCurrentCurvature -0.000024
65.600798 atanOfCurrentCurvature -0.000168
65.622162 can_line   can0  480   [4]  0C 22 B8 01
65.636100 atanOfCurrentCurvature -0.000455
65.661644 atanOfCurrentCurvature -0.000599
65.672368 can_line   can0  480   [4]  00 22 C2 01
65.681877 atanOfCurrentCurvature -0.000935
65.700862 atanOfCurrentCurvature -0.001222
65.722098 can_line   can0  480   [4]  02 22 B9 01
65.734950 atanOfCurrentCurvature -0.001366
65.760678 atanOfCurrentCurvature -0.001414
65.772294 can_line   can0  480   [4]  10 22 BA 01
65.783033 atanOfCurrentCurvature -0.001558
65.800742 atanOfCurrentCurvature -0.001558
65.822160 can_line   can0  480   [4]  14 22 BF 01
65.837445 atanOfCurrentCurvature -0.001558
65.861808 atanOfCurrentCurvature -0.001558
65.872098 can_line   can0  480   [4]  0E 22 FA 01
65.881809 atanOfCurrentCurvature -0.001558
65.900821 atanOfCurrentCurvature -0.001414
65.922156 can_line   can0  480   [4]  0C 22 C0 01
65.935009 atanOfCurrentCurvature -0.001366
65.960776 atanOfCurrentCurvature -0.001510
65.972142 can_line   can0  480   [4]  08 22 F7 01
65.983086 atanOfCurrentCurvature -0.001558
66.000774 atanOfCurrentCurvature -0.001558
66.029445 can_line   can0  480   [4]  0A 22 C4 01
66.036115 atanOfCurrentCurvature -0.001558
66.061806 atanOfCurrentCurvature -0.001798
66.073240 can_line   can0  480   [4]  08 22 F3 01
66.082016 atanOfCurrentCurvature -0.001894
66.100870 atanOfCurrentCurvature -0.001798
66.122685 can_line   can0  480   [4]  08 22 C8 01
66.134932 atanOfCurrentCurvature -0.001798
66.160791 atanOfCurrentCurvature -0.001894
66.172437 can_line   can0  480   [4]  0C 22 F1 01
66.183051 atanOfCurrentCurvature -0.001798
66.200801 atanOfCurrentCurvature -0.001702
66.222529 can_line   can0  480   [4]  0C 22 CF 01
66.235992 atanOfCurrentCurvature -0.001654
66.261815 atanOfCurrentCurvature -0.001798
66.272676 can_line   can0  480   [4]  06 22 F5 01
66.282075 atanOfCurrentCurvature -0.001798
66.300958 atanOfCurrentCurvature -0.001750
66.321984 can_line   can0  480   [4]  08 22 E6 01
66.336443 atanOfCurrentCurvature -0.001702
66.360810 atanOfCurrentCurvature -0.001702
66.371860 can_line   can0  480   [4]  08 22 FA 01
66.383037 atanOfCurrentCurvature -0.001702
66.400777 atanOfCurrentCurvature -0.001750
66.422003 can_line   can0  480   [4]  0A 22 F9 01
66.436007 atanOfCurrentCurvature -0.001750
66.461791 atanOfCurrentCurvature -0.001654
66.472093 can_line   can0  480   [4]  04 22 B5 01
66.481768 atanOfCurrentCurvature -0.001558
66.500842 atanOfCurrentCurvature -0.001750
66.522035 can_line   can0  480   [4]  00 22 F7 01
66.534963 atanOfCurrentCurvature -0.001798
66.560699 atanOfCurrentCurvature -0.001798
66.572228 can_line   can0  480   [4]  08 22 01 02
66.582987 atanOfCurrentCurvature -0.001750
66.600782 atanOfCurrentCurvature -0.001750
66.622026 can_line   can0  480   [4]  0C 22 01 02
66.636003 atanOfCurrentCurvature -0.001414
66.661718 atanOfCurrentCurvature -0.001414
66.672195 can_line   can0  480   [4]  06 22 00 02
66.681822 atanOfCurrentCurvature -0.001510
66.700872 atanOfCurrentCurvature -0.001414
66.722263 can_line   can0  480   [4]  08 22 FF 01
66.734998 atanOfCurrentCurvature -0.001366
66.760752 atanOfCurrentCurvature -0.001366
66.772457 can_line   can0  480   [4]  02 22 FE 01
66.782883 atanOfCurrentCurvature -0.001222
66.800739 atanOfCurrentCurvature -0.001366
66.822138 can_line   can0  480   [4]  04 22 03 02
66.837351 atanOfCurrentCurvature -0.001270
66.861860 atanOfCurrentCurvature -0.001270
66.872156 can_line   can0  480   [4]  06 22 00 02
66.881857 atanOfCurrentCurvature -0.001127
66.900796 atanOfCurrentCurvature -0.001222
66.922436 can_line   can0  480   [4]  0A 22 03 02
66.934830 atanOfCurrentCurvature -0.001222
66.960757 atanOfCurrentCurvature -0.001270
66.972021 can_line   can0  480   [4]  08 22 01 02
66.982912 atanOfCurrentCurvature -0.001366
67.000706 atanOfCurrentCurvature -0.001366
67.022266 can_line   can0  480   [4]  0C 22 02 02
67.035866 atanOfCurrentCurvature -0.001366
67.061747 atanOfCurrentCurvature -0.001222
67.072087 can_line   can0  480   [4]  06 22 00 02
67.081935 atanOfCurrentCurvature -0.001222
67.100775 atanOfCurrentCurvature -0.001222
67.122329 can_line   can0  480   [4]  02 22 01 02
67.134977 atanOfCurrentCurvature -0.001222
67.160679 atanOfCurrentCurvature -0.001079
67.172066 can_line   can0  480   [4]  04 22 00 02
67.182853 atanOfCurrentCurvature -0.001079
67.200656 atanOfCurrentCurvature -0.000983
67.222195 can_line   can0  480   [4]  02 22 FF 01
67.235887 atanOfCurrentCurvature -0.000599
67.261777 atanOfCurrentCurvature -0.000551
67.272096 can_line   can0  480   [4]  00 32 F8 01
67.281940 atanOfCurrentCurvature -0.000360
67.300949 atanOfCurrentCurvature -0.000312
67.322485 can_line   can0  480   [4]  00 32 FA 01
67.336307 atanOfCurrentCurvature -0.000312
67.360646 atanOfCurrentCurvature -0.000360
67.372454 can_line   can0  480   [4]  00 30 FA 01
67.382860 atanOfCurrentCurvature -0.000360
67.400863 atanOfCurrentCurvature -0.000360
67.422520 can_line   can0  480   [4]  00 32 FC 01
67.435999 atanOfCurrentCurvature -0.000216
67.461754 atanOfCurrentCurvature -0.000216
67.472325 can_line   can0  480   [4]  00 2E FD 01
67.481710 atanOfCurrentCurvature -0.000216
67.500811 atanOfCurrentCurvature -0.000168
67.522502 can_line   can0  480   [4]  00 32 F0 01
67.534828 atanOfCurrentCurvature -0.000312
67.560751 atanOfCurrentCurvature -0.000312
67.572401 can_line   can0  480   [4]  00 32 FE 01
67.582915 atanOfCurrentCurvature -0.000312
67.600762 atanOfCurrentCurvature -0.000312
67.622470 can_line   can0  480   [4]  00 34 F4 01
67.635903 atanOfCurrentCurvature -0.000312
67.661765 atanOfCurrentCurvature -0.000360
67.672395 can_line   can0  480   [4]  00 2C F3 01
67.681763 atanOfCurrentCurvature -0.000455
67.700832 atanOfCurrentCurvature -0.000455
67.722380 can_line   can0  480   [4]  00 32 F3 01
67.734783 atanOfCurrentCurvature -0.000455
67.760762 atanOfCurrentCurvature -0.000360
67.772389 can_line   can0  480   [4]  00 32 C3 01
67.782883 atanOfCurrentCurvature -0.000312
67.800651 atanOfCurrentCurvature -0.000216
67.822151 can_line   can0  480   [4]  00 30 D2 01
67.837516 atanOfCurrentCurvature -0.000551
67.862619 atanOfCurrentCurvature -0.000551
67.872348 can_line   can0  480   [4]  00 2C F8 01
67.882111 atanOfCurrentCurvature -0.000839
67.900702 atanOfCurrentCurvature -0.000935
67.922206 can_line   can0  480   [4]  00 32 04 02
67.934804 atanOfCurrentCurvature -0.001079
67.960759 atanOfCurrentCurvature -0.001079
67.971980 can_line   can0  480   [4]  00 2C 02 02
67.982984 atanOfCurrentCurvature -0.001079
68.000767 atanOfCurrentCurvature -0.001127
68.022201 can_line   can0  480   [4]  00 2A 03 02
68.035887 atanOfCurrentCurvature -0.000935
68.061753 atanOfCurrentCurvature -0.000839
68.072746 can_line   can0  480   [4]  00 24 01 02
68.081814 atanOfCurrentCurvature -0.000695
68.100661 atanOfCurrentCurvature -0.000647
68.122881 can_line   can0  480   [4]  00 26 01 02
68.134986 atanOfCurrentCurvature -0.000455
68.160648 atanOfCurrentCurvature -0.000312
68.172331 can_line   can0  480   [4]  00 28 FF 01
68.182942 atanOfCurrentCurvature -0.000072
68.200851 atanOfCurrentCurvature -0.000072
68.222260 can_line   can0  480   [4]  00 2C 15 02
68.235940 atanOfCurrentCurvature -0.000024
68.261708 atanOfCurrentCurvature 0.000120
68.272302 can_line   can0  480   [4]  00 2E 03 02
68.281953 atanOfCurrentCurvature 0.000216
68.300836 atanOfCurrentCurvature 0.000120
68.322612 can_line   can0  480   [4]  00 2C FF 01
68.336408 atanOfCurrentCurvature 0.000120
68.360723 atanOfCurrentCurvature -0.000024
68.372567 can_line   can0  480   [4]  00 34 00 02
68.383000 atanOfCurrentCurvature -0.000168
68.400828 atanOfCurrentCurvature -0.000312
68.422317 can_line   can0  480   [4]  00 3C 07 02
68.436004 atanOfCurrentCurvature -0.000647
68.461703 atanOfCurrentCurvature -0.000695
68.472406 can_line   can0  480   [4]  00 32 12 02
68.481999 atanOfCurrentCurvature -0.000791
68.500788 atanOfCurrentCurvature -0.000695
68.522438 can_line   can0  480   [4]  00 30 03 02
68.534952 atanOfCurrentCurvature -0.000551
68.560750 atanOfCurrentCurvature -0.000647
68.572195 can_line   can0  480   [4]  00 2A 11 02
68.583001 atanOfCurrentCurvature -0.000647
68.600657 atanOfCurrentCurvature -0.000695
68.622441 can_line   can0  480   [4]  00 2C 10 02
68.636050 atanOfCurrentCurvature -0.000695
68.661815 atanOfCurrentCurvature -0.000551
68.672250 can_line   can0  480   [4]  00 28 14 02
68.681890 atanOfCurrentCurvature -0.000407
68.700834 atanOfCurrentCurvature -0.000312
68.722204 can_line   can0  480   [4]  00 28 12 02
68.734865 atanOfCurrentCurvature -0.000024
68.760766 atanOfCurrentCurvature 0.000024
68.771980 can_line   can0  480   [4]  00 2E 15 02
68.783023 atanOfCurrentCurvature 0.000024
68.800748 atanOfCurrentCurvature 0.000216
68.822162 can_line   can0  480   [4]  00 30 12 02
68.837350 atanOfCurrentCurvature 0.000455
68.861851 atanOfCurrentCurvature 0.000455
68.871996 can_line   can0  480   [4]  00 32 17 02
68.881838 atanOfCurrentCurvature 0.000599
68.900758 atanOfCurrentCurvature 0.000599
68.922169 can_line   can0  480   [4]  00 2C 17 02
68.934984 atanOfCurrentCurvature 0.000647
68.960749 atanOfCurrentCurvature 0.000647
68.971996 can_line   can0  480   [4]  00 2C 16 02
68.982995 atanOfCurrentCurvature 0.000935
69.000778 atanOfCurrentCurvature 0.001079
69.022132 can_line   can0  480   [4]  00 2A 18 02
69.035892 atanOfCurrentCurvature 0.001366
69.061922 atanOfCurrentCurvature 0.001558
69.072143 can_line   can0  480   [4]  00 2C 1A 02
69.081945 atanOfCurrentCurvature 0.001702
69.100727 atanOfCurrentCurvature 0.001989
69.122215 can_line   can0  480   [4]  00 2C 19 02
69.134909 atanOfCurrentCurvature 0.002229
69.160769 atanOfCurrentCurvature 0.002517
69.171995 can_line   can0  480   [4]  00 32 0C 02
69.182997 atanOfCurrentCurvature 0.002804
69.200688 atanOfCurrentCurvature 0.002852
69.222813 can_line   can0  480   [4]  00 2C 14 02
69.235993 atanOfCurrentCurvature 0.002852
69.261876 atanOfCurrentCurvature 0.002948
69.272327 can_line   can0  480   [4]  00 30 20 02
69.281784 atanOfCurrentCurvature 0.002948
69.300760 atanOfCurrentCurvature 0.003284
69.322257 can_line   can0  480   [4]  00 2C 19 02
69.336466 atanOfCurrentCurvature 0.003332
69.360740 atanOfCurrentCurvature 0.003955
69.372311 can_line   can0  480   [4]  00 32 1C 02
69.383041 atanOfCurrentCurvature 0.004242
69.400747 atanOfCurrentCurvature 0.004578
69.422254 can_line   can0  480   [4]  00 30 19 02
69.435985 atanOfCurrentCurvature 0.004818
69.461905 atanOfCurrentCurvature 0.005297
69.472157 can_line   can0  480   [4]  00 2C 0F 02
69.481820 atanOfCurrentCurvature 0.005441
69.500853 atanOfCurrentCurvature 0.005537
69.522103 can_line   can0  480   [4]  00 28 17 02
69.534928 atanOfCurrentCurvature 0.005681
69.560809 atanOfCurrentCurvature 0.005681
69.572037 can_line   can0  480   [4]  00 2E 19 02
69.583010 atanOfCurrentCurvature 0.005681
69.600826 atanOfCurrentCurvature 0.005681
69.622105 can_line   can0  480   [4]  00 2A 1A 02
69.636025 atanOfCurrentCurvature 0.005920
69.661862 atanOfCurrentCurvature 0.006064
69.672021 can_line   can0  480   [4]  00 2C 19 02
69.682063 atanOfCurrentCurvature 0.006160
69.700774 atanOfCurrentCurvature 0.006160
69.722073 can_line   can0  480   [4]  00 28 19 02
69.734941 atanOfCurrentCurvature 0.006304
69.760695 atanOfCurrentCurvature 0.006400
69.771935 can_line   can0  480   [4]  00 2A 18 02
69.782976 atanOfCurrentCurvature 0.006496
69.800783 atanOfCurrentCurvature 0.006496
69.822080 can_line   can0  480   [4]  00 28 1C 02
69.837421 atanOfCurrentCurvature 0.006496
69.861875 atanOfCurrentCurvature 0.006639
69.872079 can_line   can0  480   [4]  00 24 19 02
69.881973 atanOfCurrentCurvature 0.006735
69.900693 atanOfCurrentCurvature 0.006783
69.922103 can_line   can0  480   [4]  00 24 18 02
69.934949 atanOfCurrentCurvature 0.007119
69.960671 atanOfCurrentCurvature 0.007358
69.972023 can_line   can0  480   [4]  00 28 14 02
69.982993 atanOfCurrentCurvature 0.007742
70.000835 atanOfCurrentCurvature 0.007982
70.022171 can_line   can0  480   [4]  00 2A 1E 02
70.035937 atanOfCurrentCurvature 0.008461
70.061740 atanOfCurrentCurvature 0.008557
70.072029 can_line   can0  480   [4]  00 24 A1 01
70.081942 atanOfCurrentCurvature 0.008701
70.100821 atanOfCurrentCurvature 0.008653
70.122194 can_line   can0  480   [4]  00 24 27 02
70.134840 atanOfCurrentCurvature 0.008030
70.160579 atanOfCurrentCurvature 0.007598
70.172065 can_line   can0  480   [4]  00 24 16 02
70.182983 atanOfCurrentCurvature 0.007454
70.200708 atanOfCurrentCurvature 0.007694
70.222115 can_line   can0  480   [4]  00 22 0E 02
70.235988 atanOfCurrentCurvature 0.008030
70.261790 atanOfCurrentCurvature 0.008461
70.272128 can_line   can0  480   [4]  00 22 0C 02
70.281943 atanOfCurrentCurvature 0.008461
70.300825 atanOfCurrentCurvature 0.008461
70.322126 can_line   can0  480   [4]  00 22 14 02
70.336739 atanOfCurrentCurvature 0.008509
70.360873 atanOfCurrentCurvature 0.008413
70.372095 can_line   can0  480   [4]  0A 22 07 02
70.382891 atanOfCurrentCurvature 0.008413
70.400634 atanOfCurrentCurvature 0.008413
70.422092 can_line   can0  480   [4]  04 22 0C 02
70.435934 atanOfCurrentCurvature 0.008413
70.461774 atanOfCurrentCurvature 0.008413
70.472136 can_line   can0  480   [4]  04 22 0E 02
70.481950 atanOfCurrentCurvature 0.008413
70.500988 atanOfCurrentCurvature 0.008413
70.522124 can_line   can0  480   [4]  00 22 0B 02
70.534913 atanOfCurrentCurvature 0.008413
70.560621 atanOfCurrentCurvature 0.008509
70.572086 can_line   can0  480   [4]  06 22 0A 02
70.582862 atanOfCurrentCurvature 0.008509
70.600734 atanOfCurrentCurvature 0.008509
70.622156 can_line   can0  480   [4]  00 22 09 02
70.636045 atanOfCurrentCurvature 0.008413
70.661763 atanOfCurrentCurvature 0.008365
70.672181 can_line   can0  480   [4]  06 22 0D 02
70.681826 atanOfCurrentCurvature 0.008365
70.700719 atanOfCurrentCurvature 0.008269
70.722047 can_line   can0  480   [4]  06 22 0D 02
70.734939 atanOfCurrentCurvature 0.008077
70.760622 atanOfCurrentCurvature 0.008173
70.772079 can_line   can0  480   [4]  08 22 1B 02
70.783000 atanOfCurrentCurvature 0.008173
70.800785 atanOfCurrentCurvature 0.008173
70.822260 can_line   can0  480   [4]  0A 22 11 02
70.837362 atanOfCurrentCurvature 0.008413
70.861829 atanOfCurrentCurvature 0.008509
70.872089 can_line   can0  480   [4]  0E 22 0F 02
70.881769 atanOfCurrentCurvature 0.008509
70.900834 atanOfCurrentCurvature 0.008509
70.922175 can_line   can0  480   [4]  10 22 0E 02
70.934824 atanOfCurrentCurvature 0.008653
70.960615 atanOfCurrentCurvature 0.008653
70.972051 can_line   can0  480   [4]  0A 22 12 02
70.983075 atanOfCurrentCurvature 0.008797
71.000708 atanOfCurrentCurvature 0.008797
71.022240 can_line   can0  480   [4]  0E 22 0F 02
71.035937 atanOfCurrentCurvature 0.008797
71.063986 atanOfCurrentCurvature 0.008653
71.072013 can_line   can0  480   [4]  0C 22 0D 02
71.081774 atanOfCurrentCurvature 0.008557
71.100783 atanOfCurrentCurvature 0.008557
71.122105 can_line   can0  480   [4]  0A 22 12 02
71.134778 atanOfCurrentCurvature 0.008605
71.160728 atanOfCurrentCurvature 0.008701
71.172072 can_line   can0  480   [4]  0C 22 14 02
71.182949 atanOfCurrentCurvature 0.008749
71.200898 atanOfCurrentCurvature 0.008749
71.222234 can_line   can0  480   [4]  0C 22 15 02
71.235895 atanOfCurrentCurvature 0.009180
71.261751 atanOfCurrentCurvature 0.009228
71.272314 can_line   can0  480   [4]  0C 22 18 02
71.281799 atanOfCurrentCurvature 0.009324
71.300850 atanOfCurrentCurvature 0.009372
71.322378 can_line   can0  480   [4]  1A 22 19 02
71.336531 atanOfCurrentCurvature 0.009564
71.360697 atanOfCurrentCurvature 0.010139
71.372335 can_line   can0  480   [4]  0E 22 11 02
71.382944 atanOfCurrentCurvature 0.010474
71.400644 atanOfCurrentCurvature 0.010810
71.422393 can_line   can0  480   [4]  02 22 06 02
71.435964 atanOfCurrentCurvature 0.011481
71.461802 atanOfCurrentCurvature 0.011529
71.472298 can_line   can0  480   [4]  08 22 FA 01
71.481840 atanOfCurrentCurvature 0.011481
71.500711 atanOfCurrentCurvature 0.011098
71.522208 can_line   can0  480   [4]  10 22 0D 02
71.534945 atanOfCurrentCurvature 0.010810
71.560743 atanOfCurrentCurvature 0.010187
71.572102 can_line   can0  480   [4]  10 22 10 02
71.582973 atanOfCurrentCurvature 0.010043
71.600702 atanOfCurrentCurvature 0.010043
71.622323 can_line   can0  480   [4]  14 22 13 02
71.635881 atanOfCurrentCurvature 0.009995
71.661799 atanOfCurrentCurvature 0.010091
71.672308 can_line   can0  480   [4]  0A 22 1C 02
71.681801 atanOfCurrentCurvature 0.009995
71.700817 atanOfCurrentCurvature 0.010139
71.722146 can_line   can0  480   [4]  16 22 18 02
71.734879 atanOfCurrentCurvature 0.010139
71.760665 atanOfCurrentCurvature 0.010618
71.772065 can_line   can0  480   [4]  14 22 15 02
71.782965 atanOfCurrentCurvature 0.010906
71.800810 atanOfCurrentCurvature 0.011098
71.822385 can_line   can0  480   [4]  14 22 18 02
71.837435 atanOfCurrentCurvature 0.011769
71.861828 atanOfCurrentCurvature 0.012056
71.872308 can_line   can0  480   [4]  0A 22 1A 02
71.881896 atanOfCurrentCurvature 0.012440
71.900786 atanOfCurrentCurvature 0.012919
71.922448 can_line   can0  480   [4]  08 22 18 02
71.935027 atanOfCurrentCurvature 0.013207
71.960566 atanOfCurrentCurvature 0.013638
71.972158 can_line   can0  480   [4]  0C 22 21 02
71.982808 atanOfCurrentCurvature 0.013638
72.000736 atanOfCurrentCurvature 0.013638
72.022202 can_line   can0  480   [4]  0C 22 1E 02
72.035931 atanOfCurrentCurvature 0.014022
72.061793 atanOfCurrentCurvature 0.014357
72.072204 can_line   can0  480   [4]  12 22 17 02
72.081687 atanOfCurrentCurvature 0.014741
72.100727 atanOfCurrentCurvature 0.014933
72.122127 can_line   can0  480   [4]  12 22 19 02
72.134829 atanOfCurrentCurvature 0.015412
72.160569 atanOfCurrentCurvature 0.015412
72.172470 can_line   can0  480   [4]  0E 22 1A 02
72.182942 atanOfCurrentCurvature 0.015652
72.200826 atanOfCurrentCurvature 0.015700
72.222118 can_line   can0  480   [4]  0E 22 19 02
72.236623 atanOfCurrentCurvature 0.015748
72.261833 atanOfCurrentCurvature 0.015843
72.272421 can_line   can0  480   [4]  0A 22 14 02
72.281945 atanOfCurrentCurvature 0.015843
72.300746 atanOfCurrentCurvature 0.015987
72.322247 can_line   can0  480   [4]  08 22 1E 02
72.336540 atanOfCurrentCurvature 0.015891
72.360648 atanOfCurrentCurvature 0.016035
72.372368 can_line   can0  480   [4]  0E 22 1A 02
72.382919 atanOfCurrentCurvature 0.015987
72.400864 atanOfCurrentCurvature 0.016131
72.422432 can_line   can0  480   [4]  0E 22 1B 02
72.435943 atanOfCurrentCurvature 0.016562
72.461829 atanOfCurrentCurvature 0.016802
72.472073 can_line   can0  480   [4]  0C 22 1A 02
72.481803 atanOfCurrentCurvature 0.016850
72.500740 atanOfCurrentCurvature 0.016994
72.522403 can_line   can0  480   [4]  0A 22 18 02
72.534850 atanOfCurrentCurvature 0.016994
72.560730 atanOfCurrentCurvature 0.017186
72.572220 can_line   can0  480   [4]  0C 22 19 02
72.582917 atanOfCurrentCurvature 0.017234
72.600831 atanOfCurrentCurvature 0.017329
72.622381 can_line   can0  480   [4]  10 22 1E 02
72.635820 atanOfCurrentCurvature 0.017377
72.661732 atanOfCurrentCurvature 0.017473
72.672345 can_line   can0  480   [4]  0C 22 1B 02
72.681784 atanOfCurrentCurvature 0.017473
72.700744 atanOfCurrentCurvature 0.017617
72.722397 can_line   can0  480   [4]  0E 22 19 02
72.734927 atanOfCurrentCurvature 0.017617
72.760790 atanOfCurrentCurvature 0.017569
72.772369 can_line   can0  480   [4]  12 22 FF 01
72.782985 atanOfCurrentCurvature 0.017569
72.800760 atanOfCurrentCurvature 0.017521
72.822401 can_line   can0  480   [4]  12 22 12 02
72.837362 atanOfCurrentCurvature 0.017282
72.861772 atanOfCurrentCurvature 0.017234
72.872384 can_line   can0  480   [4]  10 22 1B 02
72.881888 atanOfCurrentCurvature 0.017234
72.900726 atanOfCurrentCurvature 0.017234
72.922262 can_line   can0  480   [4]  0E 22 17 02
72.934876 atanOfCurrentCurvature 0.017282
72.960697 atanOfCurrentCurvature 0.017282
72.972134 can_line   can0  480   [4]  0C 22 1C 02
72.982863 atanOfCurrentCurvature 0.017282
73.000736 atanOfCurrentCurvature 0.017282
73.022175 can_line   can0  480   [4]  0C 22 19 02
73.035955 atanOfCurrentCurvature 0.017377
73.061797 atanOfCurrentCurvature 0.017425
73.072355 can_line   can0  480   [4]  12 22 17 02
73.081871 atanOfCurrentCurvature 0.017377
73.100757 atanOfCurrentCurvature 0.017377
73.122205 can_line   can0  480   [4]  12 22 18 02
73.134825 atanOfCurrentCurvature 0.017377
73.160703 atanOfCurrentCurvature 0.017377
73.172175 can_line   can0  480   [4]  0C 22 15 02
73.182816 atanOfCurrentCurvature 0.017282
73.200803 atanOfCurrentCurvature 0.017377
73.222230 can_line   can0  480   [4]  0C 22 16 02
73.235895 atanOfCurrentCurvature 0.017329
73.261765 atanOfCurrentCurvature 0.017329
73.272035 can_line   can0  480   [4]  12 22 17 02
73.281815 atanOfCurrentCurvature 0.017377
73.300761 atanOfCurrentCurvature 0.017377
73.322164 can_line   can0  480   [4]  10 22 18 02
73.336341 atanOfCurrentCurvature 0.017377
73.360822 atanOfCurrentCurvature 0.017234
73.372067 can_line   can0  480   [4]  0E 22 19 02
73.383114 atanOfCurrentCurvature 0.017282
73.400748 atanOfCurrentCurvature 0.017186
73.422234 can_line   can0  480   [4]  0C 22 19 02
73.436267 atanOfCurrentCurvature 0.017186
73.461665 atanOfCurrentCurvature 0.017282
73.472112 can_line   can0  480   [4]  0C 22 19 02
73.482094 atanOfCurrentCurvature 0.017425
73.500758 atanOfCurrentCurvature 0.017425
73.522130 can_line   can0  480   [4]  0A 22 1A 02
73.535150 atanOfCurrentCurvature 0.017521
73.560728 atanOfCurrentCurvature 0.017521
73.572138 can_line   can0  480   [4]  10 22 1E 02
73.583085 atanOfCurrentCurvature 0.017521
73.600835 atanOfCurrentCurvature 0.017569
73.622128 can_line   can0  480   [4]  14 22 1B 02
73.636198 atanOfCurrentCurvature 0.017569
73.661819 atanOfCurrentCurvature 0.017761
73.672097 can_line   can0  480   [4]  12 22 1C 02
73.682156 atanOfCurrentCurvature 0.017761
73.700791 atanOfCurrentCurvature 0.017761
73.722152 can_line   can0  480   [4]  12 22 1C 02
73.735159 atanOfCurrentCurvature 0.017857
73.760711 atanOfCurrentCurvature 0.017953
73.772231 can_line   can0  480   [4]  10 22 1A 02
73.783090 atanOfCurrentCurvature 0.017953
73.800795 atanOfCurrentCurvature 0.018001
73.822107 can_line   can0  480   [4]  12 22 1C 02
73.837564 atanOfCurrentCurvature 0.018049
73.861795 atanOfCurrentCurvature 0.018049
73.872230 can_line   can0  480   [4]  08 22 1D 02
73.882127 atanOfCurrentCurvature 0.018049
73.900869 atanOfCurrentCurvature 0.018001
73.922251 can_line   can0  480   [4]  0E 22 23 02
73.935094 atanOfCurrentCurvature 0.018001
73.960641 atanOfCurrentCurvature 0.018049
73.972157 can_line   can0  480   [4]  0C 22 20 02
73.983160 atanOfCurrentCurvature 0.018144
74.000804 atanOfCurrentCurvature 0.018384
74.022131 can_line   can0  480   [4]  14 22 1E 02
74.036213 atanOfCurrentCurvature 0.018816
74.061657 atanOfCurrentCurvature 0.019199
74.072076 can_line   can0  480   [4]  16 22 1C 02
74.082000 atanOfCurrentCurvature 0.019343
74.100700 atanOfCurrentCurvature 0.019583
74.122147 can_line   can0  480   [4]  14 22 18 02
74.135023 atanOfCurrentCurvature 0.019678
74.160690 atanOfCurrentCurvature 0.019583
74.172105 can_line   can0  480   [4]  0E 22 1C 02
74.183109 atanOfCurrentCurvature 0.019583
74.200694 atanOfCurrentCurvature 0.019535
74.222130 can_line   can0  480   [4]  0E 22 21 02
74.236261 atanOfCurrentCurvature 0.019583
74.261669 atanOfCurrentCurvature 0.019535
74.272047 can_line   can0  480   [4]  0E 22 1E 02
74.282011 atanOfCurrentCurvature 0.019583
74.300751 atanOfCurrentCurvature 0.019630
74.322180 can_line   can0  480   [4]  0E 22 1E 02
74.336483 atanOfCurrentCurvature 0.019630
74.360703 atanOfCurrentCurvature 0.019630
74.372366 can_line   can0  480   [4]  0C 22 1E 02
74.383330 atanOfCurrentCurvature 0.019630
74.400753 atanOfCurrentCurvature 0.019630
74.422153 can_line   can0  480   [4]  0E 22 1C 02
74.436027 atanOfCurrentCurvature 0.019774
74.461634 atanOfCurrentCurvature 0.019966
74.472149 can_line   can0  480   [4]  12 22 1D 02
74.481905 atanOfCurrentCurvature 0.020014
74.500742 atanOfCurrentCurvature 0.020110
74.522409 can_line   can0  480   [4]  10 22 22 02
74.534945 atanOfCurrentCurvature 0.020062
74.560714 atanOfCurrentCurvature 0.020014
74.572027 can_line   can0  480   [4]  12 22 1A 02
74.582879 atanOfCurrentCurvature 0.020014
74.600721 atanOfCurrentCurvature 0.020014
74.622289 can_line   can0  480   [4]  0E 22 1A 02
74.636019 atanOfCurrentCurvature 0.020014
74.661645 atanOfCurrentCurvature 0.020062
74.672033 can_line   can0  480   [4]  0E 22 1F 02
74.681883 atanOfCurrentCurvature 0.020062
74.700838 atanOfCurrentCurvature 0.020110
74.722168 can_line   can0  480   [4]  0E 22 0B 02
74.734958 atanOfCurrentCurvature 0.020062
74.760625 atanOfCurrentCurvature 0.020062
74.771950 can_line   can0  480   [4]  08 22 20 02
74.782993 atanOfCurrentCurvature 0.019822
74.800734 atanOfCurrentCurvature 0.019822
74.822183 can_line   can0  480   [4]  16 22 1F 02
74.837402 atanOfCurrentCurvature 0.019918
74.861758 atanOfCurrentCurvature 0.019918
74.872005 can_line   can0  480   [4]  1A 22 1A 02
74.881870 atanOfCurrentCurvature 0.020062
74.900693 atanOfCurrentCurvature 0.020206
74.922129 can_line   can0  480   [4]  1A 22 19 02
74.934888 atanOfCurrentCurvature 0.020302
74.960676 atanOfCurrentCurvature 0.020254
74.972125 can_line   can0  480   [4]  14 22 15 02
74.983045 atanOfCurrentCurvature 0.020254
75.000814 atanOfCurrentCurvature 0.020254
75.022510 can_line   can0  480   [4]  10 22 1B 02
75.035983 atanOfCurrentCurvature 0.020206
75.061649 atanOfCurrentCurvature 0.020254
75.072099 can_line   can0  480   [4]  10 22 17 02
75.081773 atanOfCurrentCurvature 0.020254
75.100799 atanOfCurrentCurvature 0.020254
75.122154 can_line   can0  480   [4]  12 22 17 02
75.134995 atanOfCurrentCurvature 0.020158
75.160851 atanOfCurrentCurvature 0.020158
75.171977 can_line   can0  480   [4]  12 22 15 02
75.182849 atanOfCurrentCurvature 0.020014
75.200741 atanOfCurrentCurvature 0.020158
75.222108 can_line   can0  480   [4]  0E 22 16 02
75.235905 atanOfCurrentCurvature 0.020206
75.261744 atanOfCurrentCurvature 0.020254
75.272126 can_line   can0  480   [4]  10 22 14 02
75.281914 atanOfCurrentCurvature 0.020254
75.300912 atanOfCurrentCurvature 0.020158
75.322112 can_line   can0  480   [4]  14 22 16 02
75.336172 atanOfCurrentCurvature 0.020062
75.360761 atanOfCurrentCurvature 0.019966
75.372080 can_line   can0  480   [4]  16 22 1B 02
75.383110 atanOfCurrentCurvature 0.019966
75.400768 atanOfCurrentCurvature 0.019870
75.422080 can_line   can0  480   [4]  16 22 18 02
75.435969 atanOfCurrentCurvature 0.019870
75.461858 atanOfCurrentCurvature 0.019918
75.472071 can_line   can0  480   [4]  18 22 09 02
75.481890 atanOfCurrentCurvature 0.019870
75.500758 atanOfCurrentCurvature 0.019870
75.522059 can_line   can0  480   [4]  1C 22 10 02
75.534942 atanOfCurrentCurvature 0.019774
75.560653 atanOfCurrentCurvature 0.019726
75.572065 can_line   can0  480   [4]  1C 22 12 02
75.582968 atanOfCurrentCurvature 0.019487
75.600797 atanOfCurrentCurvature 0.019391
75.622104 can_line   can0  480   [4]  16 22 0A 02
75.635866 atanOfCurrentCurvature 0.018768
75.661675 atanOfCurrentCurvature 0.018528
75.672077 can_line   can0  480   [4]  0A 22 12 02
75.681914 atanOfCurrentCurvature 0.018096
75.700864 atanOfCurrentCurvature 0.017473
75.722048 can_line   can0  480   [4]  0C 22 17 02
75.734874 atanOfCurrentCurvature 0.017186
75.760746 atanOfCurrentCurvature 0.016802
75.771956 can_line   can0  480   [4]  16 22 17 02
75.782920 atanOfCurrentCurvature 0.016562
75.800860 atanOfCurrentCurvature 0.016658
75.822128 can_line   can0  480   [4]  14 22 16 02
75.837353 atanOfCurrentCurvature 0.016658
75.861829 atanOfCurrentCurvature 0.016706
75.872060 can_line   can0  480   [4]  16 22 18 02
75.881775 atanOfCurrentCurvature 0.016706
75.900836 atanOfCurrentCurvature 0.016706
75.922171 can_line   can0  480   [4]  16 22 15 02
75.934961 atanOfCurrentCurvature 0.016994
75.960716 atanOfCurrentCurvature 0.016994
75.972084 can_line   can0  480   [4]  1C 22 13 02
75.983129 atanOfCurrentCurvature 0.017090
76.000794 atanOfCurrentCurvature 0.017090
76.022077 can_line   can0  480   [4]  18 22 18 02
76.035844 atanOfCurrentCurvature 0.016850
76.061819 atanOfCurrentCurvature 0.016850
76.071984 can_line   can0  480   [4]  0E 22 16 02
76.081962 atanOfCurrentCurvature 0.016850
76.100793 atanOfCurrentCurvature 0.016802
76.122088 can_line   can0  480   [4]  14 22 1B 02
76.134863 atanOfCurrentCurvature 0.016802
76.160666 atanOfCurrentCurvature 0.016850
76.171977 can_line   can0  480   [4]  18 22 13 02
76.182939 atanOfCurrentCurvature 0.016850
76.200748 atanOfCurrentCurvature 0.016946
76.222208 can_line   can0  480   [4]  14 22 19 02
76.235905 atanOfCurrentCurvature 0.016946
76.261822 atanOfCurrentCurvature 0.016898
76.272030 can_line   can0  480   [4]  18 22 11 02
76.281784 atanOfCurrentCurvature 0.016898
76.300834 atanOfCurrentCurvature 0.016802
76.322181 can_line   can0  480   [4]  1A 22 24 02
76.336215 atanOfCurrentCurvature 0.016754
76.360696 atanOfCurrentCurvature 0.016754
76.372075 can_line   can0  480   [4]  18 22 11 02
76.383122 atanOfCurrentCurvature 0.016850
76.400778 atanOfCurrentCurvature 0.016850
76.422228 can_line   can0  480   [4]  18 22 24 02
76.435977 atanOfCurrentCurvature 0.016802
76.461767 atanOfCurrentCurvature 0.016802
76.471966 can_line   can0  480   [4]  1C 22 17 02
76.481879 atanOfCurrentCurvature 0.016898
76.500940 atanOfCurrentCurvature 0.017042
76.522164 can_line   can0  480   [4]  18 22 19 02
76.534856 atanOfCurrentCurvature 0.017090
76.560681 atanOfCurrentCurvature 0.017090
76.572030 can_line   can0  480   [4]  14 22 1A 02
76.582943 atanOfCurrentCurvature 0.017042
76.600725 atanOfCurrentCurvature 0.017042
76.622163 can_line   can0  480   [4]  14 22 1A 02
76.635862 atanOfCurrentCurvature 0.017090
76.661721 atanOfCurrentCurvature 0.017090
76.672131 can_line   can0  480   [4]  18 22 1C 02
76.681809 atanOfCurrentCurvature 0.017090
76.700774 atanOfCurrentCurvature 0.017090
76.722100 can_line   can0  480   [4]  16 22 18 02
76.734830 atanOfCurrentCurvature 0.017042
76.760739 atanOfCurrentCurvature 0.017042
76.772318 can_line   can0  480   [4]  14 22 1C 02
76.783009 atanOfCurrentCurvature 0.017090
76.800681 atanOfCurrentCurvature 0.017042
76.822123 can_line   can0  480   [4]  1C 22 23 02
76.837362 atanOfCurrentCurvature 0.017042
76.861610 atanOfCurrentCurvature 0.017042
76.872019 can_line   can0  480   [4]  1A 22 1B 02
76.881852 atanOfCurrentCurvature 0.017042
76.900814 atanOfCurrentCurvature 0.016994
76.922150 can_line   can0  480   [4]  1A 22 1E 02
76.934783 atanOfCurrentCurvature 0.016994
76.960741 atanOfCurrentCurvature 0.017090
76.972093 can_line   can0  480   [4]  18 22 1A 02
76.982988 atanOfCurrentCurvature 0.017042
77.000666 atanOfCurrentCurvature 0.017090
77.022217 can_line   can0  480   [4]  14 22 22 02
77.035931 atanOfCurrentCurvature 0.017090
77.061592 atanOfCurrentCurvature 0.017090
77.072018 can_line   can0  480   [4]  1C 22 22 02
77.082165 atanOfCurrentCurvature 0.017186
77.100885 atanOfCurrentCurvature 0.017377
77.122294 can_line   can0  480   [4]  1C 22 22 02
77.134859 atanOfCurrentCurvature 0.017857
77.160695 atanOfCurrentCurvature 0.018768
77.172262 can_line   can0  480   [4]  12 22 1D 02
77.182872 atanOfCurrentCurvature 0.019726
77.200637 atanOfCurrentCurvature 0.020254
77.222435 can_line   can0  480   [4]  18 22 1A 02
77.235933 atanOfCurrentCurvature 0.021500
77.261658 atanOfCurrentCurvature 0.022027
77.272215 can_line   can0  480   [4]  1E 22 15 02
77.281775 atanOfCurrentCurvature 0.022219
77.300794 atanOfCurrentCurvature 0.022315
77.322110 can_line   can0  480   [4]  18 22 15 02
77.336285 atanOfCurrentCurvature 0.022123
77.360697 atanOfCurrentCurvature 0.021788
77.372053 can_line   can0  480   [4]  10 22 09 02
77.382874 atanOfCurrentCurvature 0.021356
77.401112 atanOfCurrentCurvature 0.021069
77.422200 can_line   can0  480   [4]  16 22 15 02
77.435937 atanOfCurrentCurvature 0.020206
77.461588 atanOfCurrentCurvature 0.019774
77.471943 can_line   can0  480   [4]  1C 22 10 02
77.481938 atanOfCurrentCurvature 0.019583
77.500813 atanOfCurrentCurvature 0.019295
77.522283 can_line   can0  480   [4]  1A 22 15 02
77.534897 atanOfCurrentCurvature 0.019055
77.560670 atanOfCurrentCurvature 0.018816
77.572214 can_line   can0  480   [4]  16 22 12 02
77.583030 atanOfCurrentCurvature 0.018816
77.600777 atanOfCurrentCurvature 0.018816
77.622369 can_line   can0  480   [4]  16 22 12 02
77.635902 atanOfCurrentCurvature 0.018816
77.661636 atanOfCurrentCurvature 0.018720
77.672345 can_line   can0  480   [4]  16 22 0F 02
77.681914 atanOfCurrentCurvature 0.018720
77.700808 atanOfCurrentCurvature 0.018528
77.722052 can_line   can0  480   [4]  18 22 0F 02
77.734949 atanOfCurrentCurvature 0.018384
77.760751 atanOfCurrentCurvature 0.018192
77.772297 can_line   can0  480   [4]  1E 22 09 02
77.782969 atanOfCurrentCurvature 0.018096
77.800784 atanOfCurrentCurvature 0.017905
77.822089 can_line   can0  480   [4]  1C 22 04 02
77.837404 atanOfCurrentCurvature 0.017473
77.861649 atanOfCurrentCurvature 0.016946
77.872128 can_line   can0  480   [4]  18 22 05 02
77.881804 atanOfCurrentCurvature 0.016706
77.900787 atanOfCurrentCurvature 0.016323
77.922081 can_line   can0  480   [4]  16 22 05 02
77.934851 atanOfCurrentCurvature 0.015795
77.960617 atanOfCurrentCurvature 0.015460
77.972069 can_line   can0  480   [4]  12 22 04 02
77.982959 atanOfCurrentCurvature 0.015268
78.000725 atanOfCurrentCurvature 0.015220
78.022205 can_line   can0  480   [4]  12 22 00 02
78.035945 atanOfCurrentCurvature 0.014981
78.061672 atanOfCurrentCurvature 0.014981
78.072007 can_line   can0  480   [4]  1A 22 FF 01
78.081851 atanOfCurrentCurvature 0.014933
78.100854 atanOfCurrentCurvature 0.014933
78.122153 can_line   can0  480   [4]  20 22 FE 01
78.134732 atanOfCurrentCurvature 0.014741
78.160697 atanOfCurrentCurvature 0.014645
78.171894 can_line   can0  480   [4]  1A 22 1A 02
78.182925 atanOfCurrentCurvature 0.014501
78.200671 atanOfCurrentCurvature 0.014405
78.222215 can_line   can0  480   [4]  14 22 C0 01
78.236003 atanOfCurrentCurvature 0.014453
78.261774 atanOfCurrentCurvature 0.013830
78.272368 can_line   can0  480   [4]  18 22 07 02
78.282012 atanOfCurrentCurvature 0.013494
78.300765 atanOfCurrentCurvature 0.013255
78.322098 can_line   can0  480   [4]  1A 22 0F 02
78.336358 atanOfCurrentCurvature 0.013015
78.360689 atanOfCurrentCurvature 0.012727
78.372045 can_line   can0  480   [4]  16 22 1F 02
78.382956 atanOfCurrentCurvature 0.012680
78.400774 atanOfCurrentCurvature 0.012775
78.422095 can_line   can0  480   [4]  1A 22 15 02
78.436025 atanOfCurrentCurvature 0.013063
78.461807 atanOfCurrentCurvature 0.013063
78.472050 can_line   can0  480   [4]  1A 22 14 02
78.481948 atanOfCurrentCurvature 0.013255
78.500862 atanOfCurrentCurvature 0.013542
78.522212 can_line   can0  480   [4]  1E 22 1E 02
78.534770 atanOfCurrentCurvature 0.013542
78.560762 atanOfCurrentCurvature 0.013686
78.572237 can_line   can0  480   [4]  1A 22 22 02
78.582827 atanOfCurrentCurvature 0.013782
78.600795 atanOfCurrentCurvature 0.013926
78.622387 can_line   can0  480   [4]  14 22 0E 02
78.636015 atanOfCurrentCurvature 0.014453
78.661856 atanOfCurrentCurvature 0.014549
78.672248 can_line   can0  480   [4]  1C 22 21 02
78.681765 atanOfCurrentCurvature 0.014549
78.700784 atanOfCurrentCurvature 0.014597
78.722358 can_line   can0  480   [4]  1E 22 21 02
78.734790 atanOfCurrentCurvature 0.014597
78.760747 atanOfCurrentCurvature 0.014789
78.772177 can_line   can0  480   [4]  16 22 1F 02
78.782849 atanOfCurrentCurvature 0.014933
78.800720 atanOfCurrentCurvature 0.015172
78.822175 can_line   can0  480   [4]  18 22 25 02
78.837405 atanOfCurrentCurvature 0.015843
78.861808 atanOfCurrentCurvature 0.016467
78.872059 can_line   can0  480   [4]  1A 22 1F 02
78.881940 atanOfCurrentCurvature 0.016754
78.900704 atanOfCurrentCurvature 0.017234
78.922071 can_line   can0  480   [4]  1A 22 1F 02
78.934758 atanOfCurrentCurvature 0.017809
78.960627 atanOfCurrentCurvature 0.018001
78.972236 can_line   can0  480   [4]  16 22 24 02
78.982918 atanOfCurrentCurvature 0.018096
79.000817 atanOfCurrentCurvature 0.018049
79.022318 can_line   can0  480   [4]  18 22 25 02
79.035982 atanOfCurrentCurvature 0.018049
79.061727 atanOfCurrentCurvature 0.018096
79.072193 can_line   can0  480   [4]  16 22 24 02
79.081913 atanOfCurrentCurvature 0.018144
79.100597 atanOfCurrentCurvature 0.018240
79.122411 can_line   can0  480   [4]  12 22 25 02
79.134767 atanOfCurrentCurvature 0.018288
79.160700 atanOfCurrentCurvature 0.018384
79.172281 can_line   can0  480   [4]  1C 22 27 02
79.183162 atanOfCurrentCurvature 0.018528
79.200690 atanOfCurrentCurvature 0.018576
79.222147 can_line   can0  480   [4]  18 22 26 02
79.235983 atanOfCurrentCurvature 0.019007
79.261714 atanOfCurrentCurvature 0.019295
79.272006 can_line   can0  480   [4]  1E 22 22 02
79.281757 atanOfCurrentCurvature 0.019678
79.300729 atanOfCurrentCurvature 0.020110
79.322146 can_line   can0  480   [4]  1E 22 21 02
79.336258 atanOfCurrentCurvature 0.020541
79.360693 atanOfCurrentCurvature 0.020733
79.371977 can_line   can0  480   [4]  16 22 20 02
79.382831 atanOfCurrentCurvature 0.020877
79.400796 atanOfCurrentCurvature 0.020877
79.422158 can_line   can0  480   [4]  14 22 21 02
79.436259 atanOfCurrentCurvature 0.020973
79.461743 atanOfCurrentCurvature 0.021021
79.472048 can_line   can0  480   [4]  1A 22 20 02
79.482164 atanOfCurrentCurvature 0.021021
79.500861 atanOfCurrentCurvature 0.021069
79.522156 can_line   can0  480   [4]  1C 22 20 02
79.535106 atanOfCurrentCurvature 0.021069
79.560695 atanOfCurrentCurvature 0.021164
79.572328 can_line   can0  480   [4]  16 22 1D 02
79.583098 atanOfCurrentCurvature 0.021069
79.600643 atanOfCurrentCurvature 0.021069
79.622335 can_line   can0  480   [4]  16 22 1D 02
79.636166 atanOfCurrentCurvature 0.021069
79.661749 atanOfCurrentCurvature 0.021069
79.672357 can_line   can0  480   [4]  16 22 1A 02
79.682205 atanOfCurrentCurvature 0.021069
79.700827 atanOfCurrentCurvature 0.021069
79.722206 can_line   can0  480   [4]  1A 22 1A 02
79.735066 atanOfCurrentCurvature 0.021021
79.760644 atanOfCurrentCurvature 0.021069
79.772252 can_line   can0  480   [4]  1C 22 29 02
79.783128 atanOfCurrentCurvature 0.020973
79.800779 atanOfCurrentCurvature 0.021021
79.822218 can_line   can0  480   [4]  1A 22 03 02
79.837602 atanOfCurrentCurvature 0.021212
79.861661 atanOfCurrentCurvature 0.021164
79.872224 can_line   can0  480   [4]  18 22 0E 02
79.882186 atanOfCurrentCurvature 0.021117
79.900880 atanOfCurrentCurvature 0.021021
79.922138 can_line   can0  480   [4]  16 22 0B 02
79.935207 atanOfCurrentCurvature 0.020877
79.960783 atanOfCurrentCurvature 0.020685
79.972192 can_line   can0  480   [4]  14 22 08 02
79.983113 atanOfCurrentCurvature 0.020206
80.000767 atanOfCurrentCurvature 0.019918
80.022444 can_line   can0  480   [4]  14 22 0C 02
80.036174 atanOfCurrentCurvature 0.019151
80.061604 atanOfCurrentCurvature 0.018672
80.072185 can_line   can0  480   [4]  0E 22 0D 02
80.082126 atanOfCurrentCurvature 0.018240
80.100523 atanOfCurrentCurvature 0.017761
80.122272 can_line   can0  480   [4]  18 22 A2 01
80.134978 atanOfCurrentCurvature 0.017234
80.160687 atanOfCurrentCurvature 0.016083
80.172488 can_line   can0  480   [4]  22 22 05 02
80.183182 atanOfCurrentCurvature 0.014597
80.200739 atanOfCurrentCurvature 0.013926
80.222534 can_line   can0  480   [4]  1E 22 13 02
80.236081 atanOfCurrentCurvature 0.012536
80.261855 atanOfCurrentCurvature 0.011913
80.272135 can_line   can0  480   [4]  18 22 12 02
80.281908 atanOfCurrentCurvature 0.011769
80.300831 atanOfCurrentCurvature 0.011913
80.322443 can_line   can0  480   [4]  20 22 FA 01
80.336399 atanOfCurrentCurvature 0.011960
80.360738 atanOfCurrentCurvature 0.011960
80.372358 can_line   can0  480   [4]  1A 22 F4 01
80.383109 atanOfCurrentCurvature 0.012008
80.400942 atanOfCurrentCurvature 0.011913
80.422328 can_line   can0  480   [4]  1A 22 AB 01
80.435929 atanOfCurrentCurvature 0.011289
80.461734 atanOfCurrentCurvature 0.010426
80.472334 can_line   can0  480   [4]  1E 22 FA 01
80.481756 atanOfCurrentCurvature 0.009803
80.500750 atanOfCurrentCurvature 0.009228
80.522267 can_line   can0  480   [4]  20 22 BA 01
80.534858 atanOfCurrentCurvature 0.008749
80.560565 atanOfCurrentCurvature 0.008221
80.572281 can_line   can0  480   [4]  24 22 FC 01
80.582933 atanOfCurrentCurvature 0.007742
80.600784 atanOfCurrentCurvature 0.007838
80.622174 can_line   can0  480   [4]  20 22 B6 01
80.636026 atanOfCurrentCurvature 0.007550
80.661751 atanOfCurrentCurvature 0.007167
80.672062 can_line   can0  480   [4]  20 22 BC 01
80.681832 atanOfCurrentCurvature 0.006879
80.700548 atanOfCurrentCurvature 0.006352
80.722134 can_line   can0  480   [4]  1C 22 FF 01
80.734939 atanOfCurrentCurvature 0.005872
80.760701 atanOfCurrentCurvature 0.004962
80.772080 can_line   can0  480   [4]  26 22 FB 01
80.782990 atanOfCurrentCurvature 0.004674
80.800709 atanOfCurrentCurvature 0.004578
80.822289 can_line   can0  480   [4]  26 22 F8 01
80.837385 atanOfCurrentCurvature 0.004338
80.861743 atanOfCurrentCurvature 0.004338
80.872082 can_line   can0  480   [4]  26 22 FF 01
80.881784 atanOfCurrentCurvature 0.004338
80.900641 atanOfCurrentCurvature 0.004338
80.922306 can_line   can0  480   [4]  28 22 C5 01
80.934872 atanOfCurrentCurvature 0.004434
80.960705 atanOfCurrentCurvature 0.004195
80.972104 can_line   can0  480   [4]  26 22 F6 01
80.982808 atanOfCurrentCurvature 0.004051
81.000687 atanOfCurrentCurvature 0.004099
81.022223 can_line   can0  480   [4]  24 22 08 02
81.036100 atanOfCurrentCurvature 0.004099
81.061790 atanOfCurrentCurvature 0.004195
81.072240 can_line   can0  480   [4]  1C 22 C1 01
81.081917 atanOfCurrentCurvature 0.004195
81.100740 atanOfCurrentCurvature 0.004003
81.122178 can_line   can0  480   [4]  22 22 F4 01
81.134909 atanOfCurrentCurvature 0.003715
81.160707 atanOfCurrentCurvature 0.003475
81.172281 can_line   can0  480   [4]  2A 22 06 02
81.182949 atanOfCurrentCurvature 0.003428
81.200672 atanOfCurrentCurvature 0.003380
81.222272 can_line   can0  480   [4]  26 22 00 02
81.235936 atanOfCurrentCurvature 0.003667
81.261599 atanOfCurrentCurvature 0.003667
81.272230 can_line   can0  480   [4]  24 22 0F 02
81.282033 atanOfCurrentCurvature 0.003667
81.300766 atanOfCurrentCurvature 0.003667
81.322282 can_line   can0  480   [4]  26 22 06 02
81.336279 atanOfCurrentCurvature 0.003811
81.360719 atanOfCurrentCurvature 0.003811
81.372155 can_line   can0  480   [4]  2A 22 15 02
81.382908 atanOfCurrentCurvature 0.003955
81.401033 atanOfCurrentCurvature 0.003955
81.422409 can_line   can0  480   [4]  26 22 F3 01
81.436040 atanOfCurrentCurvature 0.004242
81.461754 atanOfCurrentCurvature 0.004099
81.472251 can_line   can0  480   [4]  22 22 07 02
81.481696 atanOfCurrentCurvature 0.004147
81.500726 atanOfCurrentCurvature 0.004147
81.522301 can_line   can0  480   [4]  22 22 04 02
81.535081 atanOfCurrentCurvature 0.004147
81.560742 atanOfCurrentCurvature 0.004147
81.572288 can_line   can0  480   [4]  24 22 FD 01
81.583119 atanOfCurrentCurvature 0.004147
81.600691 atanOfCurrentCurvature 0.004147
81.622244 can_line   can0  480   [4]  24 22 05 02
81.636190 atanOfCurrentCurvature 0.004147
81.661702 atanOfCurrentCurvature 0.004099
81.672134 can_line   can0  480   [4]  28 22 FB 01
81.682047 atanOfCurrentCurvature 0.004099
81.700870 atanOfCurrentCurvature 0.004003
81.722156 can_line   can0  480   [4]  28 22 B6 01
81.735135 atanOfCurrentCurvature 0.003859
81.760542 atanOfCurrentCurvature 0.003380
81.772065 can_line   can0  480   [4]  28 22 FA 01
81.783054 atanOfCurrentCurvature 0.002852
81.800787 atanOfCurrentCurvature 0.002708
81.822196 can_line   can0  480   [4]  28 22 0E 02
81.837628 atanOfCurrentCurvature 0.002421
81.861785 atanOfCurrentCurvature 0.002565
81.872073 can_line   can0  480   [4]  28 22 F7 01
81.882100 atanOfCurrentCurvature 0.002613
81.900656 atanOfCurrentCurvature 0.002852
81.922191 can_line   can0  480   [4]  24 22 F8 01
81.935125 atanOfCurrentCurvature 0.002996
81.960715 atanOfCurrentCurvature 0.002996
81.972041 can_line   can0  480   [4]  24 22 F4 01
81.983109 atanOfCurrentCurvature 0.002996
82.000789 atanOfCurrentCurvature 0.002996
82.022419 can_line   can0  480   [4]  28 22 FB 01
82.036092 atanOfCurrentCurvature 0.002900
82.061812 atanOfCurrentCurvature 0.002852
82.072210 can_line   can0  480   [4]  2A 22 FC 01
82.081893 atanOfCurrentCurvature 0.002852
82.100650 atanOfCurrentCurvature 0.002852
82.122359 can_line   can0  480   [4]  28 22 A4 01
82.135036 atanOfCurrentCurvature 0.002852
82.160644 atanOfCurrentCurvature 0.002421
82.172311 can_line   can0  480   [4]  26 22 B3 01
82.183153 atanOfCurrentCurvature 0.001702
82.200705 atanOfCurrentCurvature 0.001174
82.222194 can_line   can0  480   [4]  22 22 BF 01
82.236133 atanOfCurrentCurvature -0.000168
82.261765 atanOfCurrentCurvature -0.001079
82.272101 can_line   can0  480   [4]  26 22 0E 02
82.282157 atanOfCurrentCurvature -0.001510
82.300804 atanOfCurrentCurvature -0.001750
82.322148 can_line   can0  480   [4]  28 22 03 02
82.336613 atanOfCurrentCurvature -0.001558
82.360740 atanOfCurrentCurvature -0.001222
82.372244 can_line   can0  480   [4]  2C 22 FA 01
82.383166 atanOfCurrentCurvature -0.000503
82.400672 atanOfCurrentCurvature -0.000168
82.422153 can_line   can0  480   [4]  28 22 F8 01
82.435882 atanOfCurrentCurvature 0.000599
82.461786 atanOfCurrentCurvature 0.000887
82.472329 can_line   can0  480   [4]  2A 22 BE 01
82.481898 atanOfCurrentCurvature 0.001079
82.500764 atanOfCurrentCurvature 0.001079
82.522058 can_line   can0  480   [4]  2A 22 B7 01
82.534845 atanOfCurrentCurvature 0.001031
82.560714 atanOfCurrentCurvature 0.000887
82.572188 can_line   can0  480   [4]  2E 22 9E 01
82.582940 atanOfCurrentCurvature 0.000743
82.600621 atanOfCurrentCurvature 0.000647
82.622146 can_line   can0  480   [4]  2A 22 A5 01
82.635930 atanOfCurrentCurvature 0.000599
82.661623 atanOfCurrentCurvature 0.000599
82.672295 can_line   can0  480   [4]  2A 22 B2 01
82.681795 atanOfCurrentCurvature 0.000647
82.700758 atanOfCurrentCurvature 0.000743
