1508433360.435287 can_line   can1  080   [8]  4E 0D 4E 25 01 C3 12 FF
1508433360.443508 can_line   can1  080   [8]  4E 0D 4E 25 01 C3 13 FF
1508433360.453341 can_line   can1  080   [8]  4E 0D 4E 25 01 C3 15 FF
1508433360.463358 can_line   can1  080   [8]  4E 0D 4E 25 01 C3 16 FF
1508433360.473354 can_line   can1  080   [8]  4E 0D 4E 25 01 C3 17 FF
1508433360.483553 can_line   can1  080   [8]  4E 0D 4E 25 01 C3 18 FF
1508433360.493507 can_line   can1  080   [8]  4E 0D 4E 25 01 C3 1A FF
1508433360.503377 can_line   can1  080   [8]  4E 0D 4E 25 01 C3 1B FF
1508433360.513389 can_line   can1  080   [8]  4E 0D 4E 25 01 C3 1C FF
1508433360.523373 can_line   can1  080   [8]  4E 0D 4E 25 01 C3 1D FF
1508433360.533386 can_line   can1  080   [8]  4E 0D 4E 25 01 C3 1F FF
1508433360.543446 can_line   can1  080   [8]  4E 0D 4E 25 01 C3 20 FF
1508433360.553395 can_line   can1  080   [8]  4E 0D 4E 25 01 C3 21 FF
1508433360.563949 can_line   can1  080   [8]  4E 0D 4E 25 01 C3 22 FF
1508433360.573356 can_line   can1  080   [8]  4E 0D 4E 25 01 C3 24 FF
1508433360.583408 can_line   can1  080   [8]  4E 0D 4E 25 01 C3 25 FF
1508433360.593396 can_line   can1  080   [8]  4E 0D 4E 25 01 C3 26 FF
1508433360.603393 can_line   can1  080   [8]  4E 0D 4E 25 01 C3 27 FF
1508433360.613630 can_line   can1  080   [8]  4E 0D 4E 25 01 C3 29 FF
1508433360.623399 can_line   can1  080   [8]  4E 0D 4E 25 01 C3 2A FF
1508433360.633400 can_line   can1  080   [8]  4E 0D 4E 25 01 C3 2B FF
1508433360.643493 can_line   can1  080   [8]  4E 0D 4E 25 01 C3 2C FF
1508433360.653373 can_line   can1  080   [8]  4E 0D 4E 25 01 C3 2E FF
1508433360.663400 can_line   can1  080   [8]  4E 0D 4E 25 01 C3 2F FF
1508433360.673440 can_line   can1  080   [8]  4E 0D 4E 25 01 C3 30 FF
1508433360.683443 can_line   can1  080   [8]  4E 0D 4E 25 01 C3 31 FF
1508433360.693415 can_line   can1  080   [8]  4E 0D 4E 25 01 C3 33 FF
1508433360.703391 can_line   can1  080   [8]  4E 0D 4E 25 01 C3 34 FF
1508433360.713394 can_line   can1  080   [8]  4E 0D 4E 25 01 C3 35 FF
1508433360.723503 can_line   can1  080   [8]  4E 0D 4E 25 01 C3 36 FF
1508433360.733369 can_line   can1  080   [8]  4E 0D 4E 25 01 C3 38 FF
1508433360.743440 can_line   can1  080   [8]  4E 0D 4E 25 01 C3 39 FF
1508433360.753353 can_line   can1  080   [8]  4E 0D 4E 25 01 C3 3A FF
1508433360.763367 can_line   can1  080   [8]  4E 0D 4E 25 01 C3 3B FF
1508433360.773354 can_line   can1  080   [8]  4E 0D 4E 25 01 C3 3D FF
1508433360.783391 can_line   can1  080   [8]  4E 0D 4E 25 01 C3 3E FF
1508433360.793350 can_line   can1  080   [8]  4E 0D 4E 25 01 C3 3F FF
1508433360.804278 can_line   can1  080   [8]  4E 0D 4E 25 01 C3 40 FF
1508433360.813389 can_line   can1  080   [8]  4E 0D 4E 25 01 C3 42 FF
1508433360.823421 can_line   can1  080   [8]  4E 0D 4E 25 01 C3 43 FF
1508433360.833365 can_line   can1  080   [8]  4E 0D 4E 25 01 C3 44 FF
1508433360.843440 can_line   can1  080   [8]  4E 0D 4E 25 01 C3 45 FF
1508433360.853353 can_line   can1  080   [8]  4E 0D 4E 25 01 C3 47 FF
1508433360.863431 can_line   can1  080   [8]  4E 0D 4E 25 01 C3 48 FF
1508433360.873376 can_line   can1  080   [8]  4E 0D 4E 25 01 C3 49 FF
1508433360.883487 can_line   can1  080   [8]  4E 0D 4E 25 01 C3 4A FF
1508433360.893357 can_line   can1  080   [8]  4E 0D 4E 25 01 C3 4C FF
1508433360.903348 can_line   can1  080   [8]  4E 0D 4E 25 01 C3 4D FF
1508433360.913333 can_line   can1  080   [8]  4E 0D 4E 25 01 C3 4E FF
1508433360.923371 can_line   can1  080   [8]  4E 0D 4E 25 01 C3 4F FF
1508433360.933332 can_line   can1  080   [8]  4E 0D 4E 25 01 C3 51 FF
1508433360.943380 can_line   can1  080   [8]  4E 0D 4E 25 01 C3 52 FF
1508433360.953396 can_line   can1  080   [8]  4E 0D 4E 25 01 C3 53 FF
1508433360.963529 can_line   can1  080   [8]  4E 0D 4E 25 01 C3 54 FF
1508433360.973308 can_line   can1  080   [8]  4E 0D 4E 25 01 C3 56 FF
1508433360.983372 can_line   can1  080   [8]  4E 0D 4E 25 01 C3 57 FF
1508433360.993383 can_line   can1  080   [8]  4E 0D 4E 25 01 C3 58 FF
1508433361.003343 can_line   can1  080   [8]  4E 0D 4E 25 01 C3 59 FF
1508433361.013344 can_line   can1  080   [8]  4E 0D 4E 25 01 C3 5B FF
1508433361.023372 can_line   can1  080   [8]  4E 0D 4E 25 01 C3 5C FF
1508433361.033348 can_line   can1  080   [8]  4E 0D 4E 25 01 C3 5D FF
1508433361.044069 can_line   can1  080   [8]  4E 0D 4E 25 01 C3 5E FF
1508433361.053350 can_line   can1  080   [8]  4E 0D 4E 25 01 C3 60 FF
1508433361.063334 can_line   can1  080   [8]  4E 0D 4E 25 01 C3 61 FF
1508433361.073314 can_line   can1  080   [8]  4E 0D 4E 25 01 C3 62 FF
1508433361.083515 can_line   can1  080   [8]  4E 0D 4E 25 01 C3 63 FF
1508433361.093502 can_line   can1  080   [8]  4E 0D 4E 25 01 C3 65 FF
1508433361.103400 can_line   can1  080   [8]  4E 0D 4E 25 01 C3 66 FF
1508433361.117423 can_line   can1  080   [8]  4E 0D 4E 25 01 C3 67 FF
1508433361.128194 can_line   can1  080   [8]  4E 0D 4E 25 01 C3 68 FF
1508433361.138512 can_line   can1  080   [8]  4E 0D 4E 25 01 C3 6A FF
1508433361.143409 can_line   can1  080   [8]  4E 0D 4E 25 01 C3 6B FF
1508433361.153320 can_line   can1  080   [8]  4E 0D 4E 25 01 C3 6C FF
1508433361.163449 can_line   can1  080   [8]  4E 0D 4E 25 01 C3 6D FF
1508433361.173314 can_line   can1  080   [8]  4E 0D 4E 25 01 C3 6F FF
1508433361.183349 can_line   can1  080   [8]  4E 0D 4E 25 01 C3 70 FF
1508433361.193302 can_line   can1  080   [8]  4E 0D 4E 25 01 C3 71 FF
1508433361.203510 can_line   can1  080   [8]  4E 0D 4E 25 01 C3 72 FF
1508433361.213310 can_line   can1  080   [8]  4E 0D 4E 25 01 C3 74 FF
1508433361.223360 can_line   can1  080   [8]  4E 0D 4E 25 01 C3 75 FF
1508433361.233300 can_line   can1  080   [8]  4E 0D 4E 25 01 C3 76 FF
1508433361.243518 can_line   can1  080   [8]  4E 0D 4E 25 01 C3 77 FF
1508433361.253310 can_line   can1  080   [8]  4E 0D 4E 25 01 C3 79 FF
1508433361.263331 can_line   can1  080   [8]  4E 0D 4E 25 01 C3 7A FF
1508433361.273311 can_line   can1  080   [8]  4E 0D 4E 25 01 C3 7B FF
1508433361.284007 can_line   can1  080   [8]  4E 0D 4E 25 01 C3 7C FF
1508433361.293379 can_line   can1  080   [8]  4E 0D 4E 25 01 C3 7E FF
1508433361.303327 can_line   can1  080   [8]  4E 0D 4E 25 01 C3 7F FF
1508433361.313340 can_line   can1  080   [8]  4E 0D 4E 25 01 C3 80 FF
1508433361.323415 can_line   can1  080   [8]  4E 0D 4E 25 01 C3 81 FF
1508433361.333640 can_line   can1  080   [8]  4E 0D 4E 25 01 C3 83 FF
1508433361.343393 can_line   can1  080   [8]  4E 0D 4E 25 01 C3 84 FF
1508433361.353293 can_line   can1  080   [8]  4E 0D 4E 25 01 C3 85 FF
1508433361.364039 can_line   can1  080   [8]  4E 0D 4E 25 01 C3 86 FF
1508433361.373308 can_line   can1  080   [8]  4E 0D 4E 25 01 C3 88 FF
1508433361.383318 can_line   can1  080   [8]  4E 0D 4E 25 01 C3 89 FF
1508433361.393285 can_line   can1  080   [8]  4E 0D 4E 25 01 C3 8A FF
1508433361.403423 can_line   can1  080   [8]  4E 0D 4E 25 01 C3 8B FF
1508433361.413306 can_line   can1  080   [8]  4E 0D 4E 25 01 C3 8D FF
1508433361.423317 can_line   can1  080   [8]  4E 0D 4E 25 01 C3 8E FF
1508433361.433310 can_line   can1  080   [8]  4E 0D 4E 25 01 C3 8F FF
1508433361.443833 can_line   can1  080   [8]  4E 0D 4E 25 01 C3 90 FF
1508433361.453300 can_line   can1  080   [8]  4E 0D 4E 25 01 C3 92 FF
1508433361.463342 can_line   can1  080   [8]  4E 0D 4E 25 01 C3 93 FF
1508433361.473300 can_line   can1  080   [8]  4E 0D 4E 25 01 C3 94 FF
1508433361.483401 can_line   can1  080   [8]  4E 0D 4E 25 01 C3 95 FF
1508433361.493303 can_line   can1  080   [8]  4E 0D 4E 25 01 C3 97 FF
1508433361.503346 can_line   can1  080   [8]  4E 0D 4E 25 01 C3 98 FF
1508433361.513305 can_line   can1  080   [8]  4E 0D 4E 25 01 C3 99 FF
1508433361.525025 can_line   can1  080   [8]  4E 0D 4E 25 01 C3 9A FF
1508433361.533431 can_line   can1  080   [8]  4E 0D 4E 25 01 C3 9C FF
1508433361.543285 can_line   can1  080   [8]  4E 0D 4E 25 01 C3 9D FF
1508433361.553298 can_line   can1  080   [8]  4E 0D 4E 25 01 C3 9E FF
1508433361.563440 can_line   can1  080   [8]  4E 0D 4E 25 01 C3 9F FF
1508433361.573502 can_line   can1  080   [8]  4E 0D 4E 25 01 C3 A1 FF
1508433361.583321 can_line   can1  080   [8]  4E 0D 4E 25 01 C3 A2 FF
1508433361.593271 can_line   can1  080   [8]  4E 0D 4E 25 01 C3 A3 FF
1508433361.603776 can_line   can1  080   [8]  4E 0D 4E 25 01 C3 A4 FF
1508433361.613280 can_line   can1  080   [8]  4E 0D 4E 25 01 C3 A6 FF
1508433361.623294 can_line   can1  080   [8]  4E 0D 4E 25 01 C3 A7 FF
1508433361.633301 can_line   can1  080   [8]  4E 0D 4E 25 01 C3 A8 FF
1508433361.643478 can_line   can1  080   [8]  4E 0D 4E 25 01 C3 A9 FF
1508433361.653292 can_line   can1  080   [8]  4E 0D 4E 25 01 C3 AB FF
1508433361.663439 can_line   can1  080   [8]  4E 0D 4E 25 01 C3 AC FF
1508433361.673348 can_line   can1  080   [8]  4E 0D 4E 25 01 C3 AD FF
1508433361.683663 can_line   can1  080   [8]  4E 0D 4E 25 01 C3 AE FF
1508433361.693335 can_line   can1  080   [8]  4E 0D 4E 25 01 C3 B0 FF
1508433361.703322 can_line   can1  080   [8]  4E 0D 4E 25 01 C3 B1 FF
1508433361.713347 can_line   can1  080   [8]  4E 0D 4E 25 01 C3 B2 FF
1508433361.723386 can_line   can1  080   [8]  4E 0D 4E 25 01 C3 B3 FF
1508433361.733300 can_line   can1  080   [8]  4E 0D 4E 25 01 C3 B5 FF
1508433361.743306 can_line   can1  080   [8]  4E 0D 4E 25 01 C3 B6 FF
1508433361.753327 can_line   can1  080   [8]  4E 0D 4E 25 01 C3 B7 FF
1508433361.763858 can_line   can1  080   [8]  4E 0D 4E 25 01 C3 B8 FF
1508433361.773459 can_line   can1  080   [8]  4E 0D 4E 25 01 C3 BA FF
1508433361.783346 can_line   can1  080   [8]  4E 0D 4E 25 01 C3 BB FF
1508433361.793309 can_line   can1  080   [8]  4E 0D 4E 25 01 C3 BC FF
1508433361.803497 can_line   can1  080   [8]  4E 0D 4E 25 01 C3 BD FF
1508433361.813416 can_line   can1  080   [8]  4E 0D 4E 25 01 C3 BF FF
1508433361.823327 can_line   can1  080   [8]  4E 0D 4E 25 01 C3 C0 FF
1508433361.833343 can_line   can1  080   [8]  4E 0D 4E 25 01 C3 C1 FF
1508433361.843585 can_line   can1  080   [8]  4E 0D 4E 25 01 C3 C2 FF
1508433361.853293 can_line   can1  080   [8]  4E 0D 4E 25 01 C3 C4 FF
1508433361.863549 can_line   can1  080   [8]  4E 0D 4E 25 01 C3 C5 FF
1508433361.873311 can_line   can1  080   [8]  4E 0D 4E 25 01 C3 C6 FF
1508433361.883414 can_line   can1  080   [8]  4E 0D 4E 25 01 C3 C7 FF
1508433361.893298 can_line   can1  080   [8]  4E 0D 4E 25 01 C3 C9 FF
1508433361.903308 can_line   can1  080   [8]  4E 0D 4E 25 01 C3 CA FF
1508433361.913276 can_line   can1  080   [8]  4E 0D 4E 25 01 C3 CB FF
1508433361.923652 can_line   can1  080   [8]  4E 0D 4E 25 01 C3 CC FF
1508433361.933296 can_line   can1  080   [8]  4E 0D 4E 25 01 C3 CE FF
1508433361.943324 can_line   can1  080   [8]  4E 0D 4E 25 01 C3 CF FF
1508433361.953320 can_line   can1  080   [8]  4E 0D 4E 25 01 C3 D0 FF
1508433361.963752 can_line   can1  080   [8]  4E 0D 4E 25 01 C3 D1 FF
1508433361.973328 can_line   can1  080   [8]  4E 0D 4E 25 01 C3 D3 FF
1508433361.983715 can_line   can1  080   [8]  4E 0D 4E 25 01 C3 D4 FF
1508433361.993272 can_line   can1  080   [8]  4E 0D 4E 25 01 C3 D5 FF
1508433362.003754 can_line   can1  080   [8]  4E 0D 4E 25 01 C3 D6 FF
1508433362.013275 can_line   can1  080   [8]  4E 0D 4E 25 01 C3 D8 FF
1508433362.023505 can_line   can1  080   [8]  4E 0D 4E 25 01 C3 D9 FF
1508433362.033333 can_line   can1  080   [8]  4E 0D 4E 25 01 C3 DA FF
1508433362.043830 can_line   can1  080   [8]  4E 0D 4E 25 01 C3 DB FF
1508433362.053907 can_line   can1  080   [8]  4E 0D 4E 25 01 C3 DD FF
1508433362.063452 can_line   can1  080   [8]  4E 0D 4E 25 01 C3 DE FF
1508433362.073302 can_line   can1  080   [8]  4E 0D 4E 25 01 C3 DF FF
1508433362.083695 can_line   can1  080   [8]  4E 0D 4E 25 01 C3 E0 FF
1508433362.093299 can_line   can1  080   [8]  4E 0D 4E 25 01 C3 E2 FF
1508433362.103364 can_line   can1  080   [8]  4E 0D 4E 25 01 C3 E3 FF
1508433362.113324 can_line   can1  080   [8]  4E 0D 4E 25 01 C3 E4 FF
1508433362.123772 can_line   can1  080   [8]  4E 0D 4E 25 01 C3 E5 FF
1508433362.133306 can_line   can1  080   [8]  4E 0D 4E 25 01 C3 E7 FF
1508433362.143633 can_line   can1  080   [8]  4E 0D 4E 25 01 C3 E8 FF
1508433362.156808 can_line   can1  080   [8]  4E 0D 4E 25 01 C3 E9 FF
1508433362.164193 can_line   can1  080   [8]  4E 0D 4E 25 01 C3 EA FF
1508433362.173797 can_line   can1  080   [8]  4E 0D 4E 25 01 C3 EC FF
1508433362.183443 can_line   can1  080   [8]  4E 0D 4E 25 01 C3 ED FF
1508433362.193347 can_line   can1  080   [8]  4E 0D 4E 25 01 C3 EE FF
1508433362.204549 can_line   can1  080   [8]  4E 0D 4E 25 01 C3 EF FF
1508433362.213339 can_line   can1  080   [8]  4E 0D 4E 25 01 C3 F1 FF
1508433362.223422 can_line   can1  080   [8]  4E 0D 4E 25 01 C3 F2 FF
1508433362.233377 can_line   can1  080   [8]  4E 0D 4E 25 01 C3 F3 FF
1508433362.245669 can_line   can1  080   [8]  4E 0D 4E 25 01 C3 F4 FF
1508433362.253691 can_line   can1  080   [8]  4E 0D 4E 25 01 C3 F6 FF
1508433362.263392 can_line   can1  080   [8]  4E 0D 4E 25 01 C3 F7 FF
1508433362.273438 can_line   can1  080   [8]  4E 0D 4E 25 01 C3 F8 FF
1508433362.283773 can_line   can1  080   [8]  4E 0D 4E 25 01 C3 F9 FF
1508433362.293523 can_line   can1  080   [8]  4E 0D 4E 25 01 C3 FB FF
1508433362.303321 can_line   can1  080   [8]  4E 0D 4E 25 01 C3 FC FF
1508433362.313296 can_line   can1  080   [8]  4E 0D 4E 25 01 C3 FD FF
1508433362.324102 can_line   can1  080   [8]  4E 0D 4E 25 01 C3 FE FF
1508433362.333410 can_line   can1  080   [8]  4E 0D 4E 25 01 C3 00 FF
1508433362.343248 can_line   can1  080   [8]  4E 0D 4E 25 01 C3 01 FF
1508433362.353321 can_line   can1  080   [8]  4E 0D 4E 25 01 C3 02 FF
1508433362.364001 can_line   can1  080   [8]  4E 0D 4E 25 01 C3 03 FF
1508433362.373412 can_line   can1  080   [8]  4E 0D 4E 25 01 C3 05 FF
1508433362.383392 can_line   can1  080   [8]  4E 0D 4E 25 01 C3 06 FF
1508433362.393383 can_line   can1  080   [8]  4E 0D 4E 25 01 C3 07 FF
1508433362.403452 can_line   can1  080   [8]  4E 0D 4E 25 01 C3 08 FF
1508433362.413435 can_line   can1  080   [8]  4E 0D 4E 25 01 C3 0A FF
1508433362.423340 can_line   can1  080   [8]  4E 0D 4E 25 01 C3 0B FF
1508433362.433398 can_line   can1  080   [8]  4E 0D 4E 25 01 C3 0C FF
1508433362.443439 can_line   can1  080   [8]  4E 0D 4E 25 01 C3 0D FF
1508433362.453411 can_line   can1  080   [8]  4E 0D 4E 25 01 C3 0F FF
1508433362.463348 can_line   can1  080   [8]  4E 0D 4E 25 01 C3 10 FF
1508433362.473308 can_line   can1  080   [8]  4E 0D 4E 25 01 C3 11 FF
1508433362.483487 can_line   can1  080   [8]  4E 0D 4E 25 01 C3 12 FF
1508433362.493320 can_line   can1  080   [8]  4E 0D 4E 25 01 C3 14 FF
1508433362.503463 can_line   can1  080   [8]  4E 0D 4E 25 01 C3 15 FF
1508433362.513323 can_line   can1  080   [8]  4E 0D 4E 25 01 C3 16 FF
1508433362.523416 can_line   can1  080   [8]  4E 0D 4E 25 01 C3 17 FF
1508433362.533804 can_line   can1  080   [8]  4E 0D 4E 25 01 C3 19 FF
1508433362.543370 can_line   can1  080   [8]  4E 0D 4E 25 01 C3 1A FF
1508433362.553303 can_line   can1  080   [8]  4E 0D 4E 25 01 C3 1B FF
1508433362.563524 can_line   can1  080   [8]  4E 0D 4E 25 01 C3 1C FF
1508433362.573297 can_line   can1  080   [8]  4E 0D 4E 25 01 C3 1E FF
1508433362.583310 can_line   can1  080   [8]  4E 0D 4E 25 01 C3 1F FF
1508433362.593278 can_line   can1  080   [8]  4E 0D 4E 25 01 C3 20 FF
1508433362.603437 can_line   can1  080   [8]  4E 0D 4E 25 01 C3 21 FF
1508433362.613954 can_line   can1  080   [8]  4E 0D 4E 25 01 C3 23 FF
1508433362.623362 can_line   can1  080   [8]  4E 0D 4E 25 01 C3 24 FF
1508433362.633290 can_line   can1  080   [8]  4E 0D 4E 25 01 C3 25 FF
1508433362.643537 can_line   can1  080   [8]  4E 0D 4E 25 01 C3 26 FF
1508433362.653325 can_line   can1  080   [8]  4E 0D 4E 25 01 C3 28 FF
1508433362.663344 can_line   can1  080   [8]  4E 0D 4E 25 01 C3 29 FF
1508433362.673324 can_line   can1  080   [8]  4E 0D 4E 25 01 C3 2A FF
1508433362.683363 can_line   can1  080   [8]  4E 0D 4E 25 01 C3 2B FF
1508433362.693367 can_line   can1  080   [8]  4E 0D 4E 25 01 C3 2D FF
1508433362.703343 can_line   can1  080   [8]  4E 0D 4E 25 01 C3 2E FF
1508433362.713291 can_line   can1  080   [8]  4E 0D 4E 25 01 C3 2F FF
1508433362.723349 can_line   can1  080   [8]  4E 0D 4E 25 01 C3 30 FF
1508433362.733324 can_line   can1  080   [8]  4E 0D 4E 25 01 C3 32 FF
1508433362.743456 can_line   can1  080   [8]  4E 0D 4E 25 01 C3 33 FF
1508433362.753294 can_line   can1  080   [8]  4E 0D 4E 25 01 C3 34 FF
1508433362.763386 can_line   can1  080   [8]  4E 0D 4E 25 01 C3 35 FF
1508433362.773731 can_line   can1  080   [8]  4E 0D 4E 25 01 C3 37 FF
1508433362.783343 can_line   can1  080   [8]  4E 0D 4E 25 01 C3 38 FF
1508433362.793283 can_line   can1  080   [8]  4E 0D 4E 25 01 C3 39 FF
1508433362.803260 can_line   can1  080   [8]  4E 0D 4E 25 01 C3 3A FF
1508433362.813264 can_line   can1  080   [8]  4E 0D 4E 25 01 C3 3C FF
1508433362.823269 can_line   can1  080   [8]  4E 0D 4E 25 01 C3 3D FF
1508433362.833286 can_line   can1  080   [8]  4E 0D 4E 25 01 C3 3E FF
1508433362.843250 can_line   can1  080   [8]  4E 0D 4E 25 01 C3 3F FF
1508433362.853629 can_line   can1  080   [8]  4E 0D 4E 25 01 C3 41 FF
1508433362.863279 can_line   can1  080   [8]  4E 0D 4E 25 01 C3 42 FF
1508433362.873264 can_line   can1  080   [8]  4E 0D 4E 25 01 C3 43 FF
1508433362.883253 can_line   can1  080   [8]  4E 0D 4E 25 01 C3 44 FF
1508433362.893287 can_line   can1  080   [8]  4E 0D 4E 25 01 C3 46 FF
1508433362.903281 can_line   can1  080   [8]  4E 0D 4E 25 01 C3 47 FF
1508433362.913311 can_line   can1  080   [8]  4E 0D 4E 25 01 C3 48 FF
1508433362.923367 can_line   can1  080   [8]  4E 0D 4E 25 01 C3 49 FF
1508433362.933445 can_line   can1  080   [8]  4E 0D 4E 25 01 C3 4B FF
1508433362.943344 can_line   can1  080   [8]  4E 0D 4E 25 01 C3 4C FF
1508433362.953299 can_line   can1  080   [8]  4E 0D 4E 25 01 C3 4D FF
1508433362.963335 can_line   can1  080   [8]  4E 09 4E 22 01 C3 4E FF
1508433362.973935 can_line   can1  080   [8]  4E 03 4E 20 01 C3 50 FF
1508433362.983335 can_line   can1  080   [8]  4D FF 4E 20 01 C3 51 FF
1508433362.993400 can_line   can1  080   [8]  4D F9 4E 1E 01 C3 52 FF
1508433363.003346 can_line   can1  080   [8]  4D F9 4E 1B 01 C3 53 FF
1508433363.014574 can_line   can1  080   [8]  4D EF 4E 16 01 C3 55 FF
1508433363.023323 can_line   can1  080   [8]  4D E5 4E 14 01 C3 56 FF
1508433363.033352 can_line   can1  080   [8]  4D E1 4E 11 01 C3 57 FF
1508433363.043380 can_line   can1  080   [8]  4D DB 4E 0F 01 C3 58 FF
1508433363.053363 can_line   can1  080   [8]  4D D1 4E 07 01 C3 5A FF
1508433363.063393 can_line   can1  080   [8]  4D C7 4E 05 01 C3 5B FF
1508433363.073398 can_line   can1  080   [8]  4D C3 4E 02 01 C3 5C FF
1508433363.083410 can_line   can1  080   [8]  4D BD 4D FD 01 C3 5D FF
1508433363.093432 can_line   can1  080   [8]  4D A9 4D F6 01 C3 5F FF
1508433363.103402 can_line   can1  080   [8]  4D 9F 4D F1 01 C3 60 FF
1508433363.113667 can_line   can1  080   [8]  4D 95 4D EC 01 C3 61 FF
1508433363.123399 can_line   can1  080   [8]  4D 8B 4D E4 01 C3 62 FF
1508433363.133444 can_line   can1  080   [8]  4D 73 4D D8 01 C3 64 FF
1508433363.143346 can_line   can1  080   [8]  4D 63 4D D3 01 C3 65 FF
1508433363.153358 can_line   can1  080   [8]  4D 59 4D CB 01 C3 66 FF
1508433363.163467 can_line   can1  080   [8]  4D 4B 4D C4 01 C3 67 FF
1508433363.173528 can_line   can1  080   [8]  4D 2D 4D B5 01 C3 69 FF
1508433363.183360 can_line   can1  080   [8]  4D 19 4D AD 01 C3 6A FF
1508433363.193352 can_line   can1  080   [8]  4D 09 4D A6 01 C3 6B FF
1508433363.203395 can_line   can1  080   [8]  4C FB 4D 9E 01 C3 6C FF
1508433363.213395 can_line   can1  080   [8]  4C DD 4D 8D 01 C3 6E FF
1508433363.223333 can_line   can1  080   [8]  4C CD 4D 85 01 C3 6F FF
1508433363.233354 can_line   can1  080   [8]  4C B9 4D 7B 01 C3 70 FF
1508433363.243642 can_line   can1  080   [8]  4C A5 4D 71 01 C3 71 FF
1508433363.254012 can_line   can1  080   [8]  4C 83 4D 62 01 C3 73 FF
1508433363.263322 can_line   can1  080   [8]  4C 73 4D 58 01 C3 74 FF
1508433363.273359 can_line   can1  080   [8]  4C 65 4D 51 01 C3 75 FF
1508433363.283396 can_line   can1  080   [8]  4C 51 4D 49 01 C3 76 FF
1508433363.293359 can_line   can1  080   [8]  4C 33 4D 38 01 C3 78 FF
1508433363.303664 can_line   can1  080   [8]  4C 1F 4D 30 01 C3 79 FF
1508433363.313487 can_line   can1  080   [8]  4C 0F 4D 29 01 C3 7A FF
1508433363.323454 can_line   can1  080   [8]  4C 01 4D 1F 01 C3 7B FF
1508433363.333467 can_line   can1  080   [8]  4B E3 4D 10 01 C3 7D FF
1508433363.343398 can_line   can1  080   [8]  4B D3 4D 08 01 C3 7E FF
1508433363.353348 can_line   can1  080   [8]  4B BF 4C FE 01 C3 7F FF
1508433363.363368 can_line   can1  080   [8]  4B B1 4C F7 01 C3 80 FF
1508433363.373361 can_line   can1  080   [8]  4B 8D 4C E5 01 C3 82 FF
1508433363.383406 can_line   can1  080   [8]  4B 7F 4C DE 01 C3 83 FF
1508433363.393422 can_line   can1  080   [8]  4B 6F 4C D6 01 C3 84 FF
1508433363.403506 can_line   can1  080   [8]  4B 5B 4C CC 01 C3 85 FF
1508433363.413467 can_line   can1  080   [8]  4B 39 4C BB 01 C3 87 FF
1508433363.423330 can_line   can1  080   [8]  4B 25 4C B3 01 C3 88 FF
1508433363.433351 can_line   can1  080   [8]  4B 11 4C A7 01 C3 89 FF
1508433363.443472 can_line   can1  080   [8]  4B 01 4C 9F 01 C3 8A FF
1508433363.453544 can_line   can1  080   [8]  4A D9 4C 8E 01 C3 8C FF
1508433363.463367 can_line   can1  080   [8]  4A C5 4C 81 01 C3 8D FF
1508433363.473505 can_line   can1  080   [8]  4A B1 4C 77 01 C3 8E FF
1508433363.483412 can_line   can1  080   [8]  4A 9D 4C 6D 01 C3 8F FF
1508433363.495018 can_line   can1  080   [8]  4A 75 4C 59 01 C3 91 FF
1508433363.503356 can_line   can1  080   [8]  4A 5D 4C 4D 01 C3 92 FF
1508433363.513391 can_line   can1  080   [8]  4A 49 4C 43 01 C3 93 FF
1508433363.523425 can_line   can1  080   [8]  4A 2F 4C 36 01 C3 94 FF
1508433363.533603 can_line   can1  080   [8]  4A 03 4C 20 01 C3 96 FF
1508433363.543430 can_line   can1  080   [8]  49 EF 4C 13 01 C3 97 FF
1508433363.553362 can_line   can1  080   [8]  49 D5 4C 07 01 C3 98 FF
1508433363.563425 can_line   can1  080   [8]  49 BD 4B FA 01 C3 99 FF
1508433363.573669 can_line   can1  080   [8]  49 85 4B E1 01 C3 9B FF
1508433363.583345 can_line   can1  080   [8]  49 6D 4B D5 01 C3 9C FF
1508433363.593543 can_line   can1  080   [8]  49 4F 4B C6 01 C3 9D FF
1508433363.603342 can_line   can1  080   [8]  49 35 4B B9 01 C3 9E FF
1508433363.613649 can_line   can1  080   [8]  48 FF 4B 9B 01 C3 A0 FF
1508433363.623365 can_line   can1  080   [8]  48 E1 4B 8C 01 C3 A1 FF
1508433363.633515 can_line   can1  080   [8]  48 BD 4B 7D 01 C3 A2 FF
1508433363.645549 can_line   can1  080   [8]  48 9F 4B 6E 01 C3 A3 FF
1508433363.653638 can_line   can1  080   [8]  48 63 4B 4E 01 C3 A5 FF
1508433363.663367 can_line   can1  080   [8]  48 41 4B 3C 01 C3 A6 FF
1508433363.673343 can_line   can1  080   [8]  48 23 4B 2D 01 C3 A7 FF
1508433363.683282 can_line   can1  080   [8]  47 FF 4B 1C 01 C3 A8 FF
1508433363.693601 can_line   can1  080   [8]  47 BF 4A FE 01 C3 AA FF
1508433363.703334 can_line   can1  080   [8]  47 A1 4A EC 01 C3 AB FF
1508433363.713447 can_line   can1  080   [8]  47 7D 4A DB 01 C3 AC FF
1508433363.723505 can_line   can1  080   [8]  47 5B 4A CC 01 C3 AD FF
1508433363.733912 can_line   can1  080   [8]  47 19 4A A9 01 C3 AF FF
1508433363.743376 can_line   can1  080   [8]  46 F7 4A 97 01 C3 B0 FF
1508433363.753332 can_line   can1  080   [8]  46 D3 4A 86 01 C3 B1 FF
1508433363.763426 can_line   can1  080   [8]  46 B1 4A 74 01 C3 B2 FF
1508433363.773430 can_line   can1  080   [8]  46 6F 4A 54 01 C3 B4 FF
1508433363.783798 can_line   can1  080   [8]  46 4D 4A 45 01 C3 B5 FF
1508433363.793462 can_line   can1  080   [8]  46 2F 4A 36 01 C3 B6 FF
1508433363.803401 can_line   can1  080   [8]  46 11 4A 24 01 C3 B7 FF
1508433363.813570 can_line   can1  080   [8]  45 D5 4A 06 01 C3 B9 FF
1508433363.823359 can_line   can1  080   [8]  45 B7 49 F7 01 C3 BA FF
1508433363.833900 can_line   can1  080   [8]  45 99 49 EB 01 C3 BB FF
1508433363.843306 can_line   can1  080   [8]  45 7F 49 DE 01 C3 BC FF
1508433363.853501 can_line   can1  080   [8]  45 49 49 C3 01 C3 BE FF
1508433363.863345 can_line   can1  080   [8]  45 35 49 B9 01 C3 BF FF
1508433363.873749 can_line   can1  080   [8]  45 1B 49 AC 01 C3 C0 FF
1508433363.883656 can_line   can1  080   [8]  45 07 49 A2 01 C3 C1 FF
1508433363.894012 can_line   can1  080   [8]  44 DF 49 8E 01 C3 C3 FF
1508433363.903338 can_line   can1  080   [8]  44 CB 49 84 01 C3 C4 FF
1508433363.913850 can_line   can1  080   [8]  44 B7 49 7A 01 C3 C5 FF
1508433363.923370 can_line   can1  080   [8]  44 A3 49 70 01 C3 C6 FF
1508433363.934330 can_line   can1  080   [8]  44 81 49 5F 01 C3 C8 FF
1508433363.943378 can_line   can1  080   [8]  44 6D 49 55 01 C3 C9 FF
1508433363.953769 can_line   can1  080   [8]  44 5D 49 4D 01 C3 CA FF
1508433363.963412 can_line   can1  080   [8]  44 49 49 43 01 C3 CB FF
1508433363.973913 can_line   can1  080   [8]  44 21 49 2F 01 C3 CD FF
1508433363.983419 can_line   can1  080   [8]  44 13 49 28 01 C3 CE FF
1508433363.993617 can_line   can1  080   [8]  43 FF 49 1E 01 C3 CF FF
1508433364.003391 can_line   can1  080   [8]  43 EB 49 16 01 C3 D0 FF
1508433364.013751 can_line   can1  080   [8]  43 C3 49 00 01 C3 D2 FF
1508433364.023519 can_line   can1  080   [8]  43 B3 48 F6 01 C3 D3 FF
1508433364.033762 can_line   can1  080   [8]  43 9F 48 EC 01 C3 D4 FF
1508433364.043503 can_line   can1  080   [8]  43 87 48 E2 01 C3 D5 FF
1508433364.053834 can_line   can1  080   [8]  43 5F 48 CE 01 C3 D7 FF
1508433364.063319 can_line   can1  080   [8]  43 4B 48 C1 01 C3 D8 FF
1508433364.073640 can_line   can1  080   [8]  43 31 48 B7 01 C3 D9 FF
1508433364.083322 can_line   can1  080   [8]  43 1D 48 AD 01 C3 DA FF
1508433364.093669 can_line   can1  080   [8]  42 F1 48 99 01 C3 DC FF
1508433364.103338 can_line   can1  080   [8]  42 DD 48 8D 01 C3 DD FF
1508433364.113427 can_line   can1  080   [8]  42 C9 48 80 01 C3 DE FF
1508433364.123478 can_line   can1  080   [8]  42 AF 48 76 01 C3 DF FF
1508433364.133712 can_line   can1  080   [8]  42 87 48 62 01 C3 E1 FF
1508433364.143413 can_line   can1  080   [8]  42 6F 48 56 01 C3 E2 FF
1508433364.153336 can_line   can1  080   [8]  42 5B 48 4C 01 C3 E3 FF
1508433364.163353 can_line   can1  080   [8]  42 41 48 3F 01 C3 E4 FF
1508433364.173660 can_line   can1  080   [8]  42 15 48 29 01 C3 E6 FF
1508433364.183431 can_line   can1  080   [8]  42 01 48 1F 01 C3 E7 FF
1508433364.193420 can_line   can1  080   [8]  41 ED 48 12 01 C3 E8 FF
1508433364.203437 can_line   can1  080   [8]  41 D3 48 08 01 C3 E9 FF
1508433364.213744 can_line   can1  080   [8]  41 A7 47 F2 01 C3 EB FF
1508433364.223391 can_line   can1  080   [8]  41 93 47 E8 01 C3 EC FF
1508433364.233324 can_line   can1  080   [8]  41 79 47 DB 01 C3 ED FF
1508433364.243326 can_line   can1  080   [8]  41 65 47 D1 01 C3 EE FF
1508433364.253634 can_line   can1  080   [8]  41 39 47 BB 01 C3 F0 FF
1508433364.263948 can_line   can1  080   [8]  41 25 47 B1 01 C3 F1 FF
1508433364.273417 can_line   can1  080   [8]  41 11 47 A7 01 C3 F2 FF
1508433364.283422 can_line   can1  080   [8]  40 FD 47 9D 01 C3 F3 FF
1508433364.293877 can_line   can1  080   [8]  40 CF 47 86 01 C3 F5 FF
1508433364.303358 can_line   can1  080   [8]  40 BB 47 7C 01 C3 F6 FF
1508433364.313323 can_line   can1  080   [8]  40 AD 47 75 01 C3 F7 FF
1508433364.323401 can_line   can1  080   [8]  40 99 47 6B 01 C3 F8 FF
1508433364.333698 can_line   can1  080   [8]  40 75 47 59 01 C3 FA FF
1508433364.343406 can_line   can1  080   [8]  40 61 47 4F 01 C3 FB FF
1508433364.353410 can_line   can1  080   [8]  40 4D 47 48 01 C3 FC FF
1508433364.363418 can_line   can1  080   [8]  40 3F 47 3E 01 C3 FD FF
1508433364.373935 can_line   can1  080   [8]  40 21 47 2F 01 C3 FF FF
1508433364.383363 can_line   can1  080   [8]  40 11 47 27 01 C3 00 FF
1508433364.393378 can_line   can1  080   [8]  40 03 47 20 01 C3 01 FF
1508433364.403367 can_line   can1  080   [8]  3F EF 47 18 01 C3 02 FF
1508433364.413773 can_line   can1  080   [8]  3F D1 47 09 01 C3 04 FF
1508433364.423340 can_line   can1  080   [8]  3F C7 47 02 01 C3 05 FF
1508433364.433486 can_line   can1  080   [8]  3F B7 46 FD 01 C3 06 FF
1508433364.443452 can_line   can1  080   [8]  3F A9 46 F5 01 C3 07 FF
1508433364.453510 can_line   can1  080   [8]  3F 8F 46 E6 01 C3 09 FF
1508433364.463358 can_line   can1  080   [8]  3F 81 46 DF 01 C3 0A FF
1508433364.473319 can_line   can1  080   [8]  3F 71 46 D7 01 C3 0B FF
1508433364.483431 can_line   can1  080   [8]  3F 63 46 D0 01 C3 0C FF
1508433364.493424 can_line   can1  080   [8]  3F 45 46 C3 01 C3 0E FF
1508433364.503595 can_line   can1  080   [8]  3F 3B 46 BC 01 C3 0F FF
1508433364.513433 can_line   can1  080   [8]  3F 27 46 B2 01 C3 10 FF
1508433364.523482 can_line   can1  080   [8]  3F 17 46 AA 01 C3 11 FF
1508433364.533500 can_line   can1  080   [8]  3E F5 46 99 01 C3 13 FF
1508433364.543282 can_line   can1  080   [8]  3E E5 46 91 01 C3 14 FF
1508433364.553251 can_line   can1  080   [8]  3E D7 46 8A 01 C3 15 FF
1508433364.563358 can_line   can1  080   [8]  3E C3 46 80 01 C3 16 FF
1508433364.573461 can_line   can1  080   [8]  3E 9F 46 6E 01 C3 18 FF
1508433364.583340 can_line   can1  080   [8]  3E 8B 46 64 01 C3 19 FF
1508433364.593415 can_line   can1  080   [8]  3E 77 46 5A 01 C3 1A FF
1508433364.603471 can_line   can1  080   [8]  3E 63 46 50 01 C3 1B FF
1508433364.613469 can_line   can1  080   [8]  3E 3B 46 3C 01 C3 1D FF
1508433364.623348 can_line   can1  080   [8]  3E 23 46 30 01 C3 1E FF
1508433364.633369 can_line   can1  080   [8]  3E 0F 46 26 01 C3 1F FF
1508433364.643407 can_line   can1  080   [8]  3D F5 46 19 01 C3 20 FF
1508433364.653476 can_line   can1  080   [8]  3D C3 46 03 01 C3 22 FF
1508433364.663238 can_line   can1  080   [8]  3D AF 45 F6 01 C3 23 FF
1508433364.673358 can_line   can1  080   [8]  3D 97 45 EA 01 C3 24 FF
1508433364.683426 can_line   can1  080   [8]  3D 7D 45 DD 01 C3 25 FF
1508433364.693488 can_line   can1  080   [8]  3D 4B 45 C4 01 C3 27 FF
1508433364.703352 can_line   can1  080   [8]  3D 33 45 B8 01 C3 28 FF
1508433364.713232 can_line   can1  080   [8]  3D 19 45 AB 01 C3 29 FF
1508433364.723365 can_line   can1  080   [8]  3D 01 45 9F 01 C3 2A FF
1508433364.733454 can_line   can1  080   [8]  3C C9 45 83 01 C3 2C FF
1508433364.743860 can_line   can1  080   [8]  3C B1 45 77 01 C3 2D FF
1508433364.753361 can_line   can1  080   [8]  3C 97 45 68 01 C3 2E FF
1508433364.763365 can_line   can1  080   [8]  3C 79 45 5B 01 C3 2F FF
1508433364.773487 can_line   can1  080   [8]  3C 47 45 40 01 C3 31 FF
1508433364.783354 can_line   can1  080   [8]  3C 29 45 33 01 C3 32 FF
1508433364.793521 can_line   can1  080   [8]  3C 11 45 27 01 C3 33 FF
1508433364.803350 can_line   can1  080   [8]  3B F7 45 18 01 C3 34 FF
1508433364.813394 can_line   can1  080   [8]  3B C5 44 FF 01 C3 36 FF
1508433364.823299 can_line   can1  080   [8]  3B A7 44 F2 01 C3 37 FF
1508433364.833386 can_line   can1  080   [8]  3B 8F 44 E6 01 C3 38 FF
1508433364.843389 can_line   can1  080   [8]  3B 75 44 D9 01 C3 39 FF
1508433364.853387 can_line   can1  080   [8]  3B 43 44 C0 01 C3 3B FF
1508433364.863338 can_line   can1  080   [8]  3B 2F 44 B4 01 C3 3C FF
1508433364.873273 can_line   can1  080   [8]  3B 17 44 AA 01 C3 3D FF
1508433364.883298 can_line   can1  080   [8]  3B 03 44 A0 01 C3 3E FF
1508433364.893403 can_line   can1  080   [8]  3A D5 44 89 01 C3 40 FF
1508433364.903483 can_line   can1  080   [8]  3A BD 44 7F 01 C3 41 FF
1508433364.913383 can_line   can1  080   [8]  3A A9 44 73 01 C3 42 FF
1508433364.923422 can_line   can1  080   [8]  3A 95 44 69 01 C3 43 FF
1508433364.933270 can_line   can1  080   [8]  3A 67 44 52 01 C3 45 FF
1508433364.943341 can_line   can1  080   [8]  3A 53 44 48 01 C3 46 FF
1508433364.953302 can_line   can1  080   [8]  3A 3F 44 3E 01 C3 47 FF
1508433364.963288 can_line   can1  080   [8]  3A 27 44 32 01 C3 48 FF
1508433364.973390 can_line   can1  080   [8]  39 F9 44 1B 01 C3 4A FF
1508433364.983748 can_line   can1  080   [8]  39 E1 44 0F 01 C3 4B FF
1508433364.993398 can_line   can1  080   [8]  39 CD 44 02 01 C3 4C FF
1508433365.003452 can_line   can1  080   [8]  39 B3 43 F8 01 C3 4D FF
1508433365.013298 can_line   can1  080   [8]  39 87 43 E2 01 C3 4F FF
1508433365.023338 can_line   can1  080   [8]  39 73 43 D8 01 C3 50 FF
1508433365.033932 can_line   can1  080   [8]  39 5F 43 CB 01 C3 51 FF
1508433365.043378 can_line   can1  080   [8]  39 45 43 C1 01 C3 52 FF
1508433365.053355 can_line   can1  080   [8]  39 19 43 AB 01 C3 54 FF
1508433365.063454 can_line   can1  080   [8]  38 FF 43 9E 01 C3 55 FF
1508433365.073411 can_line   can1  080   [8]  38 E7 43 92 01 C3 56 FF
1508433365.083409 can_line   can1  080   [8]  38 D3 43 88 01 C3 57 FF
1508433365.093307 can_line   can1  080   [8]  38 A5 43 6F 01 C3 59 FF
1508433365.103310 can_line   can1  080   [8]  38 8D 43 65 01 C3 5A FF
1508433365.113306 can_line   can1  080   [8]  38 79 43 5B 01 C3 5B FF
1508433365.123323 can_line   can1  080   [8]  38 65 43 51 01 C3 5C FF
1508433365.133375 can_line   can1  080   [8]  38 37 43 3A 01 C3 5E FF
1508433365.146701 can_line   can1  080   [8]  38 23 43 30 01 C3 5F FF
1508433365.153513 can_line   can1  080   [8]  38 0F 43 26 01 C3 60 FF
1508433365.163454 can_line   can1  080   [8]  37 FB 43 1C 01 C3 61 FF
1508433365.173332 can_line   can1  080   [8]  37 CF 43 08 01 C3 63 FF
1508433365.183286 can_line   can1  080   [8]  37 BB 42 FC 01 C3 64 FF
1508433365.193369 can_line   can1  080   [8]  37 A7 42 F2 01 C3 65 FF
1508433365.203335 can_line   can1  080   [8]  37 93 42 E8 01 C3 66 FF
1508433365.213416 can_line   can1  080   [8]  37 6B 42 D4 01 C3 68 FF
1508433365.223970 can_line   can1  080   [8]  37 51 42 CA 01 C3 69 FF
1508433365.233380 can_line   can1  080   [8]  37 3D 42 BD 01 C3 6A FF
1508433365.243333 can_line   can1  080   [8]  37 29 42 B3 01 C3 6B FF
1508433365.253305 can_line   can1  080   [8]  37 01 42 9F 01 C3 6D FF
1508433365.263318 can_line   can1  080   [8]  36 ED 42 95 01 C3 6E FF
1508433365.273388 can_line   can1  080   [8]  36 D5 42 89 01 C3 6F FF
1508433365.283326 can_line   can1  080   [8]  36 C1 42 7F 01 C3 70 FF
1508433365.293371 can_line   can1  080   [8]  36 99 42 68 01 C3 72 FF
1508433365.303706 can_line   can1  080   [8]  36 7F 42 5E 01 C3 73 FF
1508433365.313372 can_line   can1  080   [8]  36 6B 42 54 01 C3 74 FF
1508433365.323537 can_line   can1  080   [8]  36 57 42 4A 01 C3 75 FF
1508433365.333303 can_line   can1  080   [8]  36 25 42 31 01 C3 77 FF
1508433365.343300 can_line   can1  080   [8]  36 0D 42 25 01 C3 78 FF
1508433365.353317 can_line   can1  080   [8]  35 F3 42 18 01 C3 79 FF
1508433365.363348 can_line   can1  080   [8]  35 DB 42 0C 01 C3 7A FF
1508433365.373387 can_line   can1  080   [8]  35 A9 41 F3 01 C3 7C FF
1508433365.383879 can_line   can1  080   [8]  35 8F 41 E6 01 C3 7D FF
1508433365.393344 can_line   can1  080   [8]  35 77 41 D7 01 C3 7E FF
1508433365.403643 can_line   can1  080   [8]  35 5D 41 CB 01 C3 7F FF
1508433365.413297 can_line   can1  080   [8]  35 27 41 AF 01 C3 81 FF
1508433365.423716 can_line   can1  080   [8]  35 0D 41 A3 01 C3 82 FF
1508433365.433300 can_line   can1  080   [8]  34 EF 41 96 01 C3 83 FF
1508433365.443383 can_line   can1  080   [8]  34 D7 41 8A 01 C3 84 FF
1508433365.453457 can_line   can1  080   [8]  34 A5 41 6E 01 C3 86 FF
1508433365.465649 can_line   can1  080   [8]  34 8B 41 62 01 C3 87 FF
1508433365.473455 can_line   can1  080   [8]  34 73 41 55 01 C3 88 FF
1508433365.483477 can_line   can1  080   [8]  34 59 41 49 01 C3 89 FF
1508433365.493291 can_line   can1  080   [8]  34 2D 41 32 01 C3 8B FF
1508433365.503303 can_line   can1  080   [8]  34 13 41 28 01 C3 8C FF
1508433365.513624 can_line   can1  080   [8]  33 FB 41 1C 01 C3 8D FF
1508433365.523448 can_line   can1  080   [8]  33 E7 41 12 01 C3 8E FF
1508433365.533630 can_line   can1  080   [8]  33 B9 40 FB 01 C3 90 FF
1508433365.543621 can_line   can1  080   [8]  33 A5 40 F1 01 C3 91 FF
1508433365.553535 can_line   can1  080   [8]  33 91 40 E5 01 C3 92 FF
1508433365.563603 can_line   can1  080   [8]  33 79 40 DB 01 C3 93 FF
1508433365.573341 can_line   can1  080   [8]  33 51 40 C7 01 C3 95 FF
1508433365.583323 can_line   can1  080   [8]  33 3D 40 BD 01 C3 96 FF
1508433365.593369 can_line   can1  080   [8]  33 29 40 B3 01 C3 97 FF
1508433365.603339 can_line   can1  080   [8]  33 15 40 A9 01 C3 98 FF
1508433365.613595 can_line   can1  080   [8]  32 ED 40 97 01 C3 9A FF
1508433365.624015 can_line   can1  080   [8]  32 DD 40 8D 01 C3 9B FF
1508433365.633572 can_line   can1  080   [8]  32 C9 40 83 01 C3 9C FF
1508433365.643582 can_line   can1  080   [8]  32 B5 40 79 01 C3 9D FF
1508433365.653302 can_line   can1  080   [8]  32 8D 40 65 01 C3 9F FF
1508433365.663387 can_line   can1  080   [8]  32 7F 40 5E 01 C3 A0 FF
1508433365.673291 can_line   can1  080   [8]  32 6B 40 54 01 C3 A1 FF
1508433365.683345 can_line   can1  080   [8]  32 57 40 4A 01 C3 A2 FF
1508433365.693567 can_line   can1  080   [8]  32 33 40 38 01 C3 A4 FF
1508433365.706090 can_line   can1  080   [8]  32 1F 40 2E 01 C3 A5 FF
1508433365.713742 can_line   can1  080   [8]  32 11 40 27 01 C3 A6 FF
1508433365.723656 can_line   can1  080   [8]  31 FD 40 1D 01 C3 A7 FF
1508433365.733358 can_line   can1  080   [8]  31 D9 40 0E 01 C3 A9 FF
1508433365.743391 can_line   can1  080   [8]  31 CB 40 04 01 C3 AA FF
1508433365.753740 can_line   can1  080   [8]  31 BB 3F FC 01 C3 AB FF
1508433365.763340 can_line   can1  080   [8]  31 AD 3F F5 01 C3 AC FF
1508433365.773783 can_line   can1  080   [8]  31 8F 3F E6 01 C3 AE FF
1508433365.784258 can_line   can1  080   [8]  31 7B 3F DC 01 C3 AF FF
1508433365.793748 can_line   can1  080   [8]  31 6B 3F D4 01 C3 B0 FF
1508433365.803767 can_line   can1  080   [8]  31 57 3F CD 01 C3 B1 FF
1508433365.813647 can_line   can1  080   [8]  31 35 3F B9 01 C3 B3 FF
1508433365.823565 can_line   can1  080   [8]  31 25 3F B1 01 C3 B4 FF
1508433365.833571 can_line   can1  080   [8]  31 11 3F AA 01 C3 B5 FF
1508433365.843305 can_line   can1  080   [8]  31 03 3F A0 01 C3 B6 FF
1508433365.853540 can_line   can1  080   [8]  30 DF 3F 8E 01 C3 B8 FF
1508433365.863741 can_line   can1  080   [8]  30 CB 3F 84 01 C3 B9 FF
1508433365.873539 can_line   can1  080   [8]  30 B7 3F 7A 01 C3 BA FF
1508433365.883545 can_line   can1  080   [8]  30 A9 3F 73 01 C3 BB FF
1508433365.893312 can_line   can1  080   [8]  30 81 3F 5F 01 C3 BD FF
1508433365.903757 can_line   can1  080   [8]  30 71 3F 57 01 C3 BE FF
1508433365.913364 can_line   can1  080   [8]  30 63 3F 50 01 C3 BF FF
1508433365.923413 can_line   can1  080   [8]  30 4F 3F 46 01 C3 C0 FF
1508433365.933547 can_line   can1  080   [8]  30 31 3F 37 01 C3 C2 FF
1508433365.945038 can_line   can1  080   [8]  30 1D 3F 2D 01 C3 C3 FF
1508433365.953509 can_line   can1  080   [8]  30 0D 3F 25 01 C3 C4 FF
1508433365.963587 can_line   can1  080   [8]  2F FF 3F 20 01 C3 C5 FF
1508433365.973378 can_line   can1  080   [8]  2F E1 3F 0F 01 C3 C7 FF
1508433365.983372 can_line   can1  080   [8]  2F CD 3F 07 01 C3 C8 FF
1508433365.994612 can_line   can1  080   [8]  2F BD 3E FD 01 C3 C9 FF
1508433366.003324 can_line   can1  080   [8]  2F AF 3E F6 01 C3 CA FF
1508433366.013513 can_line   can1  080   [8]  2F 91 3E E7 01 C3 CC FF
1508433366.023814 can_line   can1  080   [8]  2F 81 3E DF 01 C3 CD FF
1508433366.033479 can_line   can1  080   [8]  2F 6D 3E D5 01 C3 CE FF
1508433366.043528 can_line   can1  080   [8]  2F 5F 3E CE 01 C3 CF FF
1508433366.053290 can_line   can1  080   [8]  2F 37 3E BC 01 C3 D1 FF
1508433366.063432 can_line   can1  080   [8]  2F 27 3E B2 01 C3 D2 FF
1508433366.073272 can_line   can1  080   [8]  2F 19 3E AB 01 C3 D3 FF
1508433366.083285 can_line   can1  080   [8]  2F 05 3E A3 01 C3 D4 FF
1508433366.093529 can_line   can1  080   [8]  2E E1 3E 8F 01 C3 D6 FF
1508433366.103830 can_line   can1  080   [8]  2E D3 3E 88 01 C3 D7 FF
1508433366.113508 can_line   can1  080   [8]  2E BF 3E 7E 01 C3 D8 FF
1508433366.123539 can_line   can1  080   [8]  2E AB 3E 74 01 C3 D9 FF
1508433366.133302 can_line   can1  080   [8]  2E 87 3E 62 01 C3 DB FF
1508433366.143585 can_line   can1  080   [8]  2E 73 3E 58 01 C3 DC FF
1508433366.153308 can_line   can1  080   [8]  2E 65 3E 51 01 C3 DD FF
1508433366.163301 can_line   can1  080   [8]  2E 51 3E 47 01 C3 DE FF
1508433366.173506 can_line   can1  080   [8]  2E 2D 3E 35 01 C3 E0 FF
1508433366.184796 can_line   can1  080   [8]  2E 19 3E 2B 01 C3 E1 FF
1508433366.193511 can_line   can1  080   [8]  2E 0B 3E 24 01 C3 E2 FF
1508433366.203545 can_line   can1  080   [8]  2D F7 3E 1A 01 C3 E3 FF
1508433366.213295 can_line   can1  080   [8]  2D D9 3E 0B 01 C3 E5 FF
1508433366.223627 can_line   can1  080   [8]  2D C5 3E 01 01 C3 E6 FF
1508433366.234984 can_line   can1  080   [8]  2D B5 3D F9 01 C3 E7 FF
1508433366.243233 can_line   can1  080   [8]  2D A1 3D EF 01 C3 E8 FF
1508433366.253392 can_line   can1  080   [8]  2D 83 3D E0 01 C3 EA FF
1508433366.263731 can_line   can1  080   [8]  2D 75 3D D9 01 C3 EB FF
1508433366.273263 can_line   can1  080   [8]  2D 65 3D D1 01 C3 EC FF
1508433366.283547 can_line   can1  080   [8]  2D 57 3D CA 01 C3 ED FF
1508433366.293240 can_line   can1  080   [8]  2D 39 3D BB 01 C3 EF FF
1508433366.303704 can_line   can1  080   [8]  2D 29 3D B3 01 C3 F0 FF
1508433366.313220 can_line   can1  080   [8]  2D 1B 3D AC 01 C3 F1 FF
1508433366.323310 can_line   can1  080   [8]  2D 11 3D A7 01 C3 F2 FF
1508433366.333404 can_line   can1  080   [8]  2C F3 3D 9A 01 C3 F4 FF
1508433366.343273 can_line   can1  080   [8]  2C E3 3D 93 01 C3 F5 FF
1508433366.353221 can_line   can1  080   [8]  2C D9 3D 8B 01 C3 F6 FF
1508433366.363260 can_line   can1  080   [8]  2C CB 3D 84 01 C3 F7 FF
1508433366.373234 can_line   can1  080   [8]  2C AD 3D 77 01 C3 F9 FF
1508433366.383476 can_line   can1  080   [8]  2C A3 3D 70 01 C3 FA FF
1508433366.393228 can_line   can1  080   [8]  2C 93 3D 68 01 C3 FB FF
1508433366.403230 can_line   can1  080   [8]  2C 85 3D 63 01 C3 FC FF
1508433366.413234 can_line   can1  080   [8]  2C 67 3D 54 01 C3 FE FF
1508433366.423436 can_line   can1  080   [8]  2C 5D 3D 4D 01 C3 FF FF
1508433366.433363 can_line   can1  080   [8]  2C 49 3D 45 01 C3 00 FF
1508433366.443233 can_line   can1  080   [8]  2C 39 3D 3B 01 C3 01 FF
1508433366.453242 can_line   can1  080   [8]  2C 17 3D 2A 01 C3 03 FF
1508433366.463616 can_line   can1  080   [8]  2C 03 3D 20 01 C3 04 FF
1508433366.473699 can_line   can1  080   [8]  2B EF 3D 16 01 C3 05 FF
1508433366.483205 can_line   can1  080   [8]  2B DB 3D 0C 01 C3 06 FF
1508433366.493338 can_line   can1  080   [8]  2B B3 3C F8 01 C3 08 FF
1508433366.503468 can_line   can1  080   [8]  2B 99 3C EE 01 C3 09 FF
1508433366.513342 can_line   can1  080   [8]  2B 85 3C E1 01 C3 0A FF
1508433366.523334 can_line   can1  080   [8]  2B 71 3C D5 01 C3 0B FF
1508433366.533207 can_line   can1  080   [8]  2B 45 3C C1 01 C3 0D FF
1508433366.543316 can_line   can1  080   [8]  2B 2B 3C B4 01 C3 0E FF
1508433366.553211 can_line   can1  080   [8]  2B 13 3C A8 01 C3 0F FF
1508433366.563223 can_line   can1  080   [8]  2A FF 3C 9B 01 C3 10 FF
1508433366.573326 can_line   can1  080   [8]  2A CD 3C 85 01 C3 12 FF
1508433366.583444 can_line   can1  080   [8]  2A B9 3C 78 01 C3 13 FF
1508433366.593321 can_line   can1  080   [8]  2A 9F 3C 6C 01 C3 14 FF
1508433366.603352 can_line   can1  080   [8]  2A 87 3C 62 01 C3 15 FF
1508433366.613232 can_line   can1  080   [8]  2A 59 3C 4B 01 C3 17 FF
1508433366.623349 can_line   can1  080   [8]  2A 41 3C 3F 01 C3 18 FF
1508433366.633210 can_line   can1  080   [8]  2A 27 3C 32 01 C3 19 FF
1508433366.643202 can_line   can1  080   [8]  2A 13 3C 26 01 C3 1A FF
1508433366.653402 can_line   can1  080   [8]  29 E7 3C 12 01 C3 1C FF
1508433366.663488 can_line   can1  080   [8]  29 D3 3C 05 01 C3 1D FF
1508433366.673358 can_line   can1  080   [8]  29 B9 3B FB 01 C3 1E FF
1508433366.683337 can_line   can1  080   [8]  29 A5 3B F1 01 C3 1F FF
1508433366.693188 can_line   can1  080   [8]  29 7D 3B DD 01 C3 21 FF
1508433366.703293 can_line   can1  080   [8]  29 69 3B D3 01 C3 22 FF
1508433366.713578 can_line   can1  080   [8]  29 55 3B C9 01 C3 23 FF
1508433366.723318 can_line   can1  080   [8]  29 41 3B C2 01 C3 24 FF
1508433366.733344 can_line   can1  080   [8]  29 1F 3B AE 01 C3 26 FF
1508433366.743700 can_line   can1  080   [8]  29 0B 3B A4 01 C3 27 FF
1508433366.753343 can_line   can1  080   [8]  28 F7 3B 9A 01 C3 28 FF
1508433366.763337 can_line   can1  080   [8]  28 E3 3B 90 01 C3 29 FF
1508433366.773144 can_line   can1  080   [8]  28 BF 3B 7E 01 C3 2B FF
1508433366.783302 can_line   can1  080   [8]  28 AB 3B 74 01 C3 2C FF
1508433366.793159 can_line   can1  080   [8]  28 97 3B 6A 01 C3 2D FF
1508433366.803184 can_line   can1  080   [8]  28 89 3B 63 01 C3 2E FF
1508433366.813353 can_line   can1  080   [8]  28 65 3B 51 01 C3 30 FF
1508433366.823638 can_line   can1  080   [8]  28 51 3B 47 01 C3 31 FF
1508433366.833392 can_line   can1  080   [8]  28 43 3B 40 01 C3 32 FF
1508433366.843368 can_line   can1  080   [8]  28 2F 3B 38 01 C3 33 FF
1508433366.853249 can_line   can1  080   [8]  28 0B 3B 24 01 C3 35 FF
1508433366.863210 can_line   can1  080   [8]  27 F7 3B 1A 01 C3 36 FF
1508433366.873206 can_line   can1  080   [8]  27 E3 3B 13 01 C3 37 FF
1508433366.883228 can_line   can1  080   [8]  27 D5 3B 09 01 C3 38 FF
1508433366.893369 can_line   can1  080   [8]  27 B1 3A F7 01 C3 3A FF
1508433366.903263 can_line   can1  080   [8]  27 9D 3A ED 01 C3 3B FF
1508433366.913314 can_line   can1  080   [8]  27 8F 3A E6 01 C3 3C FF
1508433366.923327 can_line   can1  080   [8]  27 7B 3A DC 01 C3 3D FF
1508433366.933251 can_line   can1  080   [8]  27 53 3A C8 01 C3 3F FF
1508433366.943243 can_line   can1  080   [8]  27 3F 3A BE 01 C3 40 FF
1508433366.953761 can_line   can1  080   [8]  27 2F 3A B6 01 C3 41 FF
1508433366.963206 can_line   can1  080   [8]  27 1B 3A AC 01 C3 42 FF
1508433366.973331 can_line   can1  080   [8]  26 F3 3A 98 01 C3 44 FF
1508433366.983363 can_line   can1  080   [8]  26 E5 3A 91 01 C3 45 FF
1508433366.993359 can_line   can1  080   [8]  26 D1 3A 89 01 C3 46 FF
1508433367.003546 can_line   can1  080   [8]  26 C1 3A 7F 01 C3 47 FF
1508433367.013266 can_line   can1  080   [8]  26 A3 3A 70 01 C3 49 FF
1508433367.023295 can_line   can1  080   [8]  26 99 3A 6B 01 C3 4A FF
1508433367.033565 can_line   can1  080   [8]  26 8B 3A 64 01 C3 4B FF
1508433367.043254 can_line   can1  080   [8]  26 7B 3A 5F 01 C3 4C FF
1508433367.053360 can_line   can1  080   [8]  26 67 3A 55 01 C3 4E FF
1508433367.063319 can_line   can1  080   [8]  26 5D 3A 50 01 C3 4F FF
1508433367.073380 can_line   can1  080   [8]  26 53 3A 4B 01 C3 50 FF
1508433367.083345 can_line   can1  080   [8]  26 4F 3A 48 01 C3 51 FF
1508433367.093220 can_line   can1  080   [8]  26 3F 3A 41 01 C3 53 FF
1508433367.103243 can_line   can1  080   [8]  26 3B 3A 3E 01 C3 54 FF
1508433367.113642 can_line   can1  080   [8]  26 3B 3A 3E 01 C3 55 FF
1508433367.123288 can_line   can1  080   [8]  26 35 3A 3C 01 C3 56 FF
1508433367.133348 can_line   can1  080   [8]  26 31 3A 37 01 C3 58 FF
1508433367.143284 can_line   can1  080   [8]  26 2B 3A 34 01 C3 59 FF
1508433367.153347 can_line   can1  080   [8]  26 27 3A 34 01 C3 5A FF
1508433367.163383 can_line   can1  080   [8]  26 21 3A 32 01 C3 5B FF
1508433367.173405 can_line   can1  080   [8]  26 21 3A 32 01 C3 5D FF
1508433367.183248 can_line   can1  080   [8]  26 21 3A 32 01 C3 5E FF
1508433367.193879 can_line   can1  080   [8]  26 1D 3A 2F 01 C3 5F FF
1508433367.203297 can_line   can1  080   [8]  26 1D 3A 2F 01 C3 60 FF
1508433367.213532 can_line   can1  080   [8]  26 17 3A 2D 01 C3 62 FF
1508433367.223228 can_line   can1  080   [8]  26 17 3A 2D 01 C3 63 FF
1508433367.233284 can_line   can1  080   [8]  26 17 3A 2D 01 C3 64 FF
1508433367.243318 can_line   can1  080   [8]  26 13 3A 2A 01 C3 65 FF
1508433367.253189 can_line   can1  080   [8]  26 13 3A 2A 01 C3 67 FF
1508433367.263417 can_line   can1  080   [8]  26 0D 3A 28 01 C3 68 FF
1508433367.273383 can_line   can1  080   [8]  26 0D 3A 28 01 C3 69 FF
1508433367.283270 can_line   can1  080   [8]  26 09 3A 25 01 C3 6A FF
1508433367.293285 can_line   can1  080   [8]  26 09 3A 25 01 C3 6C FF
1508433367.303295 can_line   can1  080   [8]  26 03 3A 23 01 C3 6D FF
1508433367.313361 can_line   can1  080   [8]  25 FF 3A 20 01 C3 6E FF
1508433367.323309 can_line   can1  080   [8]  25 FF 3A 20 01 C3 6F FF
1508433367.333232 can_line   can1  080   [8]  25 F9 3A 1B 01 C3 71 FF
1508433367.343259 can_line   can1  080   [8]  25 F5 3A 1B 01 C3 72 FF
1508433367.353289 can_line   can1  080   [8]  25 EF 3A 19 01 C3 73 FF
1508433367.363232 can_line   can1  080   [8]  25 EF 3A 19 01 C3 74 FF
1508433367.373329 can_line   can1  080   [8]  25 EB 3A 16 01 C3 76 FF
1508433367.383182 can_line   can1  080   [8]  25 EB 3A 14 01 C3 77 FF
1508433367.393253 can_line   can1  080   [8]  25 E5 3A 14 01 C3 78 FF
1508433367.403225 can_line   can1  080   [8]  25 E5 3A 14 01 C3 79 FF
1508433367.413281 can_line   can1  080   [8]  25 E1 3A 11 01 C3 7B FF
1508433367.423244 can_line   can1  080   [8]  25 E1 3A 11 01 C3 7C FF
1508433367.433496 can_line   can1  080   [8]  25 E1 3A 11 01 C3 7D FF
1508433367.443300 can_line   can1  080   [8]  25 DB 3A 0F 01 C3 7E FF
1508433367.453306 can_line   can1  080   [8]  25 DB 3A 0F 01 C3 80 FF
1508433367.463257 can_line   can1  080   [8]  25 DB 3A 0F 01 C3 81 FF
1508433367.473261 can_line   can1  080   [8]  25 DB 3A 0F 01 C3 82 FF
1508433367.483337 can_line   can1  080   [8]  25 DB 3A 0F 01 C3 83 FF
1508433367.493229 can_line   can1  080   [8]  25 DB 3A 0F 01 C3 85 FF
1508433367.503225 can_line   can1  080   [8]  25 DB 3A 0F 01 C3 86 FF
1508433367.513198 can_line   can1  080   [8]  25 DB 3A 0F 01 C3 87 FF
1508433367.523243 can_line   can1  080   [8]  25 DB 3A 0C 01 C3 88 FF
1508433367.533619 can_line   can1  080   [8]  25 D7 3A 0C 01 C3 8A FF
1508433367.543182 can_line   can1  080   [8]  25 D7 3A 0C 01 C3 8B FF
1508433367.553272 can_line   can1  080   [8]  25 D7 3A 0C 01 C3 8C FF
1508433367.563273 can_line   can1  080   [8]  25 D7 3A 0C 01 C3 8D FF
1508433367.573162 can_line   can1  080   [8]  25 D7 3A 0C 01 C3 8F FF
1508433367.583205 can_line   can1  080   [8]  25 D7 3A 0C 01 C3 90 FF
1508433367.593236 can_line   can1  080   [8]  25 D1 3A 0A 01 C3 91 FF
1508433367.603162 can_line   can1  080   [8]  25 D1 3A 0A 01 C3 92 FF
1508433367.613233 can_line   can1  080   [8]  25 D1 3A 0A 01 C3 94 FF
1508433367.623242 can_line   can1  080   [8]  25 D1 3A 0A 01 C3 95 FF
1508433367.633201 can_line   can1  080   [8]  25 D1 3A 0A 01 C3 96 FF
1508433367.643168 can_line   can1  080   [8]  25 D1 3A 0A 01 C3 97 FF
1508433367.653189 can_line   can1  080   [8]  25 CD 3A 07 01 C3 99 FF
1508433367.663205 can_line   can1  080   [8]  25 CD 3A 07 01 C3 9A FF
1508433367.673470 can_line   can1  080   [8]  25 CD 3A 07 01 C3 9B FF
1508433367.683168 can_line   can1  080   [8]  25 CD 3A 07 01 C3 9C FF
1508433367.693224 can_line   can1  080   [8]  25 CD 3A 07 01 C3 9E FF
1508433367.703181 can_line   can1  080   [8]  25 CD 3A 07 01 C3 9F FF
1508433367.713247 can_line   can1  080   [8]  25 CD 3A 07 01 C3 A0 FF
1508433367.723555 can_line   can1  080   [8]  25 CD 3A 07 01 C3 A1 FF
1508433367.733176 can_line   can1  080   [8]  25 CD 3A 07 01 C3 A3 FF
1508433367.743162 can_line   can1  080   [8]  25 CD 3A 07 01 C3 A4 FF
1508433367.753496 can_line   can1  080   [8]  25 C7 3A 05 01 C3 A5 FF
1508433367.763201 can_line   can1  080   [8]  25 C7 3A 05 01 C3 A6 FF
1508433367.773227 can_line   can1  080   [8]  25 C7 3A 05 01 C3 A8 FF
1508433367.783222 can_line   can1  080   [8]  25 C7 3A 05 01 C3 A9 FF
1508433367.793253 can_line   can1  080   [8]  25 C7 3A 05 01 C3 AA FF
1508433367.803236 can_line   can1  080   [8]  25 C7 3A 05 01 C3 AB FF
1508433367.813141 can_line   can1  080   [8]  25 C7 3A 05 01 C3 AD FF
1508433367.823147 can_line   can1  080   [8]  25 C7 3A 05 01 C3 AE FF
1508433367.833461 can_line   can1  080   [8]  25 C7 3A 05 01 C3 AF FF
1508433367.843140 can_line   can1  080   [8]  25 C7 3A 05 01 C3 B0 FF
1508433367.853288 can_line   can1  080   [8]  25 C3 3A 02 01 C3 B2 FF
1508433367.863469 can_line   can1  080   [8]  25 C3 3A 02 01 C3 B3 FF
1508433367.873263 can_line   can1  080   [8]  25 C3 3A 02 01 C3 B4 FF
1508433367.883267 can_line   can1  080   [8]  25 C3 3A 02 01 C3 B5 FF
1508433367.893166 can_line   can1  080   [8]  25 C3 3A 02 01 C3 B7 FF
1508433367.903171 can_line   can1  080   [8]  25 C3 3A 02 01 C3 B8 FF
1508433367.913653 can_line   can1  080   [8]  25 BD 3A 00 01 C3 B9 FF
1508433367.923167 can_line   can1  080   [8]  25 BD 3A 00 01 C3 BA FF
1508433367.933300 can_line   can1  080   [8]  25 BD 3A 00 01 C3 BC FF
1508433367.943163 can_line   can1  080   [8]  25 BD 3A 00 01 C3 BD FF
1508433367.953352 can_line   can1  080   [8]  25 BD 3A 00 01 C3 BE FF
1508433367.963305 can_line   can1  080   [8]  25 BD 3A 00 01 C3 BF FF
1508433367.973116 can_line   can1  080   [8]  25 BD 3A 00 01 C3 C1 FF
1508433367.983147 can_line   can1  080   [8]  25 BD 3A 00 01 C3 C2 FF
1508433367.993485 can_line   can1  080   [8]  25 BD 3A 00 01 C3 C3 FF
1508433368.003172 can_line   can1  080   [8]  25 BD 3A 00 01 C3 C4 FF
1508433368.013457 can_line   can1  080   [8]  25 BD 3A 00 01 C3 C6 FF
1508433368.023126 can_line   can1  080   [8]  25 BD 3A 00 01 C3 C7 FF
1508433368.033480 can_line   can1  080   [8]  25 BD 3A 00 01 C3 C8 FF
1508433368.043684 can_line   can1  080   [8]  25 BD 3A 00 01 C3 C9 FF
1508433368.053124 can_line   can1  080   [8]  25 BD 3A 00 01 C3 CB FF
1508433368.063262 can_line   can1  080   [8]  25 BD 3A 00 01 C3 CC FF
1508433368.073575 can_line   can1  080   [8]  25 BD 3A 00 01 C3 CD FF
1508433368.083146 can_line   can1  080   [8]  25 BD 3A 00 01 C3 CE FF
1508433368.093299 can_line   can1  080   [8]  25 BD 3A 00 01 C3 D0 FF
1508433368.103279 can_line   can1  080   [8]  25 BD 3A 00 01 C3 D1 FF
1508433368.113562 can_line   can1  080   [8]  25 BD 3A 00 01 C3 D2 FF
1508433368.123298 can_line   can1  080   [8]  25 BD 3A 00 01 C3 D3 FF
1508433368.133134 can_line   can1  080   [8]  25 BD 3A 00 01 C3 D5 FF
1508433368.143105 can_line   can1  080   [8]  25 BD 3A 00 01 C3 D6 FF
1508433368.153765 can_line   can1  080   [8]  25 BD 3A 00 01 C3 D7 FF
1508433368.163142 can_line   can1  080   [8]  25 BD 3A 00 01 C3 D8 FF
1508433368.173306 can_line   can1  080   [8]  25 BD 3A 00 01 C3 DA FF
1508433368.183188 can_line   can1  080   [8]  25 BD 3A 00 01 C3 DB FF
1508433368.193739 can_line   can1  080   [8]  25 BD 3A 00 01 C3 DC FF
1508433368.203912 can_line   can1  080   [8]  25 BD 3A 00 01 C3 DD FF
1508433368.213171 can_line   can1  080   [8]  25 BD 3A 00 01 C3 DF FF
1508433368.223242 can_line   can1  080   [8]  25 BD 3A 00 01 C3 E0 FF
1508433368.233638 can_line   can1  080   [8]  25 BD 3A 00 01 C3 E1 FF
1508433368.243184 can_line   can1  080   [8]  25 BD 3A 00 01 C3 E2 FF
1508433368.253316 can_line   can1  080   [8]  25 BD 3A 00 01 C3 E4 FF
1508433368.263195 can_line   can1  080   [8]  25 BD 3A 00 01 C3 E5 FF
1508433368.273627 can_line   can1  080   [8]  25 BD 3A 00 01 C3 E6 FF
1508433368.283383 can_line   can1  080   [8]  25 BD 3A 00 01 C3 E7 FF
1508433368.293189 can_line   can1  080   [8]  25 BD 3A 00 01 C3 E9 FF
1508433368.303170 can_line   can1  080   [8]  25 BD 3A 00 01 C3 EA FF
1508433368.313924 can_line   can1  080   [8]  25 C3 3A 02 01 C3 EB FF
1508433368.323185 can_line   can1  080   [8]  25 C3 3A 02 01 C3 EC FF
1508433368.333291 can_line   can1  080   [8]  25 C3 3A 02 01 C3 EE FF
1508433368.343257 can_line   can1  080   [8]  25 C3 3A 02 01 C3 EF FF
1508433368.353802 can_line   can1  080   [8]  25 C3 3A 02 01 C3 F0 FF
1508433368.363344 can_line   can1  080   [8]  25 C7 3A 05 01 C3 F1 FF
1508433368.373198 can_line   can1  080   [8]  25 C7 3A 07 01 C3 F3 FF
1508433368.383127 can_line   can1  080   [8]  25 CD 3A 07 01 C3 F4 FF
1508433368.393902 can_line   can1  080   [8]  25 CD 3A 0A 01 C3 F5 FF
1508433368.403164 can_line   can1  080   [8]  25 D1 3A 0A 01 C3 F6 FF
1508433368.413351 can_line   can1  080   [8]  25 DB 3A 0F 01 C3 F8 FF
1508433368.423215 can_line   can1  080   [8]  25 E1 3A 11 01 C3 F9 FF
1508433368.433910 can_line   can1  080   [8]  25 E5 3A 16 01 C3 FA FF
1508433368.443615 can_line   can1  080   [8]  25 EF 3A 19 01 C3 FB FF
1508433368.453174 can_line   can1  080   [8]  25 F9 3A 20 01 C3 FD FF
1508433368.463236 can_line   can1  080   [8]  26 03 3A 25 01 C3 FE FF
1508433368.474035 can_line   can1  080   [8]  26 09 3A 28 01 C3 FF FF
1508433368.483264 can_line   can1  080   [8]  26 17 3A 2D 01 C3 00 FF
1508433368.493367 can_line   can1  080   [8]  26 2B 3A 37 01 C3 02 FF
1508433368.503278 can_line   can1  080   [8]  26 35 3A 3E 01 C3 03 FF
1508433368.513519 can_line   can1  080   [8]  26 45 3A 43 01 C3 04 FF
1508433368.523399 can_line   can1  080   [8]  26 53 3A 4B 01 C3 05 FF
1508433368.533212 can_line   can1  080   [8]  26 6D 3A 5A 01 C3 07 FF
1508433368.543201 can_line   can1  080   [8]  26 81 3A 64 01 C3 08 FF
1508433368.553620 can_line   can1  080   [8]  26 8F 3A 6B 01 C3 09 FF
1508433368.563202 can_line   can1  080   [8]  26 9F 3A 73 01 C3 0A FF
1508433368.573298 can_line   can1  080   [8]  26 C7 3A 87 01 C3 0C FF
1508433368.583184 can_line   can1  080   [8]  26 DB 3A 91 01 C3 0D FF
1508433368.593518 can_line   can1  080   [8]  26 EF 3A 9B 01 C3 0E FF
1508433368.603311 can_line   can1  080   [8]  27 03 3A A5 01 C3 0F FF
1508433368.613164 can_line   can1  080   [8]  27 2F 3A BB 01 C3 11 FF
1508433368.623202 can_line   can1  080   [8]  27 49 3A C8 01 C3 12 FF
1508433368.633620 can_line   can1  080   [8]  27 5D 3A D2 01 C3 13 FF
1508433368.643259 can_line   can1  080   [8]  27 75 3A DE 01 C3 14 FF
1508433368.653290 can_line   can1  080   [8]  27 A3 3A F7 01 C3 16 FF
1508433368.663146 can_line   can1  080   [8]  27 BB 3B 04 01 C3 17 FF
1508433368.673482 can_line   can1  080   [8]  27 D5 3B 10 01 C3 18 FF
1508433368.684062 can_line   can1  080   [8]  27 ED 3B 1A 01 C3 19 FF
1508433368.693106 can_line   can1  080   [8]  28 1F 3B 33 01 C3 1B FF
1508433368.703117 can_line   can1  080   [8]  28 33 3B 40 01 C3 1C FF
1508433368.713533 can_line   can1  080   [8]  28 4D 3B 4A 01 C3 1D FF
1508433368.723148 can_line   can1  080   [8]  28 65 3B 56 01 C3 1E FF
1508433368.733353 can_line   can1  080   [8]  28 93 3B 6F 01 C3 20 FF
1508433368.743139 can_line   can1  080   [8]  28 AB 3B 79 01 C3 21 FF
1508433368.753252 can_line   can1  080   [8]  28 BF 3B 83 01 C3 22 FF
1508433368.763221 can_line   can1  080   [8]  28 D3 3B 8D 01 C3 23 FF
1508433368.773157 can_line   can1  080   [8]  28 FB 3B A1 01 C3 25 FF
1508433368.783132 can_line   can1  080   [8]  29 0F 3B A9 01 C3 26 FF
1508433368.793308 can_line   can1  080   [8]  29 1F 3B B3 01 C3 27 FF
1508433368.803194 can_line   can1  080   [8]  29 2D 3B B8 01 C3 28 FF
1508433368.813271 can_line   can1  080   [8]  29 47 3B C7 01 C3 2A FF
1508433368.823202 can_line   can1  080   [8]  29 55 3B CE 01 C3 2B FF
1508433368.833244 can_line   can1  080   [8]  29 5F 3B D3 01 C3 2C FF
1508433368.843279 can_line   can1  080   [8]  29 69 3B D8 01 C3 2D FF
1508433368.853157 can_line   can1  080   [8]  29 7D 3B E2 01 C3 2F FF
1508433368.863163 can_line   can1  080   [8]  29 87 3B E7 01 C3 30 FF
1508433368.873256 can_line   can1  080   [8]  29 91 3B EA 01 C3 31 FF
1508433368.883224 can_line   can1  080   [8]  29 9B 3B F1 01 C3 32 FF
1508433368.893340 can_line   can1  080   [8]  29 AF 3B F9 01 C3 34 FF
1508433368.903216 can_line   can1  080   [8]  29 B9 3C 00 01 C3 35 FF
1508433368.913549 can_line   can1  080   [8]  29 C3 3C 05 01 C3 36 FF
1508433368.923744 can_line   can1  080   [8]  29 D3 3C 0A 01 C3 37 FF
1508433368.933148 can_line   can1  080   [8]  29 EB 3C 17 01 C3 39 FF
1508433368.943106 can_line   can1  080   [8]  29 F5 3C 1E 01 C3 3A FF
1508433368.953146 can_line   can1  080   [8]  2A 09 3C 26 01 C3 3B FF
1508433368.963069 can_line   can1  080   [8]  2A 13 3C 2D 01 C3 3C FF
1508433368.973271 can_line   can1  080   [8]  2A 37 3C 3F 01 C3 3E FF
1508433368.983129 can_line   can1  080   [8]  2A 45 3C 46 01 C3 3F FF
1508433368.993443 can_line   can1  080   [8]  2A 59 3C 50 01 C3 40 FF
1508433369.003275 can_line   can1  080   [8]  2A 6D 3C 5A 01 C3 41 FF
1508433369.013090 can_line   can1  080   [8]  2A 95 3C 6E 01 C3 43 FF
1508433369.023104 can_line   can1  080   [8]  2A A9 3C 7B 01 C3 44 FF
1508433369.033068 can_line   can1  080   [8]  2A C3 3C 85 01 C3 45 FF
1508433369.043419 can_line   can1  080   [8]  2A D7 3C 8F 01 C3 46 FF
1508433369.053368 can_line   can1  080   [8]  2B 03 3C A8 01 C3 48 FF
1508433369.063195 can_line   can1  080   [8]  2B 1D 3C B4 01 C3 49 FF
1508433369.073451 can_line   can1  080   [8]  2B 35 3C C1 01 C3 4A FF
1508433369.083331 can_line   can1  080   [8]  2B 4F 3C CD 01 C3 4B FF
1508433369.093136 can_line   can1  080   [8]  2B 85 3C E9 01 C3 4D FF
1508433369.103112 can_line   can1  080   [8]  2B A3 3C F5 01 C3 4E FF
1508433369.113165 can_line   can1  080   [8]  2B BD 3D 04 01 C3 4F FF
1508433369.123203 can_line   can1  080   [8]  2B DB 3D 11 01 C3 50 FF
1508433369.133308 can_line   can1  080   [8]  2C 11 3D 2C 01 C3 52 FF
1508433369.143144 can_line   can1  080   [8]  2C 2F 3D 3B 01 C3 53 FF
1508433369.153303 can_line   can1  080   [8]  2C 4D 3D 4A 01 C3 54 FF
1508433369.165427 can_line   can1  080   [8]  2C 67 3D 59 01 C3 55 FF
1508433369.173142 can_line   can1  080   [8]  2C A7 3D 77 01 C3 57 FF
1508433369.183162 can_line   can1  080   [8]  2C C5 3D 86 01 C3 58 FF
1508433369.193117 can_line   can1  080   [8]  2C DF 3D 95 01 C3 59 FF
1508433369.203158 can_line   can1  080   [8]  2D 01 3D A4 01 C3 5A FF
1508433369.213270 can_line   can1  080   [8]  2D 3D 3D C2 01 C3 5C FF
1508433369.223159 can_line   can1  080   [8]  2D 5B 3D D1 01 C3 5D FF
1508433369.233268 can_line   can1  080   [8]  2D 79 3D E0 01 C3 5E FF
1508433369.243951 can_line   can1  080   [8]  2D 97 3D EF 01 C3 5F FF
1508433369.253157 can_line   can1  080   [8]  2D D3 3E 0D 01 C3 61 FF
1508433369.263152 can_line   can1  080   [8]  2D F1 3E 1C 01 C3 62 FF
1508433369.273127 can_line   can1  080   [8]  2E 0B 3E 2B 01 C3 63 FF
1508433369.283265 can_line   can1  080   [8]  2E 2D 3E 3A 01 C3 64 FF
1508433369.293273 can_line   can1  080   [8]  2E 65 3E 56 01 C3 66 FF
1508433369.303172 can_line   can1  080   [8]  2E 83 3E 65 01 C3 67 FF
1508433369.313305 can_line   can1  080   [8]  2E 9B 3E 71 01 C3 68 FF
1508433369.323270 can_line   can1  080   [8]  2E B9 3E 80 01 C3 69 FF
1508433369.333065 can_line   can1  080   [8]  2E EB 3E 9C 01 C3 6B FF
1508433369.343191 can_line   can1  080   [8]  2F 09 3E A8 01 C3 6C FF
1508433369.353120 can_line   can1  080   [8]  2F 23 3E B7 01 C3 6D FF
1508433369.363193 can_line   can1  080   [8]  2F 41 3E C4 01 C3 6E FF
1508433369.373313 can_line   can1  080   [8]  2F 77 3E DF 01 C3 70 FF
1508433369.383211 can_line   can1  080   [8]  2F 91 3E EC 01 C3 71 FF
1508433369.393281 can_line   can1  080   [8]  2F A9 3E F8 01 C3 72 FF
1508433369.404081 can_line   can1  080   [8]  2F C3 3F 05 01 C3 73 FF
1508433369.413146 can_line   can1  080   [8]  2F F5 3F 1E 01 C3 75 FF
1508433369.423177 can_line   can1  080   [8]  30 09 3F 2A 01 C3 76 FF
1508433369.433152 can_line   can1  080   [8]  30 21 3F 34 01 C3 77 FF
1508433369.443131 can_line   can1  080   [8]  30 3B 3F 41 01 C3 78 FF
1508433369.453284 can_line   can1  080   [8]  30 63 3F 57 01 C3 7A FF
1508433369.463189 can_line   can1  080   [8]  30 7B 3F 61 01 C3 7B FF
1508433369.473259 can_line   can1  080   [8]  30 8F 3F 6B 01 C3 7C FF
1508433369.483363 can_line   can1  080   [8]  30 A9 3F 78 01 C3 7D FF
1508433369.493130 can_line   can1  080   [8]  30 CB 3F 89 01 C3 7F FF
1508433369.503161 can_line   can1  080   [8]  30 DF 3F 93 01 C3 80 FF
1508433369.513131 can_line   can1  080   [8]  30 F3 3F 9D 01 C3 81 FF
1508433369.523187 can_line   can1  080   [8]  31 07 3F A7 01 C3 82 FF
1508433369.533325 can_line   can1  080   [8]  31 2B 3F B9 01 C3 84 FF
1508433369.543121 can_line   can1  080   [8]  31 3F 3F C3 01 C3 85 FF
1508433369.553318 can_line   can1  080   [8]  31 53 3F CD 01 C3 86 FF
1508433369.563346 can_line   can1  080   [8]  31 67 3F D7 01 C3 87 FF
1508433369.573100 can_line   can1  080   [8]  31 8F 3F ED 01 C3 89 FF
1508433369.583118 can_line   can1  080   [8]  31 A7 3F F7 01 C3 8A FF
1508433369.593167 can_line   can1  080   [8]  31 C1 40 01 01 C3 8B FF
1508433369.603166 can_line   can1  080   [8]  31 D5 40 0E 01 C3 8C FF
1508433369.613352 can_line   can1  080   [8]  32 07 40 27 01 C3 8E FF
1508433369.623220 can_line   can1  080   [8]  32 1B 40 31 01 C3 8F FF
1508433369.633290 can_line   can1  080   [8]  32 33 40 3D 01 C3 90 FF
1508433369.644166 can_line   can1  080   [8]  32 4D 40 4A 01 C3 91 FF
1508433369.653694 can_line   can1  080   [8]  32 7F 40 63 01 C3 93 FF
1508433369.663201 can_line   can1  080   [8]  32 97 40 6F 01 C3 94 FF
1508433369.673152 can_line   can1  080   [8]  32 B1 40 7C 01 C3 95 FF
1508433369.683153 can_line   can1  080   [8]  32 C9 40 88 01 C3 96 FF
1508433369.693323 can_line   can1  080   [8]  32 FB 40 A1 01 C3 98 FF
1508433369.703155 can_line   can1  080   [8]  33 15 40 AE 01 C3 99 FF
1508433369.713337 can_line   can1  080   [8]  33 2D 40 BA 01 C3 9A FF
1508433369.723344 can_line   can1  080   [8]  33 41 40 C7 01 C3 9B FF
1508433369.733339 can_line   can1  080   [8]  33 73 40 DD 01 C3 9D FF
1508433369.743198 can_line   can1  080   [8]  33 8D 40 EA 01 C3 9E FF
1508433369.753153 can_line   can1  080   [8]  33 A1 40 F6 01 C3 9F FF
1508433369.763225 can_line   can1  080   [8]  33 B9 41 00 01 C3 A0 FF
1508433369.773372 can_line   can1  080   [8]  33 E7 41 17 01 C3 A2 FF
1508433369.783211 can_line   can1  080   [8]  33 FF 41 21 01 C3 A3 FF
1508433369.793306 can_line   can1  080   [8]  34 13 41 2D 01 C3 A4 FF
1508433369.803849 can_line   can1  080   [8]  34 27 41 37 01 C3 A5 FF
1508433369.813174 can_line   can1  080   [8]  34 4F 41 4B 01 C3 A7 FF
1508433369.823162 can_line   can1  080   [8]  34 63 41 55 01 C3 A8 FF
1508433369.833145 can_line   can1  080   [8]  34 77 41 5F 01 C3 A9 FF
1508433369.843347 can_line   can1  080   [8]  34 8B 41 69 01 C3 AA FF
1508433369.853336 can_line   can1  080   [8]  34 AF 41 7B 01 C3 AC FF
1508433369.863229 can_line   can1  080   [8]  34 C3 41 85 01 C3 AD FF
1508433369.873299 can_line   can1  080   [8]  34 D7 41 8F 01 C3 AE FF
1508433369.883770 can_line   can1  080   [8]  34 E5 41 96 01 C3 AF FF
1508433369.893200 can_line   can1  080   [8]  35 09 41 A8 01 C3 B1 FF
1508433369.903189 can_line   can1  080   [8]  35 17 41 AF 01 C3 B2 FF
1508433369.913172 can_line   can1  080   [8]  35 2B 41 B7 01 C3 B3 FF
1508433369.923265 can_line   can1  080   [8]  35 3B 41 C1 01 C3 B4 FF
1508433369.934100 can_line   can1  080   [8]  35 5D 41 D0 01 C3 B6 FF
1508433369.943151 can_line   can1  080   [8]  35 6D 41 DA 01 C3 B7 FF
1508433369.953334 can_line   can1  080   [8]  35 7B 41 E1 01 C3 B8 FF
1508433369.963650 can_line   can1  080   [8]  35 8F 41 EB 01 C3 B9 FF
1508433369.973262 can_line   can1  080   [8]  35 B3 41 FD 01 C3 BB FF
1508433369.983124 can_line   can1  080   [8]  35 C1 42 04 01 C3 BC FF
1508433369.993043 can_line   can1  080   [8]  35 D5 42 0E 01 C3 BD FF
1508433370.003212 can_line   can1  080   [8]  35 E9 42 18 01 C3 BE FF
1508433370.013432 can_line   can1  080   [8]  36 0D 42 2A 01 C3 C0 FF
1508433370.023107 can_line   can1  080   [8]  36 21 42 34 01 C3 C1 FF
1508433370.033558 can_line   can1  080   [8]  36 2F 42 3B 01 C3 C2 FF
1508433370.043737 can_line   can1  080   [8]  36 43 42 45 01 C3 C3 FF
1508433370.053060 can_line   can1  080   [8]  36 67 42 57 01 C3 C5 FF
1508433370.063099 can_line   can1  080   [8]  36 7B 42 61 01 C3 C6 FF
1508433370.073089 can_line   can1  080   [8]  36 8F 42 6B 01 C3 C7 FF
1508433370.083294 can_line   can1  080   [8]  36 A3 42 72 01 C3 C8 FF
1508433370.093244 can_line   can1  080   [8]  36 C5 42 86 01 C3 CA FF
1508433370.103131 can_line   can1  080   [8]  36 D9 42 90 01 C3 CB FF
1508433370.113256 can_line   can1  080   [8]  36 ED 42 9A 01 C3 CC FF
1508433370.123952 can_line   can1  080   [8]  37 01 42 A4 01 C3 CD FF
1508433370.133083 can_line   can1  080   [8]  37 25 42 B6 01 C3 CF FF
1508433370.143111 can_line   can1  080   [8]  37 39 42 C0 01 C3 D0 FF
1508433370.153092 can_line   can1  080   [8]  37 4D 42 CA 01 C3 D1 FF
1508433370.163297 can_line   can1  080   [8]  37 61 42 D4 01 C3 D2 FF
1508433370.173473 can_line   can1  080   [8]  37 89 42 E8 01 C3 D4 FF
1508433370.183131 can_line   can1  080   [8]  37 9D 42 EF 01 C3 D5 FF
1508433370.193384 can_line   can1  080   [8]  37 AB 42 F9 01 C3 D6 FF
1508433370.203818 can_line   can1  080   [8]  37 BF 43 03 01 C3 D7 FF
1508433370.213194 can_line   can1  080   [8]  37 E7 43 17 01 C3 D9 FF
1508433370.223108 can_line   can1  080   [8]  37 FB 43 21 01 C3 DA FF
1508433370.233135 can_line   can1  080   [8]  38 0F 43 2B 01 C3 DB FF
1508433370.243392 can_line   can1  080   [8]  38 1F 43 35 01 C3 DC FF
1508433370.253894 can_line   can1  080   [8]  38 4B 43 47 01 C3 DE FF
1508433370.263130 can_line   can1  080   [8]  38 5B 43 53 01 C3 DF FF
1508433370.273242 can_line   can1  080   [8]  38 6F 43 5B 01 C3 E0 FF
1508433370.283523 can_line   can1  080   [8]  38 83 43 65 01 C3 E1 FF
1508433370.293097 can_line   can1  080   [8]  38 AB 43 79 01 C3 E3 FF
1508433370.303119 can_line   can1  080   [8]  38 BF 43 83 01 C3 E4 FF
1508433370.313194 can_line   can1  080   [8]  38 D3 43 8D 01 C3 E5 FF
1508433370.323478 can_line   can1  080   [8]  38 E1 43 94 01 C3 E6 FF
1508433370.333258 can_line   can1  080   [8]  39 09 43 A8 01 C3 E8 FF
1508433370.343338 can_line   can1  080   [8]  39 1D 43 B2 01 C3 E9 FF
1508433370.353402 can_line   can1  080   [8]  39 31 43 BC 01 C3 EA FF
1508433370.364270 can_line   can1  080   [8]  39 45 43 C6 01 C3 EB FF
1508433370.373390 can_line   can1  080   [8]  39 6D 43 DA 01 C3 ED FF
1508433370.383131 can_line   can1  080   [8]  39 81 43 E4 01 C3 EE FF
1508433370.393443 can_line   can1  080   [8]  39 95 43 EE 01 C3 EF FF
1508433370.403849 can_line   can1  080   [8]  39 A9 43 FB 01 C3 F0 FF
1508433370.415191 can_line   can1  080   [8]  39 D7 44 0F 01 C3 F2 FF
1508433370.423166 can_line   can1  080   [8]  39 EF 44 1B 01 C3 F3 FF
1508433370.434074 can_line   can1  080   [8]  3A 03 44 25 01 C3 F4 FF
1508433370.444400 can_line   can1  080   [8]  3A 1D 44 32 01 C3 F5 FF
1508433370.454518 can_line   can1  080   [8]  3A 49 44 48 01 C3 F7 FF
1508433370.463437 can_line   can1  080   [8]  3A 63 44 55 01 C3 F8 FF
1508433370.474229 can_line   can1  080   [8]  3A 7B 44 61 01 C3 F9 FF
1508433370.483750 can_line   can1  080   [8]  3A 95 44 6E 01 C3 FA FF
1508433370.494193 can_line   can1  080   [8]  3A C7 44 89 01 C3 FC FF
1508433370.503238 can_line   can1  080   [8]  3A E5 44 96 01 C3 FD FF
1508433370.514243 can_line   can1  080   [8]  3A FD 44 A2 01 C3 FE FF
1508433370.524417 can_line   can1  080   [8]  3B 17 44 AF 01 C3 FF FF
1508433370.533637 can_line   can1  080   [8]  3B 49 44 CA 01 C3 01 FF
1508433370.543191 can_line   can1  080   [8]  3B 67 44 D7 01 C3 02 FF
1508433370.553203 can_line   can1  080   [8]  3B 7F 44 E3 01 C3 03 FF
1508433370.563623 can_line   can1  080   [8]  3B 99 44 F0 01 C3 04 FF
1508433370.573622 can_line   can1  080   [8]  3B CF 45 0B 01 C3 06 FF
1508433370.583215 can_line   can1  080   [8]  3B E9 45 1A 01 C3 07 FF
1508433370.593251 can_line   can1  080   [8]  3C 07 45 27 01 C3 08 FF
1508433370.603381 can_line   can1  080   [8]  3C 1F 45 36 01 C3 09 FF
1508433370.613094 can_line   can1  080   [8]  3C 5B 45 51 01 C3 0B FF
1508433370.623147 can_line   can1  080   [8]  3C 79 45 60 01 C3 0C FF
1508433370.633093 can_line   can1  080   [8]  3C 93 45 6D 01 C3 0D FF
1508433370.644051 can_line   can1  080   [8]  3C B1 45 7C 01 C3 0E FF
1508433370.653797 can_line   can1  080   [8]  3C E7 45 97 01 C3 10 FF
1508433370.663149 can_line   can1  080   [8]  3D 01 45 A6 01 C3 11 FF
1508433370.673264 can_line   can1  080   [8]  3D 1F 45 B3 01 C3 12 FF
1508433370.683510 can_line   can1  080   [8]  3D 37 45 C2 01 C3 13 FF
1508433370.693018 can_line   can1  080   [8]  3D 6F 45 DD 01 C3 15 FF
1508433370.703053 can_line   can1  080   [8]  3D 8D 45 EA 01 C3 16 FF
1508433370.713126 can_line   can1  080   [8]  3D A5 45 F6 01 C3 17 FF
1508433370.723421 can_line   can1  080   [8]  3D BF 46 03 01 C3 18 FF
1508433370.733582 can_line   can1  080   [8]  3D F1 46 1C 01 C3 1A FF
1508433370.743187 can_line   can1  080   [8]  3E 09 46 28 01 C3 1B FF
1508433370.753671 can_line   can1  080   [8]  3E 23 46 35 01 C3 1C FF
1508433370.764271 can_line   can1  080   [8]  3E 3B 46 41 01 C3 1D FF
1508433370.773175 can_line   can1  080   [8]  3E 6D 46 5A 01 C3 1F FF
1508433370.783223 can_line   can1  080   [8]  3E 81 46 67 01 C3 20 FF
1508433370.793411 can_line   can1  080   [8]  3E 9B 46 71 01 C3 21 FF
1508433370.803659 can_line   can1  080   [8]  3E B3 46 7D 01 C3 22 FF
1508433370.813594 can_line   can1  080   [8]  3E E5 46 96 01 C3 24 FF
1508433370.823272 can_line   can1  080   [8]  3E FF 46 A3 01 C3 25 FF
1508433370.833384 can_line   can1  080   [8]  3F 13 46 AF 01 C3 26 FF
1508433370.843607 can_line   can1  080   [8]  3F 2B 46 BC 01 C3 27 FF
1508433370.853107 can_line   can1  080   [8]  3F 5D 46 D2 01 C3 29 FF
1508433370.863133 can_line   can1  080   [8]  3F 71 46 DF 01 C3 2A FF
1508433370.873113 can_line   can1  080   [8]  3F 8B 46 EB 01 C3 2B FF
1508433370.883278 can_line   can1  080   [8]  3F A3 46 F5 01 C3 2C FF
1508433370.893935 can_line   can1  080   [8]  3F D5 47 0E 01 C3 2E FF
1508433370.903184 can_line   can1  080   [8]  3F EF 47 1B 01 C3 2F FF
1508433370.913450 can_line   can1  080   [8]  40 07 47 2A 01 C3 30 FF
1508433370.923562 can_line   can1  080   [8]  40 21 47 36 01 C3 31 FF
1508433370.933115 can_line   can1  080   [8]  40 53 47 4F 01 C3 33 FF
1508433370.943084 can_line   can1  080   [8]  40 71 47 5C 01 C3 34 FF
1508433370.953133 can_line   can1  080   [8]  40 89 47 68 01 C3 35 FF
1508433370.963142 can_line   can1  080   [8]  40 A3 47 75 01 C3 36 FF
1508433370.973451 can_line   can1  080   [8]  40 D5 47 90 01 C3 38 FF
1508433370.983149 can_line   can1  080   [8]  40 F3 47 9D 01 C3 39 FF
1508433370.993425 can_line   can1  080   [8]  41 0B 47 A9 01 C3 3A FF
1508433371.003531 can_line   can1  080   [8]  41 25 47 B8 01 C3 3B FF
1508433371.013135 can_line   can1  080   [8]  41 5B 47 D1 01 C3 3D FF
1508433371.023141 can_line   can1  080   [8]  41 75 47 DE 01 C3 3E FF
1508433371.033161 can_line   can1  080   [8]  41 93 47 ED 01 C3 3F FF
1508433371.043208 can_line   can1  080   [8]  41 AB 47 F9 01 C3 40 FF
1508433371.053403 can_line   can1  080   [8]  41 DD 48 12 01 C3 42 FF
1508433371.063148 can_line   can1  080   [8]  41 F7 48 1F 01 C3 43 FF
1508433371.073459 can_line   can1  080   [8]  42 0F 48 2B 01 C3 44 FF
1508433371.083561 can_line   can1  080   [8]  42 29 48 38 01 C3 45 FF
1508433371.093035 can_line   can1  080   [8]  42 55 48 4E 01 C3 47 FF
1508433371.103120 can_line   can1  080   [8]  42 6F 48 5B 01 C3 48 FF
1508433371.113082 can_line   can1  080   [8]  42 87 48 67 01 C3 49 FF
1508433371.123147 can_line   can1  080   [8]  42 A1 48 74 01 C3 4A FF
1508433371.134220 can_line   can1  080   [8]  42 CD 48 8A 01 C3 4C FF
1508433371.143192 can_line   can1  080   [8]  42 E7 48 97 01 C3 4D FF
1508433371.153911 can_line   can1  080   [8]  42 FB 48 A3 01 C3 4E FF
1508433371.163442 can_line   can1  080   [8]  43 13 48 AD 01 C3 4F FF
1508433371.173285 can_line   can1  080   [8]  43 41 48 C4 01 C3 51 FF
1508433371.183548 can_line   can1  080   [8]  43 55 48 CE 01 C3 52 FF
1508433371.193112 can_line   can1  080   [8]  43 6D 48 DA 01 C3 53 FF
1508433371.203110 can_line   can1  080   [8]  43 87 48 E4 01 C3 54 FF
1508433371.213219 can_line   can1  080   [8]  43 AF 48 FB 01 C3 56 FF
1508433371.223254 can_line   can1  080   [8]  43 C7 49 07 01 C3 57 FF
1508433371.233571 can_line   can1  080   [8]  43 DB 49 14 01 C3 58 FF
1508433371.243924 can_line   can1  080   [8]  43 F5 49 1E 01 C3 59 FF
1508433371.253122 can_line   can1  080   [8]  44 1D 49 34 01 C3 5B FF
1508433371.263936 can_line   can1  080   [8]  44 35 49 3E 01 C3 5C FF
1508433371.273165 can_line   can1  080   [8]  44 4F 49 4B 01 C3 5D FF
1508433371.283200 can_line   can1  080   [8]  44 63 49 55 01 C3 5E FF
1508433371.294090 can_line   can1  080   [8]  44 8F 49 6B 01 C3 60 FF
1508433371.303157 can_line   can1  080   [8]  44 A3 49 75 01 C3 61 FF
1508433371.313568 can_line   can1  080   [8]  44 BD 49 82 01 C3 62 FF
1508433371.323383 can_line   can1  080   [8]  44 D1 49 8C 01 C3 63 FF
1508433371.333328 can_line   can1  080   [8]  44 FD 49 A2 01 C3 65 FF
1508433371.343145 can_line   can1  080   [8]  45 17 49 AF 01 C3 66 FF
1508433371.353071 can_line   can1  080   [8]  45 2F 49 BB 01 C3 67 FF
1508433371.364109 can_line   can1  080   [8]  45 43 49 C5 01 C3 68 FF
1508433371.375219 can_line   can1  080   [8]  45 75 49 DE 01 C3 6A FF
1508433371.383129 can_line   can1  080   [8]  45 8F 49 EB 01 C3 6B FF
1508433371.393457 can_line   can1  080   [8]  45 A7 49 F7 01 C3 6C FF
1508433371.404689 can_line   can1  080   [8]  45 C1 4A 04 01 C3 6D FF
1508433371.413549 can_line   can1  080   [8]  45 F3 4A 1D 01 C3 6F FF
1508433371.423561 can_line   can1  080   [8]  46 07 4A 27 01 C3 70 FF
1508433371.433343 can_line   can1  080   [8]  46 1F 4A 33 01 C3 71 FF
1508433371.443489 can_line   can1  080   [8]  46 33 4A 40 01 C3 72 FF
1508433371.453887 can_line   can1  080   [8]  46 65 4A 56 01 C3 74 FF
1508433371.463763 can_line   can1  080   [8]  46 79 4A 60 01 C3 75 FF
1508433371.473944 can_line   can1  080   [8]  46 93 4A 6D 01 C3 76 FF
1508433371.484669 can_line   can1  080   [8]  46 A7 4A 77 01 C3 77 FF
1508433371.493544 can_line   can1  080   [8]  46 D9 4A 90 01 C3 79 FF
1508433371.503399 can_line   can1  080   [8]  46 F1 4A 9C 01 C3 7A FF
1508433371.513328 can_line   can1  080   [8]  47 0B 4A A6 01 C3 7B FF
1508433371.523792 can_line   can1  080   [8]  47 23 4A B3 01 C3 7C FF
1508433371.533775 can_line   can1  080   [8]  47 55 4A CE 01 C3 7E FF
1508433371.543471 can_line   can1  080   [8]  47 6F 4A DB 01 C3 7F FF
1508433371.553598 can_line   can1  080   [8]  47 87 4A EA 01 C3 80 FF
1508433371.563388 can_line   can1  080   [8]  47 A5 4A F9 01 C3 81 FF
1508433371.573197 can_line   can1  080   [8]  47 E1 4B 14 01 C3 83 FF
1508433371.583588 can_line   can1  080   [8]  47 FB 4B 23 01 C3 84 FF
1508433371.593154 can_line   can1  080   [8]  48 19 4B 30 01 C3 85 FF
1508433371.604600 can_line   can1  080   [8]  48 37 4B 3F 01 C3 86 FF
1508433371.614668 can_line   can1  080   [8]  48 69 4B 5A 01 C3 88 FF
1508433371.623585 can_line   can1  080   [8]  48 87 4B 69 01 C3 89 FF
1508433371.633552 can_line   can1  080   [8]  48 A5 4B 78 01 C3 8A FF
1508433371.644581 can_line   can1  080   [8]  48 C3 4B 87 01 C3 8B FF
1508433371.653540 can_line   can1  080   [8]  48 FF 4B A3 01 C3 8D FF
1508433371.664673 can_line   can1  080   [8]  49 1D 4B B2 01 C3 8E FF
1508433371.674031 can_line   can1  080   [8]  49 3B 4B C1 01 C3 8F FF
1508433371.683375 can_line   can1  080   [8]  49 59 4B D0 01 C3 90 FF
1508433371.693881 can_line   can1  080   [8]  49 95 4B EE 01 C3 92 FF
1508433371.703342 can_line   can1  080   [8]  49 AD 4B FD 01 C3 93 FF
1508433371.713513 can_line   can1  080   [8]  49 CB 4C 0C 01 C3 94 FF
1508433371.723482 can_line   can1  080   [8]  49 E9 4C 1B 01 C3 95 FF
1508433371.733540 can_line   can1  080   [8]  4A 2B 4C 39 01 C3 97 FF
1508433371.743480 can_line   can1  080   [8]  4A 43 4C 48 01 C3 98 FF
1508433371.753084 can_line   can1  080   [8]  4A 61 4C 57 01 C3 99 FF
1508433371.763658 can_line   can1  080   [8]  4A 7F 4C 63 01 C3 9A FF
1508433371.774065 can_line   can1  080   [8]  4A BB 4C 81 01 C3 9C FF
1508433371.784042 can_line   can1  080   [8]  4A D5 4C 8E 01 C3 9D FF
1508433371.793793 can_line   can1  080   [8]  4A ED 4C 9A 01 C3 9E FF
1508433371.803884 can_line   can1  080   [8]  4B 0B 4C A9 01 C3 9F FF
1508433371.813511 can_line   can1  080   [8]  4B 3D 4C C2 01 C3 A1 FF
1508433371.823162 can_line   can1  080   [8]  4B 57 4C CF 01 C3 A2 FF
1508433371.833543 can_line   can1  080   [8]  4B 6F 4C DB 01 C3 A3 FF
1508433371.844204 can_line   can1  080   [8]  4B 89 4C E8 01 C3 A4 FF
1508433371.855448 can_line   can1  080   [8]  4B BB 4C FE 01 C3 A6 FF
1508433371.863864 can_line   can1  080   [8]  4B CF 4D 0B 01 C3 A7 FF
1508433371.873762 can_line   can1  080   [8]  4B E7 4D 17 01 C3 A8 FF
1508433371.883441 can_line   can1  080   [8]  4C 01 4D 24 01 C3 A9 FF
1508433371.893384 can_line   can1  080   [8]  4C 29 4D 3A 01 C3 AB FF
1508433371.903228 can_line   can1  080   [8]  4C 41 4D 44 01 C3 AC FF
1508433371.913330 can_line   can1  080   [8]  4C 55 4D 4E 01 C3 AD FF
1508433371.923114 can_line   can1  080   [8]  4C 69 4D 58 01 C3 AE FF
1508433371.933886 can_line   can1  080   [8]  4C 97 4D 6F 01 C3 B0 FF
1508433371.943118 can_line   can1  080   [8]  4C AB 4D 79 01 C3 B1 FF
1508433371.953500 can_line   can1  080   [8]  4C BF 4D 83 01 C3 B2 FF
1508433371.963349 can_line   can1  080   [8]  4C D3 4D 8D 01 C3 B3 FF
1508433371.973345 can_line   can1  080   [8]  4C FF 4D A3 01 C3 B5 FF
1508433371.983119 can_line   can1  080   [8]  4D 13 4D AD 01 C3 B6 FF
1508433371.993330 can_line   can1  080   [8]  4D 27 4D BA 01 C3 B7 FF
1508433372.003190 can_line   can1  080   [8]  4D 41 4D C4 01 C3 B8 FF
1508433372.014226 can_line   can1  080   [8]  4D 69 4D D8 01 C3 BA FF
1508433372.023139 can_line   can1  080   [8]  4D 7D 4D E2 01 C3 BB FF
1508433372.033487 can_line   can1  080   [8]  4D 95 4D EE 01 C3 BC FF
1508433372.043437 can_line   can1  080   [8]  4D AF 4D F8 01 C3 BD FF
1508433372.053395 can_line   can1  080   [8]  4D D7 4E 0F 01 C3 BF FF
1508433372.063103 can_line   can1  080   [8]  4D EB 4E 1B 01 C3 C0 FF
1508433372.073574 can_line   can1  080   [8]  4E 03 4E 22 01 C3 C1 FF
1508433372.083452 can_line   can1  080   [8]  4E 17 4E 2F 01 C3 C2 FF
1508433372.094716 can_line   can1  080   [8]  4E 43 4E 45 01 C3 C4 FF
1508433372.103132 can_line   can1  080   [8]  4E 57 4E 4F 01 C3 C5 FF
1508433372.113550 can_line   can1  080   [8]  4E 6B 4E 5C 01 C3 C6 FF
1508433372.123341 can_line   can1  080   [8]  4E 85 4E 66 01 C3 C7 FF
1508433372.133446 can_line   can1  080   [8]  4E B1 4E 7C 01 C3 C9 FF
1508433372.143929 can_line   can1  080   [8]  4E C5 4E 86 01 C3 CA FF
1508433372.153312 can_line   can1  080   [8]  4E D9 4E 93 01 C3 CB FF
1508433372.163127 can_line   can1  080   [8]  4E F3 4E 9D 01 C3 CC FF
1508433372.174159 can_line   can1  080   [8]  4F 1B 4E B1 01 C3 CE FF
1508433372.183124 can_line   can1  080   [8]  4F 2F 4E BB 01 C3 CF FF
1508433372.193071 can_line   can1  080   [8]  4F 47 4E C5 01 C3 D0 FF
1508433372.203215 can_line   can1  080   [8]  4F 5B 4E D1 01 C3 D1 FF
1508433372.213375 can_line   can1  080   [8]  4F 7F 4E E3 01 C3 D3 FF
1508433372.223115 can_line   can1  080   [8]  4F 93 4E ED 01 C3 D4 FF
1508433372.233051 can_line   can1  080   [8]  4F A7 4E F7 01 C3 D5 FF
1508433372.243103 can_line   can1  080   [8]  4F BB 4F 01 01 C3 D6 FF
1508433372.253981 can_line   can1  080   [8]  4F DD 4F 12 01 C3 D8 FF
1508433372.263198 can_line   can1  080   [8]  4F F1 4F 1C 01 C3 D9 FF
1508433372.274026 can_line   can1  080   [8]  50 01 4F 24 01 C3 DA FF
1508433372.283367 can_line   can1  080   [8]  50 0F 4F 2B 01 C3 DB FF
1508433372.293519 can_line   can1  080   [8]  50 2D 4F 3A 01 C3 DD FF
1508433372.303146 can_line   can1  080   [8]  50 3D 4F 42 01 C3 DE FF
1508433372.313316 can_line   can1  080   [8]  50 4B 4F 49 01 C3 DF FF
1508433372.323183 can_line   can1  080   [8]  50 5B 4F 51 01 C3 E0 FF
1508433372.334926 can_line   can1  080   [8]  50 83 4F 65 01 C3 E2 FF
1508433372.343068 can_line   can1  080   [8]  50 91 4F 6C 01 C3 E3 FF
1508433372.353162 can_line   can1  080   [8]  50 A5 4F 76 01 C3 E4 FF
1508433372.363253 can_line   can1  080   [8]  50 B9 4F 80 01 C3 E5 FF
1508433372.373431 can_line   can1  080   [8]  50 E1 4F 94 01 C3 E7 FF
1508433372.383438 can_line   can1  080   [8]  50 F5 4F 9E 01 C3 E8 FF
1508433372.393220 can_line   can1  080   [8]  51 09 4F A8 01 C3 E9 FF
1508433372.403052 can_line   can1  080   [8]  51 23 4F B5 01 C3 EA FF
1508433372.413757 can_line   can1  080   [8]  51 4F 4F CB 01 C3 EC FF
1508433372.423094 can_line   can1  080   [8]  51 69 4F D8 01 C3 ED FF
1508433372.433654 can_line   can1  080   [8]  51 7D 4F E4 01 C3 EE FF
1508433372.443285 can_line   can1  080   [8]  51 95 4F F1 01 C3 EF FF
1508433372.453477 can_line   can1  080   [8]  51 C7 50 0A 01 C3 F1 FF
1508433372.463108 can_line   can1  080   [8]  51 E5 50 16 01 C3 F2 FF
1508433372.473383 can_line   can1  080   [8]  51 FF 50 23 01 C3 F3 FF
1508433372.483091 can_line   can1  080   [8]  52 17 50 2F 01 C3 F4 FF
1508433372.493616 can_line   can1  080   [8]  52 49 50 48 01 C3 F6 FF
1508433372.503057 can_line   can1  080   [8]  52 63 50 55 01 C3 F7 FF
1508433372.513342 can_line   can1  080   [8]  52 7B 50 61 01 C3 F8 FF
1508433372.523217 can_line   can1  080   [8]  52 95 50 6E 01 C3 F9 FF
1508433372.533552 can_line   can1  080   [8]  52 C7 50 87 01 C3 FB FF
1508433372.543269 can_line   can1  080   [8]  52 DB 50 93 01 C3 FC FF
1508433372.553216 can_line   can1  080   [8]  52 F3 50 9D 01 C3 FD FF
1508433372.563148 can_line   can1  080   [8]  53 0D 50 AA 01 C3 FE FF
1508433372.573740 can_line   can1  080   [8]  53 39 50 C0 01 C3 00 FF
1508433372.583028 can_line   can1  080   [8]  53 4D 50 CA 01 C3 01 FF
1508433372.593349 can_line   can1  080   [8]  53 61 50 D4 01 C3 02 FF
1508433372.603201 can_line   can1  080   [8]  53 7B 50 DE 01 C3 03 FF
1508433372.613352 can_line   can1  080   [8]  53 9D 50 F2 01 C3 05 FF
1508433372.623805 can_line   can1  080   [8]  53 B1 50 FC 01 C3 06 FF
1508433372.633160 can_line   can1  080   [8]  53 C1 51 04 01 C3 07 FF
1508433372.643086 can_line   can1  080   [8]  53 D5 51 0B 01 C3 08 FF
1508433372.653545 can_line   can1  080   [8]  53 F3 51 1D 01 C3 0A FF
1508433372.663119 can_line   can1  080   [8]  54 01 51 24 01 C3 0B FF
1508433372.673683 can_line   can1  080   [8]  54 11 51 2C 01 C3 0C FF
1508433372.683183 can_line   can1  080   [8]  54 1F 51 33 01 C3 0D FF
1508433372.693349 can_line   can1  080   [8]  54 43 51 42 01 C3 0F FF
1508433372.703098 can_line   can1  080   [8]  54 51 51 4A 01 C3 10 FF
1508433372.713184 can_line   can1  080   [8]  54 61 51 51 01 C3 11 FF
1508433372.723064 can_line   can1  080   [8]  54 6F 51 5B 01 C3 12 FF
1508433372.733425 can_line   can1  080   [8]  54 8D 51 6A 01 C3 14 FF
1508433372.743056 can_line   can1  080   [8]  54 9D 51 72 01 C3 15 FF
1508433372.753352 can_line   can1  080   [8]  54 B1 51 79 01 C3 16 FF
1508433372.763237 can_line   can1  080   [8]  54 BF 51 83 01 C3 17 FF
1508433372.773363 can_line   can1  080   [8]  54 E3 51 95 01 C3 19 FF
1508433372.783248 can_line   can1  080   [8]  54 F1 51 9C 01 C3 1A FF
1508433372.793103 can_line   can1  080   [8]  55 05 51 A6 01 C3 1B FF
1508433372.803023 can_line   can1  080   [8]  55 19 51 B0 01 C3 1C FF
1508433372.813119 can_line   can1  080   [8]  55 3D 51 C2 01 C3 1E FF
1508433372.823033 can_line   can1  080   [8]  55 51 51 CC 01 C3 1F FF
1508433372.833315 can_line   can1  080   [8]  55 65 51 D6 01 C3 20 FF
1508433372.843216 can_line   can1  080   [8]  55 79 51 E0 01 C3 21 FF
1508433372.853344 can_line   can1  080   [8]  55 A1 51 F4 01 C3 23 FF
1508433372.863520 can_line   can1  080   [8]  55 B5 51 FE 01 C3 24 FF
1508433372.873349 can_line   can1  080   [8]  55 C9 52 08 01 C3 25 FF
1508433372.883084 can_line   can1  080   [8]  55 DD 52 12 01 C3 26 FF
1508433372.893504 can_line   can1  080   [8]  56 05 52 26 01 C3 28 FF
1508433372.903077 can_line   can1  080   [8]  56 19 52 30 01 C3 29 FF
1508433372.914289 can_line   can1  080   [8]  56 31 52 3C 01 C3 2A FF
1508433372.923262 can_line   can1  080   [8]  56 45 52 46 01 C3 2B FF
1508433372.933336 can_line   can1  080   [8]  56 6D 52 5A 01 C3 2D FF
1508433372.943049 can_line   can1  080   [8]  56 81 52 64 01 C3 2E FF
1508433372.953177 can_line   can1  080   [8]  56 9B 52 6E 01 C3 2F FF
1508433372.963019 can_line   can1  080   [8]  56 AF 52 7B 01 C3 30 FF
1508433372.973486 can_line   can1  080   [8]  56 D7 52 8F 01 C3 32 FF
1508433372.983065 can_line   can1  080   [8]  56 EB 52 99 01 C3 33 FF
1508433372.993331 can_line   can1  080   [8]  57 03 52 A5 01 C3 34 FF
1508433373.003213 can_line   can1  080   [8]  57 17 52 AF 01 C3 35 FF
1508433373.013572 can_line   can1  080   [8]  57 3F 52 C6 01 C3 37 FF
1508433373.023100 can_line   can1  080   [8]  57 59 52 D0 01 C3 38 FF
1508433373.033184 can_line   can1  080   [8]  57 6D 52 DA 01 C3 39 FF
1508433373.043254 can_line   can1  080   [8]  57 81 52 E4 01 C3 3A FF
1508433373.053692 can_line   can1  080   [8]  57 AD 52 FA 01 C3 3C FF
1508433373.063059 can_line   can1  080   [8]  57 C1 53 04 01 C3 3D FF
1508433373.073711 can_line   can1  080   [8]  57 DB 53 11 01 C3 3E FF
1508433373.083220 can_line   can1  080   [8]  57 EF 53 1B 01 C3 3F FF
1508433373.093405 can_line   can1  080   [8]  58 17 53 31 01 C3 41 FF
1508433373.103754 can_line   can1  080   [8]  58 2F 53 3B 01 C3 42 FF
1508433373.113459 can_line   can1  080   [8]  58 43 53 45 01 C3 43 FF
1508433373.123054 can_line   can1  080   [8]  58 5D 53 4F 01 C3 44 FF
1508433373.133927 can_line   can1  080   [8]  58 85 53 66 01 C3 46 FF
1508433373.143145 can_line   can1  080   [8]  58 99 53 70 01 C3 47 FF
1508433373.153366 can_line   can1  080   [8]  58 AD 53 7A 01 C3 48 FF
1508433373.163137 can_line   can1  080   [8]  58 C1 53 86 01 C3 49 FF
1508433373.173630 can_line   can1  080   [8]  58 ED 53 9A 01 C3 4B FF
1508433373.183100 can_line   can1  080   [8]  59 01 53 A4 01 C3 4C FF
1508433373.193309 can_line   can1  080   [8]  59 15 53 AE 01 C3 4D FF
1508433373.202991 can_line   can1  080   [8]  59 29 53 B8 01 C3 4E FF
1508433373.213640 can_line   can1  080   [8]  59 51 53 CC 01 C3 50 FF
1508433373.223058 can_line   can1  080   [8]  59 65 53 D6 01 C3 51 FF
1508433373.233339 can_line   can1  080   [8]  59 79 53 E0 01 C3 52 FF
1508433373.243282 can_line   can1  080   [8]  59 8D 53 EA 01 C3 53 FF
1508433373.253174 can_line   can1  080   [8]  59 BB 53 FE 01 C3 55 FF
1508433373.263065 can_line   can1  080   [8]  59 CF 54 0B 01 C3 56 FF
1508433373.273831 can_line   can1  080   [8]  59 E3 54 15 01 C3 57 FF
1508433373.283059 can_line   can1  080   [8]  59 F7 54 1F 01 C3 58 FF
1508433373.293357 can_line   can1  080   [8]  5A 1F 54 33 01 C3 5A FF
1508433373.303075 can_line   can1  080   [8]  5A 37 54 3D 01 C3 5B FF
1508433373.313513 can_line   can1  080   [8]  5A 4B 54 49 01 C3 5C FF
1508433373.323172 can_line   can1  080   [8]  5A 5F 54 53 01 C3 5D FF
1508433373.333175 can_line   can1  080   [8]  5A 87 54 67 01 C3 5F FF
1508433373.343680 can_line   can1  080   [8]  5A 9B 54 71 01 C3 60 FF
1508433373.353477 can_line   can1  080   [8]  5A AF 54 7B 01 C3 61 FF
1508433373.363063 can_line   can1  080   [8]  5A C3 54 85 01 C3 62 FF
1508433373.373914 can_line   can1  080   [8]  5A E7 54 97 01 C3 64 FF
1508433373.383215 can_line   can1  080   [8]  5A FB 54 A1 01 C3 65 FF
1508433373.393355 can_line   can1  080   [8]  5B 09 54 A8 01 C3 66 FF
1508433373.403357 can_line   can1  080   [8]  5B 19 54 B0 01 C3 67 FF
1508433373.413168 can_line   can1  080   [8]  5B 3B 54 C1 01 C3 69 FF
1508433373.423041 can_line   can1  080   [8]  5B 4F 54 CB 01 C3 6A FF
1508433373.433156 can_line   can1  080   [8]  5B 5F 54 D3 01 C3 6B FF
1508433373.443023 can_line   can1  080   [8]  5B 73 54 DD 01 C3 6C FF
1508433373.453783 can_line   can1  080   [8]  5B 95 54 EC 01 C3 6E FF
1508433373.463074 can_line   can1  080   [8]  5B A5 54 F6 01 C3 6F FF
1508433373.473501 can_line   can1  080   [8]  5B B3 54 FD 01 C3 70 FF
1508433373.483289 can_line   can1  080   [8]  5B C7 55 07 01 C3 71 FF
1508433373.493159 can_line   can1  080   [8]  5B EB 55 19 01 C3 73 FF
1508433373.503156 can_line   can1  080   [8]  5B F9 55 20 01 C3 74 FF
1508433373.513165 can_line   can1  080   [8]  5C 13 55 2A 01 C3 75 FF
1508433373.523074 can_line   can1  080   [8]  5C 21 55 34 01 C3 76 FF
1508433373.533279 can_line   can1  080   [8]  5C 45 55 46 01 C3 78 FF
1508433373.543066 can_line   can1  080   [8]  5C 5D 55 50 01 C3 79 FF
1508433373.553277 can_line   can1  080   [8]  5C 71 55 5C 01 C3 7A FF
1508433373.563229 can_line   can1  080   [8]  5C 85 55 66 01 C3 7B FF
1508433373.573285 can_line   can1  080   [8]  5C AD 55 7A 01 C3 7D FF
1508433373.584172 can_line   can1  080   [8]  5C C1 55 87 01 C3 7E FF
1508433373.593330 can_line   can1  080   [8]  5C DB 55 93 01 C3 7F FF
1508433373.603058 can_line   can1  080   [8]  5C F3 55 A0 01 C3 80 FF
1508433373.613290 can_line   can1  080   [8]  5D 2B 55 B9 01 C3 82 FF
1508433373.622978 can_line   can1  080   [8]  5D 43 55 C8 01 C3 83 FF
1508433373.633279 can_line   can1  080   [8]  5D 61 55 D4 01 C3 84 FF
1508433373.643229 can_line   can1  080   [8]  5D 7F 55 E3 01 C3 85 FF
1508433373.653203 can_line   can1  080   [8]  5D B7 55 FF 01 C3 87 FF
1508433373.663216 can_line   can1  080   [8]  5D CF 56 0B 01 C3 88 FF
1508433373.673781 can_line   can1  080   [8]  5D E9 56 18 01 C3 89 FF
1508433373.683132 can_line   can1  080   [8]  5E 01 56 24 01 C3 8A FF
1508433373.693344 can_line   can1  080   [8]  5E 39 56 40 01 C3 8C FF
1508433373.703041 can_line   can1  080   [8]  5E 51 56 4C 01 C3 8D FF
1508433373.713711 can_line   can1  080   [8]  5E 6B 56 59 01 C3 8E FF
1508433373.723272 can_line   can1  080   [8]  5E 83 56 65 01 C3 8F FF
1508433373.733325 can_line   can1  080   [8]  5E BB 56 81 01 C3 91 FF
1508433373.743456 can_line   can1  080   [8]  5E D3 56 8D 01 C3 92 FF
1508433373.753278 can_line   can1  080   [8]  5E ED 56 9A 01 C3 93 FF
1508433373.763072 can_line   can1  080   [8]  5F 05 56 A9 01 C3 94 FF
1508433373.773482 can_line   can1  080   [8]  5F 3D 56 C4 01 C3 96 FF
1508433373.783119 can_line   can1  080   [8]  5F 55 56 D1 01 C3 97 FF
1508433373.793451 can_line   can1  080   [8]  5F 73 56 DD 01 C3 98 FF
1508433373.803271 can_line   can1  080   [8]  5F 8D 56 EC 01 C3 99 FF
1508433373.813272 can_line   can1  080   [8]  5F BF 57 03 01 C3 9B FF
1508433373.824030 can_line   can1  080   [8]  5F D7 57 0F 01 C3 9C FF
1508433373.833278 can_line   can1  080   [8]  5F F1 57 1C 01 C3 9D FF
1508433373.843087 can_line   can1  080   [8]  60 05 57 28 01 C3 9E FF
1508433373.853508 can_line   can1  080   [8]  60 31 57 3C 01 C3 A0 FF
1508433373.863125 can_line   can1  080   [8]  60 45 57 46 01 C3 A1 FF
1508433373.874015 can_line   can1  080   [8]  60 5F 57 53 01 C3 A2 FF
1508433373.883324 can_line   can1  080   [8]  60 73 57 5D 01 C3 A3 FF
1508433373.893250 can_line   can1  080   [8]  60 9F 57 73 01 C3 A5 FF
1508433373.903391 can_line   can1  080   [8]  60 B3 57 7D 01 C3 A6 FF
1508433373.913272 can_line   can1  080   [8]  60 CD 57 8A 01 C3 A7 FF
1508433373.923064 can_line   can1  080   [8]  60 E1 57 96 01 C3 A8 FF
1508433373.933474 can_line   can1  080   [8]  61 13 57 AD 01 C3 AA FF
1508433373.943182 can_line   can1  080   [8]  61 2B 57 B9 01 C3 AB FF
1508433373.953690 can_line   can1  080   [8]  61 45 57 C6 01 C3 AC FF
1508433373.963321 can_line   can1  080   [8]  61 59 57 D2 01 C3 AD FF
1508433373.973269 can_line   can1  080   [8]  61 8B 57 E9 01 C3 AF FF
1508433373.984236 can_line   can1  080   [8]  61 A3 57 F5 01 C3 B0 FF
1508433373.993272 can_line   can1  080   [8]  61 BD 58 04 01 C3 B1 FF
1508433374.003365 can_line   can1  080   [8]  61 D5 58 11 01 C3 B2 FF
1508433374.013624 can_line   can1  080   [8]  62 0D 58 2C 01 C3 B4 FF
1508433374.023386 can_line   can1  080   [8]  62 2B 58 39 01 C3 B5 FF
1508433374.033770 can_line   can1  080   [8]  62 43 58 48 01 C3 B6 FF
1508433374.043686 can_line   can1  080   [8]  62 61 58 54 01 C3 B7 FF
1508433374.053283 can_line   can1  080   [8]  62 99 58 70 01 C3 B9 FF
1508433374.065222 can_line   can1  080   [8]  62 B7 58 7F 01 C3 BA FF
1508433374.073527 can_line   can1  080   [8]  62 CF 58 8E 01 C3 BB FF
1508433374.083832 can_line   can1  080   [8]  62 ED 58 9D 01 C3 BC FF
1508433374.093491 can_line   can1  080   [8]  63 25 58 B8 01 C3 BE FF
1508433374.103156 can_line   can1  080   [8]  63 43 58 C7 01 C3 BF FF
1508433374.113551 can_line   can1  080   [8]  63 61 58 D4 01 C3 C0 FF
1508433374.123273 can_line   can1  080   [8]  63 79 58 E0 01 C3 C1 FF
1508433374.133312 can_line   can1  080   [8]  63 B1 58 FE 01 C3 C3 FF
1508433374.143623 can_line   can1  080   [8]  63 CF 59 0D 01 C3 C4 FF
1508433374.153239 can_line   can1  080   [8]  63 ED 59 1C 01 C3 C5 FF
1508433374.163240 can_line   can1  080   [8]  64 0B 59 2B 01 C3 C6 FF
1508433374.173426 can_line   can1  080   [8]  64 47 59 47 01 C3 C8 FF
1508433374.183644 can_line   can1  080   [8]  64 5F 59 56 01 C3 C9 FF
1508433374.193629 can_line   can1  080   [8]  64 7D 59 65 01 C3 CA FF
1508433374.203487 can_line   can1  080   [8]  64 9B 59 71 01 C3 CB FF
1508433374.213265 can_line   can1  080   [8]  64 D3 59 8F 01 C3 CD FF
1508433374.224106 can_line   can1  080   [8]  64 F1 59 9C 01 C3 CE FF
1508433374.233271 can_line   can1  080   [8]  65 09 59 A8 01 C3 CF FF
1508433374.243104 can_line   can1  080   [8]  65 27 59 B7 01 C3 D0 FF
1508433374.253508 can_line   can1  080   [8]  65 59 59 D0 01 C3 D2 FF
1508433374.263151 can_line   can1  080   [8]  65 73 59 DD 01 C3 D3 FF
1508433374.273771 can_line   can1  080   [8]  65 8B 59 E9 01 C3 D4 FF
1508433374.284353 can_line   can1  080   [8]  65 A5 59 F6 01 C3 D5 FF
1508433374.293268 can_line   can1  080   [8]  65 D7 5A 0C 01 C3 D7 FF
1508433374.304416 can_line   can1  080   [8]  65 EF 5A 1B 01 C3 D8 FF
1508433374.313235 can_line   can1  080   [8]  66 09 5A 25 01 C3 D9 FF
1508433374.323117 can_line   can1  080   [8]  66 21 5A 32 01 C3 DA FF
1508433374.333409 can_line   can1  080   [8]  66 53 5A 4D 01 C3 DC FF
1508433374.343446 can_line   can1  080   [8]  66 6D 5A 5C 01 C3 DD FF
1508433374.354284 can_line   can1  080   [8]  66 85 5A 69 01 C3 DE FF
1508433374.363271 can_line   can1  080   [8]  66 A3 5A 75 01 C3 DF FF
1508433374.373181 can_line   can1  080   [8]  66 DB 5A 91 01 C3 E1 FF
1508433374.383894 can_line   can1  080   [8]  66 F3 5A A0 01 C3 E2 FF
1508433374.393264 can_line   can1  080   [8]  67 11 5A AC 01 C3 E3 FF
1508433374.403074 can_line   can1  080   [8]  67 2B 5A BB 01 C3 E4 FF
1508433374.413447 can_line   can1  080   [8]  67 61 5A D4 01 C3 E6 FF
1508433374.423527 can_line   can1  080   [8]  67 7B 5A E1 01 C3 E7 FF
1508433374.433548 can_line   can1  080   [8]  67 99 5A ED 01 C3 E8 FF
1508433374.443222 can_line   can1  080   [8]  67 B1 5A FC 01 C3 E9 FF
1508433374.453214 can_line   can1  080   [8]  67 E3 5B 15 01 C3 EB FF
1508433374.463930 can_line   can1  080   [8]  67 FD 5B 24 01 C3 EC FF
1508433374.473338 can_line   can1  080   [8]  68 1B 5B 31 01 C3 ED FF
1508433374.483414 can_line   can1  080   [8]  68 33 5B 3D 01 C3 EE FF
1508433374.493331 can_line   can1  080   [8]  68 65 5B 59 01 C3 F0 FF
1508433374.503329 can_line   can1  080   [8]  68 7F 5B 65 01 C3 F1 FF
1508433374.513297 can_line   can1  080   [8]  68 97 5B 72 01 C3 F2 FF
1508433374.523305 can_line   can1  080   [8]  68 B5 5B 7E 01 C3 F3 FF
1508433374.533254 can_line   can1  080   [8]  68 E7 5B 9A 01 C3 F5 FF
1508433374.545797 can_line   can1  080   [8]  69 01 5B A6 01 C3 F6 FF
1508433374.553212 can_line   can1  080   [8]  69 19 5B B3 01 C3 F7 FF
1508433374.563011 can_line   can1  080   [8]  69 33 5B BF 01 C3 F8 FF
1508433374.573452 can_line   can1  080   [8]  69 69 5B D8 01 C3 FA FF
1508433374.583663 can_line   can1  080   [8]  69 83 5B E7 01 C3 FB FF
1508433374.593799 can_line   can1  080   [8]  69 9B 5B F4 01 C3 FC FF
1508433374.603273 can_line   can1  080   [8]  69 B9 5C 00 01 C3 FD FF
1508433374.613131 can_line   can1  080   [8]  69 EB 5C 19 01 C3 FF FF
1508433374.623885 can_line   can1  080   [8]  6A 05 5C 26 01 C3 00 FF
1508433374.633295 can_line   can1  080   [8]  6A 19 5C 32 01 C3 01 FF
1508433374.643544 can_line   can1  080   [8]  6A 31 5C 3F 01 C3 02 FF
1508433374.653402 can_line   can1  080   [8]  6A 63 5C 55 01 C3 04 FF
1508433374.663565 can_line   can1  080   [8]  6A 77 5C 62 01 C3 05 FF
1508433374.674084 can_line   can1  080   [8]  6A 91 5C 6C 01 C3 06 FF
1508433374.683967 can_line   can1  080   [8]  6A A9 5C 78 01 C3 07 FF
1508433374.693201 can_line   can1  080   [8]  6A D1 5C 8C 01 C3 09 FF
1508433374.703886 can_line   can1  080   [8]  6A EB 5C 99 01 C3 0A FF
