(1720539236.776234) can0 425#0000
(1720539236.776387) can0 080#8A07
(1720539236.785650) can0 425#0000
(1720539236.785728) can0 080#8D07
(1720539236.796231) can0 425#0000
(1720539236.796356) can0 080#8D07
(1720539236.805643) can0 425#0000
(1720539236.805761) can0 080#8C07
(1720539236.816243) can0 425#0000
(1720539236.816388) can0 080#8C07
(1720539236.825611) can0 425#0000
(1720539236.825772) can0 080#8C07
(1720539236.836244) can0 425#0000
(1720539236.836399) can0 080#8C07
(1720539236.845643) can0 425#0000
(1720539236.845719) can0 080#8C07
(1720539236.856216) can0 425#0000
(1720539236.856389) can0 080#8C07
(1720539236.865653) can0 425#0000
(1720539236.865772) can0 080#8B07
(1720539236.876228) can0 425#0000
(1720539236.876356) can0 080#8B07
(1720539236.885647) can0 425#0000
(1720539236.885710) can0 080#8D07
(1720539236.896213) can0 425#0000
(1720539236.896388) can0 080#8D07
(1720539236.905611) can0 425#0000
(1720539236.905773) can0 080#7E07
(1720539236.916226) can0 425#0000
(1720539236.916401) can0 080#7E07
(1720539236.925663) can0 425#0000
(1720539236.925763) can0 080#8B07
(1720539236.936212) can0 425#0000
(1720539236.936389) can0 080#8B07
(1720539236.945671) can0 425#0000
(1720539236.945773) can0 080#8D07
(1720539236.956230) can0 425#0000
(1720539236.956360) can0 080#8D07
(1720539236.965645) can0 425#0000
(1720539236.965764) can0 080#8B07
(1720539236.976232) can0 425#0000
(1720539236.976390) can0 080#8B07
(1720539236.985654) can0 425#0000
(1720539236.985731) can0 080#8D07
(1720539236.996228) can0 425#0000
(1720539236.996359) can0 080#8D07
(1720539237.005665) can0 425#0000
(1720539237.005726) can0 080#8C07
(1720539237.016214) can0 425#0000
(1720539237.016390) can0 080#8C07
(1720539237.025654) can0 425#0000
(1720539237.025774) can0 080#8C07
(1720539237.036229) can0 425#0000
(1720539237.036402) can0 080#8C07
(1720539237.045646) can0 425#0000
(1720539237.045722) can0 080#8C07
(1720539237.056234) can0 425#0000
(1720539237.056391) can0 080#8C07
(1720539237.065611) can0 425#0000
(1720539237.065775) can0 080#8907
(1720539237.076229) can0 425#0000
(1720539237.076360) can0 080#8907
(1720539237.085647) can0 425#0000
(1720539237.085722) can0 080#8B07
(1720539237.096234) can0 425#0000
(1720539237.096392) can0 080#8B07
(1720539237.105636) can0 425#0000
(1720539237.105733) can0 080#8B07
(1720539237.116248) can0 425#0000
(1720539237.116360) can0 080#8B07
(1720539237.125649) can0 425#0000
(1720539237.125766) can0 080#8C07
(1720539237.136216) can0 425#0000
(1720539237.136392) can0 080#8C07
(1720539237.145675) can0 425#0000
(1720539237.145776) can0 080#8C07
(1720539237.156231) can0 425#0000
(1720539237.156404) can0 080#8C07
(1720539237.165647) can0 425#0000
(1720539237.165766) can0 080#8A07
(1720539237.176217) can0 425#0000
(1720539237.176327) can0 080#8A07
(1720539237.185600) can0 425#0000
(1720539237.185746) can0 080#8A07
(1720539237.196230) can0 425#0000
(1720539237.196361) can0 080#8A07
(1720539237.205649) can0 425#0000
(1720539237.205736) can0 080#8B07
(1720539237.216234) can0 425#0000
(1720539237.216395) can0 080#8B07
(1720539237.225649) can0 425#0000
(1720539237.225753) can0 080#8B07
(1720539237.236233) can0 425#0000
(1720539237.236362) can0 080#8B07
(1720539237.245658) can0 425#0000
(1720539237.245780) can0 080#7E07
(1720539237.256219) can0 425#0000
(1720539237.256394) can0 080#7E07
(1720539237.265644) can0 425#0000
(1720539237.265790) can0 080#8907
(1720539237.276234) can0 425#0000
(1720539237.276363) can0 080#8907
(1720539237.285643) can0 425#0000
(1720539237.285735) can0 080#8B07
(1720539237.296236) can0 425#0000
(1720539237.296329) can0 080#8B07
(1720539237.305603) can0 425#0000
(1720539237.305748) can0 080#8A07
(1720539237.316245) can0 425#0000
(1720539237.316363) can0 080#8A07
(1720539237.325641) can0 425#0000
(1720539237.325739) can0 080#8A07
(1720539237.336238) can0 425#0000
(1720539237.336395) can0 080#8A07
(1720539237.345603) can0 425#0000
(1720539237.345737) can0 080#8D07
(1720539237.356234) can0 425#0000
(1720539237.356364) can0 080#8D07
(1720539237.365639) can0 425#0000
(1720539237.365739) can0 080#8A07
(1720539237.376255) can0 425#0000
(1720539237.376396) can0 080#8A07
(1720539237.385650) can0 425#0000
(1720539237.385747) can0 080#8B07
(1720539237.396293) can0 425#0000
(1720539237.396343) can0 080#8B07
(1720539237.405676) can0 425#0000
(1720539237.405716) can0 080#8B07
(1720539237.416244) can0 425#0000
(1720539237.416397) can0 080#8B07
(1720539237.425730) can0 425#0000
(1720539237.425781) can0 080#8C07
(1720539237.436194) can0 425#0000
(1720539237.436365) can0 080#8C07
(1720539237.445676) can0 425#0000
(1720539237.445731) can0 080#8C07
(1720539237.456224) can0 425#0000
(1720539237.456397) can0 080#8C07
(1720539237.465641) can0 425#0000
(1720539237.465794) can0 080#8907
(1720539237.476297) can0 425#0000
(1720539237.476408) can0 080#8907
(1720539237.485641) can0 425#0000
(1720539237.485740) can0 080#8B07
(1720539237.496222) can0 425#0000
(1720539237.496398) can0 080#8B07
(1720539237.505618) can0 425#0000
(1720539237.505751) can0 080#8B07
(1720539237.516291) can0 425#0000
(1720539237.516341) can0 080#8B07
(1720539237.525652) can0 425#0000
(1720539237.525731) can0 080#8C07
(1720539237.536225) can0 425#0000
(1720539237.536399) can0 080#8C07
(1720539237.545613) can0 425#0000
(1720539237.545751) can0 080#8C07
(1720539237.556236) can0 425#0000
(1720539237.556385) can0 080#8C07
(1720539237.565650) can0 425#0000
(1720539237.565743) can0 080#8A07
(1720539237.576255) can0 425#0000
(1720539237.576399) can0 080#8A07
(1720539237.585651) can0 425#0000
(1720539237.585753) can0 080#8807
(1720539237.596262) can0 425#0000
(1720539237.596368) can0 080#8807
(1720539237.605676) can0 425#0000
(1720539237.605738) can0 080#8B07
(1720539237.616247) can0 425#0000
(1720539237.616400) can0 080#8B07
(1720539237.625608) can0 425#0000
(1720539237.625753) can0 080#8B07
(1720539237.636229) can0 425#0000
(1720539237.636368) can0 080#8B07
(1720539237.645645) can0 425#0000
(1720539237.645744) can0 080#8A07
(1720539237.656181) can0 425#0000
(1720539237.656401) can0 080#8A07
(1720539237.665609) can0 425#0000
(1720539237.665796) can0 080#8C07
(1720539237.676194) can0 425#0000
(1720539237.676368) can0 080#8C07
(1720539237.685650) can0 425#0000
(1720539237.685745) can0 080#8D07
(1720539237.696245) can0 425#0000
(1720539237.696400) can0 080#8D07
(1720539237.705642) can0 425#0000
(1720539237.705754) can0 080#8C07
(1720539237.716241) can0 425#0000
(1720539237.716369) can0 080#8C07
(1720539237.725651) can0 425#0000
(1720539237.725743) can0 080#8C07
(1720539237.736249) can0 425#0000
(1720539237.736325) can0 080#8C07
(1720539237.745616) can0 425#0000
(1720539237.745755) can0 080#8B07
(1720539237.756224) can0 425#0000
(1720539237.756371) can0 080#8B07
(1720539237.765681) can0 425#0000
(1720539237.765723) can0 080#8A07
(1720539237.776232) can0 425#0000
(1720539237.776341) can0 080#8A07
(1720539237.785615) can0 425#0000
(1720539237.785755) can0 080#8C07
(1720539237.796245) can0 425#0000
(1720539237.796371) can0 080#8C07
(1720539237.805651) can0 425#0000
(1720539237.805743) can0 080#8D07
(1720539237.816250) can0 425#0000
(1720539237.816403) can0 080#8D07
(1720539237.825671) can0 425#0000
(1720539237.825720) can0 080#8B07
(1720539237.836220) can0 425#0000
(1720539237.836371) can0 080#8B07
(1720539237.845651) can0 425#0000
(1720539237.845744) can0 080#8C07
(1720539237.856248) can0 425#0000
(1720539237.856339) can0 080#8C07
(1720539237.865614) can0 425#0000
(1720539237.865761) can0 080#8A07
(1720539237.876264) can0 425#0000
(1720539237.876371) can0 080#8A07
(1720539237.885681) can0 425#0000
(1720539237.885742) can0 080#8C07
(1720539237.896249) can0 425#0000
(1720539237.896404) can0 080#8C07
(1720539237.905646) can0 425#0000
(1720539237.905756) can0 080#8307
(1720539237.916200) can0 425#0000
(1720539237.916372) can0 080#8307
(1720539237.925628) can0 425#0000
(1720539237.925748) can0 080#8C07
(1720539237.936231) can0 425#0000
(1720539237.936405) can0 080#8C07
(1720539237.945642) can0 425#0000
(1720539237.945758) can0 080#8A07
(1720539237.956203) can0 425#0000
(1720539237.956374) can0 080#8A07
(1720539237.965608) can0 425#0000
(1720539237.965747) can0 080#8B07
(1720539237.976250) can0 425#0000
(1720539237.976405) can0 080#8B07
(1720539237.985619) can0 425#0000
(1720539237.985758) can0 080#8B07
(1720539237.996263) can0 425#0000
(1720539237.996373) can0 080#8B07
(1720539238.005609) can0 425#0000
(1720539238.005750) can0 080#8C07
(1720539238.016249) can0 425#0000
(1720539238.016405) can0 080#8C07
(1720539238.025618) can0 425#0000
(1720539238.025759) can0 080#8B07
(1720539238.036221) can0 425#0000
(1720539238.036373) can0 080#8B07
(1720539238.045651) can0 425#0000
(1720539238.045748) can0 080#8D07
(1720539238.056233) can0 425#0000
(1720539238.056405) can0 080#8D07
(1720539238.065652) can0 425#0000
(1720539238.065759) can0 080#8707
(1720539238.076247) can0 425#0000
(1720539238.076374) can0 080#8707
(1720539238.085644) can0 425#0000
(1720539238.085750) can0 080#8B07
(1720539238.096234) can0 425#0000
(1720539238.096407) can0 080#8B07
(1720539238.105649) can0 425#0000
(1720539238.105760) can0 080#8C07
(1720539238.116205) can0 425#0000
(1720539238.116375) can0 080#8C07
(1720539238.125684) can0 425#0000
(1720539238.125724) can0 080#8C07
(1720539238.136253) can0 425#0000
(1720539238.136342) can0 080#8C07
(1720539238.145620) can0 425#0000
(1720539238.145761) can0 080#8907
(1720539238.156223) can0 425#0000
(1720539238.156375) can0 080#8907
(1720539238.165614) can0 425#0000
(1720539238.165752) can0 080#8907
(1720539238.176252) can0 425#0000
(1720539238.176408) can0 080#8907
(1720539238.185620) can0 425#0000
(1720539238.185762) can0 080#8A07
(1720539238.196258) can0 425#0000
(1720539238.196376) can0 080#8A07
(1720539238.205651) can0 425#0000
(1720539238.205751) can0 080#8907
(1720539238.216255) can0 425#0000
(1720539238.216332) can0 080#8907
(1720539238.225650) can0 425#0000
(1720539238.225761) can0 080#8A07
(1720539238.236248) can0 425#0000
(1720539238.236377) can0 080#8A07
(1720539238.245620) can0 425#0000
(1720539238.245752) can0 080#7B07
(1720539238.256237) can0 425#0000
(1720539238.256410) can0 080#7B07
(1720539238.265620) can0 425#0000
(1720539238.265762) can0 080#8807
(1720539238.276206) can0 425#0000
(1720539238.276335) can0 080#8807
(1720539238.285644) can0 425#0000
(1720539238.285753) can0 080#8B07
(1720539238.296236) can0 425#0000
(1720539238.296345) can0 080#8B07
(1720539238.305728) can0 425#0000
(1720539238.305806) can0 080#8B07
(1720539238.316227) can0 425#0000
(1720539238.316377) can0 080#8B07
(1720539238.325617) can0 425#0000
(1720539238.325754) can0 080#8A07
(1720539238.336256) can0 425#0000
(1720539238.336345) can0 080#8A07
(1720539238.345626) can0 425#0000
(1720539238.345764) can0 080#8B07
(1720539238.356225) can0 425#0000
(1720539238.356336) can0 080#8B07
(1720539238.365644) can0 425#0000
(1720539238.365754) can0 080#8807
(1720539238.376257) can0 425#0000
(1720539238.376411) can0 080#8807
(1720539238.385622) can0 425#0000
(1720539238.385764) can0 080#8A07
(1720539238.396270) can0 425#0000
(1720539238.396379) can0 080#8A07
(1720539238.405614) can0 425#0000
(1720539238.405754) can0 080#8C07
(1720539238.416238) can0 425#0000
(1720539238.416411) can0 080#8C07
(1720539238.425623) can0 425#0000
(1720539238.425764) can0 080#8A07
(1720539238.436209) can0 425#0000
(1720539238.436380) can0 080#8A07
(1720539238.445615) can0 425#0000
(1720539238.445754) can0 080#8A07
(1720539238.456238) can0 425#0000
(1720539238.456335) can0 080#8A07
(1720539238.465656) can0 425#0000
(1720539238.465767) can0 080#8807
(1720539238.476228) can0 425#0000
(1720539238.476380) can0 080#8807
(1720539238.485628) can0 425#0000
(1720539238.485756) can0 080#8A07
(1720539238.496238) can0 425#0000
(1720539238.496335) can0 080#8A07
(1720539238.505636) can0 425#0000
(1720539238.505767) can0 080#8B07
(1720539238.516210) can0 425#0000
(1720539238.516369) can0 080#8B07
(1720539238.525648) can0 425#0000
(1720539238.525756) can0 080#8A07
(1720539238.536261) can0 425#0000
(1720539238.536326) can0 080#8A07
(1720539238.545687) can0 425#0000
(1720539238.545766) can0 080#8B07
(1720539238.556230) can0 425#0000
(1720539238.556369) can0 080#8B07
(1720539238.565677) can0 425#0000
(1720539238.565757) can0 080#8807
(1720539238.576259) can0 425#0000
(1720539238.576326) can0 080#8807
(1720539238.585640) can0 425#0000
(1720539238.585767) can0 080#8707
(1720539238.596212) can0 425#0000
(1720539238.596371) can0 080#8707
(1720539238.605648) can0 425#0000
(1720539238.605756) can0 080#8B07
(1720539238.616240) can0 425#0000
(1720539238.616337) can0 080#8B07
(1720539238.625637) can0 425#0000
(1720539238.625754) can0 080#8C07
(1720539238.636229) can0 425#0000
(1720539238.636370) can0 080#8C07
(1720539238.645632) can0 425#0000
(1720539238.645757) can0 080#8D07
(1720539238.656261) can0 425#0000
(1720539238.656402) can0 080#8D07
(1720539238.665659) can0 425#0000
(1720539238.665769) can0 080#8A07
(1720539238.676231) can0 425#0000
(1720539238.676370) can0 080#8A07
(1720539238.685630) can0 425#0000
(1720539238.685759) can0 080#8C07
(1720539238.696261) can0 425#0000
(1720539238.696402) can0 080#8C07
(1720539238.705639) can0 425#0000
(1720539238.705769) can0 080#8B07
(1720539238.716231) can0 425#0000
(1720539238.716371) can0 080#8B07
(1720539238.725651) can0 425#0000
(1720539238.725758) can0 080#8B07
(1720539238.736244) can0 425#0000
(1720539238.736339) can0 080#8B07
(1720539238.745643) can0 425#0000
(1720539238.745769) can0 080#8B07
(1720539238.756253) can0 425#0000
(1720539238.756371) can0 080#8B07
(1720539238.765646) can0 425#0000
(1720539238.765759) can0 080#8A07
(1720539238.776239) can0 425#0000
(1720539238.776404) can0 080#8A07
(1720539238.785640) can0 425#0000
(1720539238.785769) can0 080#8C07
(1720539238.796210) can0 425#0000
(1720539238.796373) can0 080#8C07
(1720539238.805685) can0 425#0000
(1720539238.805748) can0 080#8B07
(1720539238.816236) can0 425#0000
(1720539238.816395) can0 080#8B07
(1720539238.825641) can0 425#0000
(1720539238.825769) can0 080#8C07
(1720539238.836232) can0 425#0000
(1720539238.836373) can0 080#8C07
(1720539238.845636) can0 425#0000
(1720539238.845762) can0 080#8D07
(1720539238.856263) can0 425#0000
(1720539238.856342) can0 080#8D07
(1720539238.865641) can0 425#0000
(1720539238.865772) can0 080#8807
(1720539238.876234) can0 425#0000
(1720539238.876374) can0 080#8807
(1720539238.885652) can0 425#0000
(1720539238.885761) can0 080#8B07
(1720539238.896265) can0 425#0000
(1720539238.896331) can0 080#8B07
(1720539238.905661) can0 425#0000
(1720539238.905771) can0 080#8407
(1720539238.916216) can0 425#0000
(1720539238.916332) can0 080#8407
(1720539238.925655) can0 425#0000
(1720539238.925762) can0 080#8A07
(1720539238.936267) can0 425#0000
(1720539238.936410) can0 080#8A07
(1720539238.945733) can0 425#0000
(1720539238.945774) can0 080#8B07
(1720539238.956238) can0 425#0000
(1720539238.956377) can0 080#8B07
(1720539238.965634) can0 425#0000
(1720539238.965762) can0 080#8A07
(1720539238.976357) can0 425#0000
(1720539238.976389) can0 080#8A07
(1720539238.985645) can0 425#0000
(1720539238.985773) can0 080#8B07
(1720539238.996296) can0 425#0000
(1720539238.996375) can0 080#8B07
(1720539239.005638) can0 425#0000
(1720539239.005764) can0 080#8B07
(1720539239.016265) can0 425#0000
(1720539239.016342) can0 080#8B07
(1720539239.025645) can0 425#0000
(1720539239.025774) can0 080#8C07
(1720539239.036243) can0 425#0000
(1720539239.036376) can0 080#8C07
(1720539239.045723) can0 425#0000
(1720539239.045743) can0 080#8C07
(1720539239.056287) can0 425#0000
(1720539239.056408) can0 080#8C07
(1720539239.065736) can0 425#0000
(1720539239.065739) can0 080#8807
(1720539239.076311) can0 425#0000
(1720539239.076382) can0 080#8807
(1720539239.085746) can0 425#0000
(1720539239.085749) can0 080#8A07
(1720539239.096246) can0 425#0000
(1720539239.096410) can0 080#8A07
(1720539239.105771) can0 425#0000
(1720539239.105803) can0 080#8B07
(1720539239.116221) can0 425#0000
(1720539239.116381) can0 080#8B07
(1720539239.125637) can0 425#0000
(1720539239.125764) can0 080#8B07
(1720539239.136251) can0 425#0000
(1720539239.136345) can0 080#8B07
(1720539239.145645) can0 425#0000
(1720539239.145775) can0 080#8A07
(1720539239.156238) can0 425#0000
(1720539239.156334) can0 080#8A07
(1720539239.165695) can0 425#0000
(1720539239.165748) can0 080#8907
(1720539239.176249) can0 425#0000
(1720539239.176345) can0 080#8907
(1720539239.185704) can0 425#0000
(1720539239.185764) can0 080#8A07
(1720539239.196271) can0 425#0000
(1720539239.196378) can0 080#8A07
(1720539239.205742) can0 425#0000
(1720539239.205754) can0 080#8B07
(1720539239.216361) can0 425#0000
(1720539239.216394) can0 080#8B07
(1720539239.225723) can0 425#0000
(1720539239.225738) can0 080#8B07
(1720539239.236220) can0 425#0000
(1720539239.236381) can0 080#8B07
(1720539239.245756) can0 425#0000
(1720539239.245789) can0 080#7907
(1720539239.256252) can0 425#0000
(1720539239.256346) can0 080#7907
(1720539239.265668) can0 425#0000
(1720539239.265776) can0 080#8907
(1720539239.276222) can0 425#0000
(1720539239.276381) can0 080#8907
(1720539239.285659) can0 425#0000
(1720539239.285767) can0 080#8B07
(1720539239.296283) can0 425#0000
(1720539239.296328) can0 080#8B07
(1720539239.305650) can0 425#0000
(1720539239.305777) can0 080#8B07
(1720539239.316336) can0 425#0000
(1720539239.316367) can0 080#8B07
(1720539239.325700) can0 425#0000
(1720539239.325744) can0 080#8B07
(1720539239.336294) can0 425#0000
(1720539239.336373) can0 080#8B07
(1720539239.345657) can0 425#0000
(1720539239.345764) can0 080#8A07
(1720539239.356331) can0 425#0000
(1720539239.356334) can0 080#8A07
(1720539239.365648) can0 425#0000
(1720539239.365779) can0 080#8907
(1720539239.376242) can0 425#0000
(1720539239.376337) can0 080#8907
(1720539239.385639) can0 425#0000
(1720539239.385768) can0 080#8B07
(1720539239.396254) can0 425#0000
(1720539239.396348) can0 080#8B07
(1720539239.405648) can0 425#0000
(1720539239.405779) can0 080#8B07
(1720539239.416315) can0 425#0000
(1720539239.416384) can0 080#8B07
(1720539239.425640) can0 425#0000
(1720539239.425769) can0 080#8B07
(1720539239.436289) can0 425#0000
(1720539239.436344) can0 080#8B07
(1720539239.445675) can0 425#0000
(1720539239.445781) can0 080#8907
(1720539239.456314) can0 425#0000
(1720539239.456363) can0 080#8907
(1720539239.465740) can0 425#0000
(1720539239.465772) can0 080#8A07
(1720539239.476353) can0 425#0000
(1720539239.476389) can0 080#8A07
(1720539239.485653) can0 425#0000
(1720539239.485781) can0 080#8C07
(1720539239.496340) can0 425#0000
(1720539239.496352) can0 080#8C07
(1720539239.505716) can0 425#0000
(1720539239.505759) can0 080#8A07
(1720539239.509538) can0 100#00000000
(1720539239.516325) can0 425#0000
(1720539239.516491) can0 080#8A07
(1720539239.525659) can0 425#0000
(1720539239.525768) can0 080#8C07
(1720539239.536363) can0 425#0000
(1720539239.536367) can0 080#8C07
(1720539239.545669) can0 425#0000
(1720539239.545781) can0 080#8B07
(1720539239.556287) can0 425#0000
(1720539239.556466) can0 080#8B07
(1720539239.565661) can0 425#0000
(1720539239.565771) can0 080#8A07
(1720539239.576328) can0 425#0000
(1720539239.576370) can0 080#8A07
(1720539239.585673) can0 425#0000
(1720539239.585781) can0 080#8707
(1720539239.596315) can0 425#0000
(1720539239.596356) can0 080#8707
(1720539239.605671) can0 425#0000
(1720539239.605783) can0 080#8B07
(1720539239.609640) can0 100#00000000
(1720539239.616184) can0 425#0000
(1720539239.616481) can0 080#8B07
(1720539239.625661) can0 425#0000
(1720539239.625755) can0 080#8C07
(1720539239.636300) can0 425#0000
(1720539239.636341) can0 080#8C07
(1720539239.645686) can0 425#0000
(1720539239.645771) can0 080#8D07
(1720539239.656306) can0 425#0000
(1720539239.656518) can0 080#8D07
(1720539239.665644) can0 425#0000
(1720539239.665760) can0 080#8B07
(1720539239.676278) can0 425#0000
(1720539239.676321) can0 080#8B07
(1720539239.685780) can0 425#0000
(1720539239.685812) can0 080#8E07
(1720539239.696283) can0 425#0000
(1720539239.696498) can0 080#8E07
(1720539239.705741) can0 425#0000
(1720539239.705743) can0 080#8D07
(1720539239.709734) can0 100#0000FA00
(1720539239.716286) can0 425#0000
(1720539239.716379) can0 080#8D07
(1720539239.725738) can0 425#0000
(1720539239.725741) can0 080#8C07
(1720539239.736280) can0 425#0000
(1720539239.736355) can0 080#8C07
(1720539239.745751) can0 425#0000
(1720539239.745783) can0 080#8C07
(1720539239.756349) can0 425#0000
(1720539239.756384) can0 080#8C07
(1720539239.765725) can0 425#0000
(1720539239.765770) can0 080#8907
(1720539239.776241) can0 425#0000
(1720539239.776337) can0 080#8907
(1720539239.785780) can0 425#0000
(1720539239.785811) can0 080#8B07
(1720539239.796215) can0 425#0000
(1720539239.796469) can0 080#8B07
(1720539239.805665) can0 425#0000
(1720539239.805774) can0 080#8B07
(1720539239.809717) can0 100#0000F401
(1720539239.816227) can0 425#0000
(1720539239.816393) can0 080#8B07
(1720539239.825723) can0 425#0000
(1720539239.825775) can0 080#8B07
(1720539239.836348) can0 425#0000
(1720539239.836380) can0 080#8B07
(1720539239.845673) can0 425#0000
(1720539239.845785) can0 080#8C07
(1720539239.856310) can0 425#0000
(1720539239.856322) can0 080#8C07
(1720539239.865712) can0 425#0000
(1720539239.865765) can0 080#8B07
(1720539239.876204) can0 425#0000
(1720539239.876350) can0 080#8B07
(1720539239.885685) can0 425#0000
(1720539239.885760) can0 080#8C07
(1720539239.896208) can0 425#0000
(1720539239.896351) can0 080#8C07
(1720539239.905741) can0 425#0000
(1720539239.905772) can0 080#8807
(1720539239.909758) can0 100#0000EE02
(1720539239.916376) can0 425#0000
(1720539239.916413) can0 080#8807
(1720539239.925736) can0 425#0000
(1720539239.925766) can0 080#8A07
(1720539239.936324) can0 425#0000
(1720539239.936358) can0 080#8A07
(1720539239.945712) can0 425#0000
(1720539239.945753) can0 080#8A07
(1720539239.956326) can0 425#0000
(1720539239.956395) can0 080#8A07
(1720539239.965674) can0 425#0000
(1720539239.965774) can0 080#8A07
(1720539239.976328) can0 425#0000
(1720539239.976402) can0 080#8A07
(1720539239.985738) can0 425#0000
(1720539239.985777) can0 080#8D07
(1720539239.996381) can0 425#0000
(1720539239.996412) can0 080#8D07
(1720539240.005716) can0 425#0000
(1720539240.005763) can0 080#8C07
(1720539240.009777) can0 100#0000E803
(1720539240.016280) can0 425#0000
(1720539240.016358) can0 080#8C07
(1720539240.025647) can0 425#0000
(1720539240.025788) can0 080#8C07
(1720539240.036249) can0 425#0000
(1720539240.036402) can0 080#8C07
(1720539240.045729) can0 425#0000
(1720539240.045739) can0 080#8E07
(1720539240.056295) can0 425#0000
(1720539240.056342) can0 080#8E07
(1720539240.065654) can0 425#0000
(1720539240.065773) can0 080#8A07
(1720539240.076306) can0 425#0000
(1720539240.076397) can0 080#8A07
(1720539240.085743) can0 425#0000
(1720539240.085775) can0 080#8C07
(1720539240.096317) can0 425#0000
(1720539240.096349) can0 080#8C07
(1720539240.105744) can0 425#0000
(1720539240.105747) can0 080#8B07
(1720539240.109833) can0 100#0000E204
(1720539240.116231) can0 425#0000
(1720539240.116391) can0 080#8B07
(1720539240.125675) can0 425#0000
(1720539240.125779) can0 080#8D07
(1720539240.136301) can0 425#0000
(1720539240.136312) can0 080#8D07
(1720539240.145770) can0 425#0000
(1720539240.145801) can0 080#8507
(1720539240.156285) can0 425#0000
(1720539240.156467) can0 080#8507
(1720539240.165667) can0 425#0000
(1720539240.165777) can0 080#7707
(1720539240.176289) can0 425#0000
(1720539240.176454) can0 080#7707
(1720539240.185669) can0 425#0000
(1720539240.185777) can0 080#6C07
(1720539240.196300) can0 425#0000
(1720539240.196499) can0 080#6C07
(1720539240.205669) can0 425#0000
(1720539240.205777) can0 080#6207
(1720539240.209873) can0 100#0000DC05
(1720539240.216302) can0 425#0000
(1720539240.216394) can0 080#6207
(1720539240.225726) can0 425#0000
(1720539240.225735) can0 080#5907
(1720539240.236252) can0 425#0000
(1720539240.236373) can0 080#5907
(1720539240.245740) can0 425#0000
(1720539240.245776) can0 080#3F07
(1720539240.256222) can0 425#0000
(1720539240.256324) can0 080#3F07
(1720539240.265707) can0 425#0000
(1720539240.265750) can0 080#4607
(1720539240.276211) can0 425#0000
(1720539240.276357) can0 080#4607
(1720539240.285738) can0 425#0000
(1720539240.285769) can0 080#3F07
(1720539240.296373) can0 425#0000
(1720539240.296376) can0 080#3F07
(1720539240.305663) can0 425#0000
(1720539240.305792) can0 080#3707
(1720539240.309910) can0 100#0000D606
(1720539240.316320) can0 425#0000
(1720539240.316407) can0 080#3707
(1720539240.325742) can0 425#0000
(1720539240.325774) can0 080#3007
(1720539240.336300) can0 425#0000
(1720539240.336424) can0 080#3007
(1720539240.345672) can0 425#0000
(1720539240.345766) can0 080#2C07
(1720539240.356296) can0 425#0000
(1720539240.356358) can0 080#2C07
(1720539240.365689) can0 425#0000
(1720539240.365766) can0 080#2007
(1720539240.376307) can0 425#0000
(1720539240.376318) can0 080#2007
(1720539240.385738) can0 425#0000
(1720539240.385745) can0 080#1207
(1720539240.396222) can0 425#0000
(1720539240.396400) can0 080#1207
(1720539240.405781) can0 425#0000
(1720539240.405812) can0 080#0D07
(1720539240.409966) can0 100#0000D007
(1720539240.416237) can0 425#0000
(1720539240.416409) can0 080#0D07
(1720539240.425734) can0 425#0000
(1720539240.425745) can0 080#0D07
(1720539240.436222) can0 425#0000
(1720539240.436360) can0 080#0D07
(1720539240.445784) can0 425#0000
(1720539240.445787) can0 080#0E07
(1720539240.456222) can0 425#0000
(1720539240.456360) can0 080#0E07
(1720539240.465784) can0 425#0000
(1720539240.465787) can0 080#0B07
(1720539240.476284) can0 425#0000
(1720539240.476326) can0 080#0B07
(1720539240.485661) can0 425#0000
(1720539240.485780) can0 080#0607
(1720539240.496300) can0 425#0000
(1720539240.496361) can0 080#0607
(1720539240.505663) can0 425#0000
(1720539240.505782) can0 080#0107
(1720539240.510056) can0 100#0000CA08
(1720539240.516326) can0 425#0000
(1720539240.516397) can0 080#0107
(1720539240.525656) can0 425#0000
(1720539240.525786) can0 080#0007
(1720539240.536317) can0 425#0000
(1720539240.536325) can0 080#0007
(1720539240.545748) can0 425#0000
(1720539240.545750) can0 080#0007
(1720539240.556322) can0 425#0000
(1720539240.556492) can0 080#0007
(1720539240.565753) can0 425#0000
(1720539240.565756) can0 080#FC06
(1720539240.576225) can0 425#0000
(1720539240.576350) can0 080#FC06
(1720539240.585673) can0 425#0000
(1720539240.585770) can0 080#F306
(1720539240.596227) can0 425#0000
(1720539240.596393) can0 080#F306
(1720539240.605750) can0 425#0000
(1720539240.605753) can0 080#F606
(1720539240.610075) can0 100#0000C409
(1720539240.616218) can0 425#0000
(1720539240.616406) can0 080#F606
(1720539240.625750) can0 425#0000
(1720539240.625752) can0 080#F506
(1720539240.636305) can0 425#0000
(1720539240.636472) can0 080#F506
(1720539240.645777) can0 425#0000
(1720539240.645809) can0 080#F306
(1720539240.656326) can0 425#0000
(1720539240.656329) can0 080#F306
(1720539240.665675) can0 425#0000
(1720539240.665783) can0 080#EC06
(1720539240.676313) can0 425#0000
(1720539240.676325) can0 080#EC06
(1720539240.685680) can0 425#0000
(1720539240.685780) can0 080#E506
(1720539240.696304) can0 425#0000
(1720539240.696405) can0 080#E506
(1720539240.705678) can0 425#0000
(1720539240.705785) can0 080#DF06
(1720539240.710105) can0 100#0000BE0A
(1720539240.716313) can0 425#0000
(1720539240.716493) can0 080#DF06
(1720539240.725751) can0 425#0000
(1720539240.725753) can0 080#DD06
(1720539240.736315) can0 425#0000
(1720539240.736475) can0 080#DD06
(1720539240.745802) can0 425#0000
(1720539240.745805) can0 080#DA06
(1720539240.756366) can0 425#0000
(1720539240.756368) can0 080#DA06
(1720539240.765754) can0 425#0000
(1720539240.765756) can0 080#D506
(1720539240.776264) can0 425#0000
(1720539240.776385) can0 080#D506
(1720539240.785755) can0 425#0000
(1720539240.785787) can0 080#D506
(1720539240.796231) can0 425#0000
(1720539240.796408) can0 080#D506
(1720539240.805759) can0 425#0000
(1720539240.805761) can0 080#D006
(1720539240.810132) can0 100#0000B80B
(1720539240.816312) can0 425#0000
(1720539240.816350) can0 080#D006
(1720539240.825658) can0 425#0000
(1720539240.825800) can0 080#CF06
(1720539240.836263) can0 425#0000
(1720539240.836372) can0 080#CF06
(1720539240.845650) can0 425#0000
(1720539240.845791) can0 080#CF06
(1720539240.856306) can0 425#0000
(1720539240.856354) can0 080#CF06
(1720539240.865665) can0 425#0000
(1720539240.865786) can0 080#CC06
(1720539240.876309) can0 425#0000
(1720539240.876435) can0 080#CC06
(1720539240.885664) can0 425#0000
(1720539240.885785) can0 080#CD06
(1720539240.896294) can0 425#0000
(1720539240.896445) can0 080#CD06
(1720539240.905751) can0 425#0000
(1720539240.905782) can0 080#CB06
(1720539240.910203) can0 100#0000B20C
(1720539240.916342) can0 425#0000
(1720539240.916466) can0 080#CB06
(1720539240.925753) can0 425#0000
(1720539240.925756) can0 080#CA06
(1720539240.936225) can0 425#0000
(1720539240.936368) can0 080#CA06
(1720539240.945755) can0 425#0000
(1720539240.945758) can0 080#CB06
(1720539240.956330) can0 425#0000
(1720539240.956333) can0 080#CB06
(1720539240.965754) can0 425#0000
(1720539240.965757) can0 080#C706
(1720539240.976325) can0 425#0000
(1720539240.976551) can0 080#C706
(1720539240.985682) can0 425#0000
(1720539240.985787) can0 080#C906
(1720539240.996327) can0 425#0000
(1720539240.996330) can0 080#C906
(1720539241.005682) can0 425#0000
(1720539241.005788) can0 080#C806
(1720539241.010340) can0 100#0000AC0D
(1720539241.016303) can0 425#0000
(1720539241.016384) can0 080#C806
(1720539241.025671) can0 425#0000
(1720539241.025791) can0 080#C406
(1720539241.036271) can0 425#0000
(1720539241.036376) can0 080#C406
(1720539241.045750) can0 425#0000
(1720539241.045757) can0 080#C306
(1720539241.056234) can0 425#0000
(1720539241.056411) can0 080#C306
(1720539241.065790) can0 425#0000
(1720539241.065792) can0 080#BC06
(1720539241.076231) can0 425#0000
(1720539241.076369) can0 080#BC06
(1720539241.085791) can0 425#0000
(1720539241.085794) can0 080#B406
(1720539241.096232) can0 425#0000
(1720539241.096369) can0 080#B406
(1720539241.105795) can0 425#0000
(1720539241.105816) can0 080#A606
(1720539241.110271) can0 100#0000A60E
(1720539241.116286) can0 425#0000
(1720539241.116385) can0 080#A606
(1720539241.125747) can0 425#0000
(1720539241.125792) can0 080#9D06
(1720539241.136249) can0 425#0000
(1720539241.136378) can0 080#9D06
(1720539241.145654) can0 425#0000
(1720539241.145794) can0 080#9B06
(1720539241.156310) can0 425#0000
(1720539241.156497) can0 080#9B06
(1720539241.165672) can0 425#0000
(1720539241.165790) can0 080#9806
(1720539241.176295) can0 425#0000
(1720539241.176433) can0 080#9806
(1720539241.185709) can0 425#0000
(1720539241.185764) can0 080#9706
(1720539241.196334) can0 425#0000
(1720539241.196479) can0 080#9706
(1720539241.205740) can0 425#0000
(1720539241.205775) can0 080#9506
(1720539241.210449) can0 100#0000A00F
(1720539241.216323) can0 425#0000
(1720539241.216464) can0 080#9506
(1720539241.225753) can0 425#0000
(1720539241.225762) can0 080#9406
(1720539241.236250) can0 425#0000
(1720539241.236410) can0 080#9406
(1720539241.245753) can0 425#0000
(1720539241.245756) can0 080#7F06
(1720539241.256234) can0 425#0000
(1720539241.256405) can0 080#7F06
(1720539241.265683) can0 425#0000
(1720539241.265792) can0 080#8C06
(1720539241.276237) can0 425#0000
(1720539241.276363) can0 080#8C06
(1720539241.285684) can0 425#0000
(1720539241.285792) can0 080#8806
(1720539241.296237) can0 425#0000
(1720539241.296403) can0 080#8806
(1720539241.305766) can0 425#0000
(1720539241.305769) can0 080#8306
(1720539241.310390) can0 100#00009A10
(1720539241.316315) can0 425#0000
(1720539241.316474) can0 080#8306
(1720539241.325684) can0 425#0000
(1720539241.325793) can0 080#7D06
(1720539241.336317) can0 425#0000
(1720539241.336486) can0 080#7D06
(1720539241.345685) can0 425#0000
(1720539241.345793) can0 080#7606
(1720539241.356322) can0 425#0000
(1720539241.356331) can0 080#7606
(1720539241.365686) can0 425#0000
(1720539241.365794) can0 080#6F06
(1720539241.376322) can0 425#0000
(1720539241.376370) can0 080#6F06
(1720539241.385769) can0 425#0000
(1720539241.385802) can0 080#7006
(1720539241.396227) can0 425#0000
(1720539241.396416) can0 080#7006
(1720539241.405766) can0 425#0000
(1720539241.405769) can0 080#6D06
(1720539241.410516) can0 100#00009411
(1720539241.416333) can0 425#0000
(1720539241.416422) can0 080#6D06
(1720539241.425766) can0 425#0000
(1720539241.425769) can0 080#6E06
(1720539241.436237) can0 425#0000
(1720539241.436375) can0 080#6E06
(1720539241.445771) can0 425#0000
(1720539241.445773) can0 080#6F06
(1720539241.456318) can0 425#0000
(1720539241.456423) can0 080#6F06
(1720539241.465762) can0 425#0000
(1720539241.465764) can0 080#6C06
(1720539241.476316) can0 425#0000
(1720539241.476448) can0 080#6C06
(1720539241.485817) can0 425#0000
(1720539241.485855) can0 080#6606
(1720539241.496323) can0 425#0000
(1720539241.496358) can0 080#6606
(1720539241.505711) can0 425#0000
(1720539241.505783) can0 080#5F06
(1720539241.510549) can0 100#00008E12
(1720539241.516252) can0 425#0000
(1720539241.516425) can0 080#5F06
(1720539241.525660) can0 425#0000
(1720539241.525800) can0 080#5F06
(1720539241.536258) can0 425#0000
(1720539241.536418) can0 080#5F06
(1720539241.545764) can0 425#0000
(1720539241.545766) can0 080#5C06
(1720539241.556270) can0 425#0000
(1720539241.556439) can0 080#5C06
(1720539241.565676) can0 425#0000
(1720539241.565796) can0 080#4B06
(1720539241.576241) can0 425#0000
(1720539241.576460) can0 080#4B06
(1720539241.585675) can0 425#0000
(1720539241.585795) can0 080#3806
(1720539241.596325) can0 425#0000
(1720539241.596417) can0 080#3806
(1720539241.605710) can0 425#0000
(1720539241.605785) can0 080#2706
(1720539241.610529) can0 100#00008813
(1720539241.616271) can0 425#0000
(1720539241.616413) can0 080#2706
(1720539241.625690) can0 425#0000
(1720539241.625801) can0 080#1A06
(1720539241.636264) can0 425#0000
(1720539241.636408) can0 080#1A06
(1720539241.645710) can0 425#0000
(1720539241.645785) can0 080#1306
(1720539241.656241) can0 425#0000
(1720539241.656364) can0 080#1306
(1720539241.665727) can0 425#0000
(1720539241.665777) can0 080#0B06
(1720539241.676261) can0 425#0000
(1720539241.676407) can0 080#0B06
(1720539241.685690) can0 425#0000
(1720539241.685796) can0 080#FD05
(1720539241.696242) can0 425#0000
(1720539241.696407) can0 080#FD05
(1720539241.705690) can0 425#0000
(1720539241.705799) can0 080#F505
(1720539241.710574) can0 100#00008214
(1720539241.716275) can0 425#0000
(1720539241.716427) can0 080#F505
(1720539241.725676) can0 425#0000
(1720539241.725802) can0 080#F505
(1720539241.736266) can0 425#0000
(1720539241.736378) can0 080#F505
(1720539241.745709) can0 425#0000
(1720539241.745799) can0 080#F605
(1720539241.756277) can0 425#0000
(1720539241.756378) can0 080#F605
(1720539241.765691) can0 425#0000
(1720539241.765798) can0 080#F005
(1720539241.776229) can0 425#0000
(1720539241.776379) can0 080#F005
(1720539241.785689) can0 425#0000
(1720539241.785799) can0 080#EE05
(1720539241.796233) can0 425#0000
(1720539241.796378) can0 080#EE05
(1720539241.805693) can0 425#0000
(1720539241.805799) can0 080#ED05
(1720539241.810602) can0 100#00007C15
(1720539241.816270) can0 425#0000
(1720539241.816421) can0 080#ED05
(1720539241.825717) can0 425#0000
(1720539241.825765) can0 080#EC05
(1720539241.836264) can0 425#0000
(1720539241.836378) can0 080#EC05
(1720539241.845800) can0 425#0000
(1720539241.845803) can0 080#E905
(1720539241.856270) can0 425#0000
(1720539241.856379) can0 080#E905
(1720539241.865693) can0 425#0000
(1720539241.865789) can0 080#E405
(1720539241.876351) can0 425#0000
(1720539241.876384) can0 080#E405
(1720539241.885727) can0 425#0000
(1720539241.885768) can0 080#E005
(1720539241.896246) can0 425#0000
(1720539241.896381) can0 080#E005
(1720539241.905650) can0 425#0000
(1720539241.905788) can0 080#D905
(1720539241.910660) can0 100#00007616
(1720539241.916255) can0 425#0000
(1720539241.916423) can0 080#D905
(1720539241.925680) can0 425#0000
(1720539241.925802) can0 080#CF05
(1720539241.936248) can0 425#0000
(1720539241.936381) can0 080#CF05
(1720539241.945718) can0 425#0000
(1720539241.945801) can0 080#CC05
(1720539241.956246) can0 425#0000
(1720539241.956424) can0 080#CC05
(1720539241.965804) can0 425#0000
(1720539241.965842) can0 080#C905
(1720539241.976325) can0 425#0000
(1720539241.976356) can0 080#C905
(1720539241.985808) can0 425#0000
(1720539241.985846) can0 080#C905
(1720539241.996279) can0 425#0000
(1720539241.996424) can0 080#C905
(1720539242.005779) can0 425#0000
(1720539242.005812) can0 080#C605
(1720539242.010704) can0 100#00007017
(1720539242.016332) can0 425#0000
(1720539242.016412) can0 080#C605
(1720539242.025697) can0 425#0000
(1720539242.025802) can0 080#C505
(1720539242.036269) can0 425#0000
(1720539242.036370) can0 080#C505
(1720539242.045697) can0 425#0000
(1720539242.045803) can0 080#C405
(1720539242.056249) can0 425#0000
(1720539242.056370) can0 080#C405
(1720539242.065696) can0 425#0000
(1720539242.065803) can0 080#B905
(1720539242.076249) can0 425#0000
(1720539242.076414) can0 080#B905
(1720539242.085697) can0 425#0000
(1720539242.085803) can0 080#B505
(1720539242.096270) can0 425#0000
(1720539242.096371) can0 080#B505
(1720539242.105694) can0 425#0000
(1720539242.105805) can0 080#B805
(1720539242.110752) can0 100#00006A18
(1720539242.116244) can0 425#0000
(1720539242.116427) can0 080#B805
(1720539242.125775) can0 425#0000
(1720539242.125806) can0 080#B505
(1720539242.136238) can0 425#0000
(1720539242.136427) can0 080#B505
(1720539242.145698) can0 425#0000
(1720539242.145792) can0 080#B405
(1720539242.156275) can0 425#0000
(1720539242.156427) can0 080#B405
(1720539242.165720) can0 425#0000
(1720539242.165770) can0 080#B205
(1720539242.176289) can0 425#0000
(1720539242.176381) can0 080#B205
(1720539242.185655) can0 425#0000
(1720539242.185793) can0 080#B105
(1720539242.196338) can0 425#0000
(1720539242.196530) can0 080#B105
(1720539242.205699) can0 425#0000
(1720539242.205804) can0 080#AF05
(1720539242.210804) can0 100#00006419
(1720539242.216246) can0 425#0000
(1720539242.216401) can0 080#AF05
(1720539242.225768) can0 425#0000
(1720539242.225780) can0 080#AF05
(1720539242.236360) can0 425#0000
(1720539242.236363) can0 080#AF05
(1720539242.245757) can0 425#0000
(1720539242.245785) can0 080#9F05
(1720539242.256263) can0 425#0000
(1720539242.256393) can0 080#9F05
(1720539242.265669) can0 425#0000
(1720539242.265810) can0 080#AA05
(1720539242.276250) can0 425#0000
(1720539242.276385) can0 080#AA05
(1720539242.285784) can0 425#0000
(1720539242.285787) can0 080#A705
(1720539242.296249) can0 425#0000
(1720539242.296386) can0 080#A705
(1720539242.305779) can0 425#0000
(1720539242.305811) can0 080#A005
(1720539242.310812) can0 100#00005E1A
(1720539242.316271) can0 425#0000
(1720539242.316492) can0 080#A005
(1720539242.325654) can0 425#0000
(1720539242.325807) can0 080#9305
(1720539242.336271) can0 425#0000
(1720539242.336374) can0 080#9305
(1720539242.345699) can0 425#0000
(1720539242.345807) can0 080#8D05
(1720539242.356346) can0 425#0000
(1720539242.356349) can0 080#8D05
(1720539242.365656) can0 425#0000
(1720539242.365808) can0 080#8905
(1720539242.376253) can0 425#0000
(1720539242.376375) can0 080#8905
(1720539242.385721) can0 425#0000
(1720539242.385807) can0 080#8705
(1720539242.396335) can0 425#0000
(1720539242.396345) can0 080#8705
(1720539242.405782) can0 425#0000
(1720539242.405785) can0 080#8205
(1720539242.410907) can0 100#0000581B
(1720539242.416243) can0 425#0000
(1720539242.416524) can0 080#8205
(1720539242.425656) can0 425#0000
(1720539242.425808) can0 080#8005
(1720539242.436241) can0 425#0000
(1720539242.436388) can0 080#8005
(1720539242.445659) can0 425#0000
(1720539242.445808) can0 080#7D05
(1720539242.456245) can0 425#0000
(1720539242.456388) can0 080#7D05
(1720539242.465805) can0 425#0000
(1720539242.465842) can0 080#7605
(1720539242.476274) can0 425#0000
(1720539242.476388) can0 080#7605
(1720539242.485658) can0 425#0000
(1720539242.485810) can0 080#7105
(1720539242.496351) can0 425#0000
(1720539242.496371) can0 080#7105
(1720539242.505658) can0 425#0000
(1720539242.505809) can0 080#6F05
(1720539242.510972) can0 100#0000521C
(1720539242.516267) can0 425#0000
(1720539242.516405) can0 080#6F05
(1720539242.525692) can0 425#0000
(1720539242.525812) can0 080#6F05
(1720539242.536289) can0 425#0000
(1720539242.536395) can0 080#6F05
(1720539242.545684) can0 425#0000
(1720539242.545802) can0 080#7005
(1720539242.556277) can0 425#0000
(1720539242.556433) can0 080#7005
(1720539242.565702) can0 425#0000
(1720539242.565798) can0 080#6E05
(1720539242.576341) can0 425#0000
(1720539242.576351) can0 080#6E05
(1720539242.585659) can0 425#0000
(1720539242.585798) can0 080#5F05
(1720539242.596254) can0 425#0000
(1720539242.596391) can0 080#5F05
(1720539242.605703) can0 425#0000
(1720539242.605861) can0 080#5805
(1720539242.610960) can0 100#00004C1D
(1720539242.616250) can0 425#0000
(1720539242.616408) can0 080#5805
(1720539242.625715) can0 425#0000
(1720539242.625826) can0 080#5605
(1720539242.636269) can0 425#0000
(1720539242.636398) can0 080#5605
(1720539242.645694) can0 425#0000
(1720539242.645816) can0 080#5605
(1720539242.656254) can0 425#0000
(1720539242.656434) can0 080#5605
(1720539242.665759) can0 425#0000
(1720539242.665792) can0 080#5405
(1720539242.676332) can0 425#0000
(1720539242.676393) can0 080#5405
(1720539242.685649) can0 425#0000
(1720539242.685813) can0 080#5705
(1720539242.696257) can0 425#0000
(1720539242.696392) can0 080#5705
(1720539242.705651) can0 425#0000
(1720539242.705813) can0 080#5305
(1720539242.711082) can0 100#0000461E
(1720539242.716259) can0 425#0000
(1720539242.716423) can0 080#5305
(1720539242.725661) can0 425#0000
(1720539242.725812) can0 080#5005
(1720539242.736364) can0 425#0000
(1720539242.736373) can0 080#5005
(1720539242.745729) can0 425#0000
(1720539242.745772) can0 080#4E05
(1720539242.756256) can0 425#0000
(1720539242.756381) can0 080#4E05
(1720539242.765686) can0 425#0000
(1720539242.765813) can0 080#4705
(1720539242.776256) can0 425#0000
(1720539242.776425) can0 080#4705
(1720539242.785662) can0 425#0000
(1720539242.785814) can0 080#4505
(1720539242.796259) can0 425#0000
(1720539242.796382) can0 080#4505
(1720539242.805783) can0 425#0000
(1720539242.805786) can0 080#3F05
(1720539242.811105) can0 100#0000401F
(1720539242.816250) can0 425#0000
(1720539242.816437) can0 080#3F05
(1720539242.825767) can0 425#0000
(1720539242.825777) can0 080#3D05
(1720539242.836279) can0 425#0000
(1720539242.836393) can0 080#3D05
(1720539242.845663) can0 425#0000
(1720539242.845816) can0 080#3B05
(1720539242.856245) can0 425#0000
(1720539242.856394) can0 080#3B05
(1720539242.865663) can0 425#0000
(1720539242.865817) can0 080#3805
(1720539242.876346) can0 425#0000
(1720539242.876357) can0 080#3805
(1720539242.885663) can0 425#0000
(1720539242.885814) can0 080#2D05
(1720539242.896360) can0 425#0000
(1720539242.896363) can0 080#2D05
(1720539242.905749) can0 425#0000
(1720539242.905878) can0 080#2005
(1720539242.911171) can0 100#00003A20
(1720539242.916344) can0 425#0000
(1720539242.916508) can0 080#2005
(1720539242.925742) can0 425#0000
(1720539242.925884) can0 080#1805
(1720539242.936327) can0 425#0000
(1720539242.936490) can0 080#1805
(1720539242.945791) can0 425#0000
(1720539242.945811) can0 080#1805
(1720539242.956259) can0 425#0000
(1720539242.956395) can0 080#1805
(1720539242.965664) can0 425#0000
(1720539242.965804) can0 080#1505
(1720539242.976279) can0 425#0000
(1720539242.976397) can0 080#1505
(1720539242.985686) can0 425#0000
(1720539242.985804) can0 080#1105
(1720539242.996341) can0 425#0000
(1720539242.996516) can0 080#1105
(1720539243.005666) can0 425#0000
(1720539243.005805) can0 080#0E05
(1720539243.011150) can0 100#00003421
(1720539243.016293) can0 425#0000
(1720539243.016502) can0 080#0E05
(1720539243.025697) can0 425#0000
(1720539243.025816) can0 080#0905
(1720539243.036346) can0 425#0000
(1720539243.036504) can0 080#0905
(1720539243.045739) can0 425#0000
(1720539243.045781) can0 080#FE04
(1720539243.056358) can0 425#0000
(1720539243.056391) can0 080#FE04
(1720539243.065754) can0 425#0000
(1720539243.065885) can0 080#FA04
(1720539243.076261) can0 425#0000
(1720539243.076539) can0 080#FA04
(1720539243.085767) can0 425#0000
(1720539243.085820) can0 080#FA04
(1720539243.096261) can0 425#0000
(1720539243.096398) can0 080#FA04
(1720539243.105655) can0 425#0000
(1720539243.105818) can0 080#F004
(1720539243.111239) can0 100#00002E22
(1720539243.116265) can0 425#0000
(1720539243.116385) can0 080#F004
(1720539243.125666) can0 425#0000
(1720539243.125819) can0 080#EC04
(1720539243.136261) can0 425#0000
(1720539243.136387) can0 080#EC04
(1720539243.145688) can0 425#0000
(1720539243.145818) can0 080#EA04
(1720539243.156351) can0 425#0000
(1720539243.156514) can0 080#EA04
(1720539243.165667) can0 425#0000
(1720539243.165819) can0 080#E204
(1720539243.176349) can0 425#0000
(1720539243.176509) can0 080#E204
(1720539243.185670) can0 425#0000
(1720539243.185819) can0 080#DD04
(1720539243.196344) can0 425#0000
(1720539243.196467) can0 080#DD04
(1720539243.205742) can0 425#0000
(1720539243.205903) can0 080#D604
(1720539243.211348) can0 100#00002823
(1720539243.216353) can0 425#0000
(1720539243.216508) can0 080#D604
(1720539243.225747) can0 425#0000
(1720539243.225907) can0 080#D404
(1720539243.236346) can0 425#0000
(1720539243.236356) can0 080#D404
(1720539243.245764) can0 425#0000
(1720539243.245777) can0 080#C404
(1720539243.256254) can0 425#0000
(1720539243.256518) can0 080#C404
(1720539243.265755) can0 425#0000
(1720539243.265905) can0 080#CE04
(1720539243.276252) can0 425#0000
(1720539243.276400) can0 080#CE04
(1720539243.285676) can0 425#0000
(1720539243.285821) can0 080#CB04
(1720539243.296253) can0 425#0000
(1720539243.296400) can0 080#CB04
(1720539243.305669) can0 425#0000
(1720539243.305821) can0 080#C304
(1720539243.311308) can0 100#00002224
(1720539243.316297) can0 425#0000
(1720539243.316417) can0 080#C304
(1720539243.325662) can0 425#0000
(1720539243.325806) can0 080#BD04
(1720539243.336352) can0 425#0000
(1720539243.336355) can0 080#BD04
(1720539243.345702) can0 425#0000
(1720539243.345824) can0 080#B804
(1720539243.356317) can0 425#0000
(1720539243.356477) can0 080#B804
(1720539243.365685) can0 425#0000
(1720539243.365828) can0 080#B604
(1720539243.376298) can0 425#0000
(1720539243.376521) can0 080#B604
(1720539243.385726) can0 425#0000
(1720539243.385822) can0 080#B604
(1720539243.396291) can0 425#0000
(1720539243.396402) can0 080#B604
(1720539243.405698) can0 425#0000
(1720539243.405822) can0 080#B504
(1720539243.411453) can0 100#00001C25
(1720539243.416268) can0 425#0000
(1720539243.416486) can0 080#B504
(1720539243.425672) can0 425#0000
(1720539243.425824) can0 080#B304
(1720539243.436267) can0 425#0000
(1720539243.436390) can0 080#B304
(1720539243.445694) can0 425#0000
(1720539243.445822) can0 080#B404
(1720539243.456267) can0 425#0000
(1720539243.456390) can0 080#B404
(1720539243.465672) can0 425#0000
(1720539243.465823) can0 080#B004
(1720539243.476266) can0 425#0000
(1720539243.476390) can0 080#B004
(1720539243.485674) can0 425#0000
(1720539243.485844) can0 080#AF04
(1720539243.496267) can0 425#0000
(1720539243.496434) can0 080#AF04
(1720539243.505674) can0 425#0000
(1720539243.505825) can0 080#AA04
(1720539243.511429) can0 100#00001C25
(1720539243.516260) can0 425#0000
(1720539243.516421) can0 080#AA04
(1720539243.525664) can0 425#0000
(1720539243.525823) can0 080#A604
(1720539243.536283) can0 425#0000
(1720539243.536393) can0 080#A604
(1720539243.545709) can0 425#0000
(1720539243.545840) can0 080#A104
(1720539243.556303) can0 425#0000
(1720539243.556456) can0 080#A104
(1720539243.565779) can0 425#0000
(1720539243.565949) can0 080#A004
(1720539243.576331) can0 425#0000
(1720539243.576503) can0 080#A004
(1720539243.585779) can0 425#0000
(1720539243.585788) can0 080#9B04
(1720539243.596289) can0 425#0000
(1720539243.596404) can0 080#9B04
(1720539243.605674) can0 425#0000
(1720539243.605825) can0 080#A004
(1720539243.611443) can0 100#00001C25
(1720539243.616263) can0 425#0000
(1720539243.616422) can0 080#A004
(1720539243.625665) can0 425#0000
(1720539243.625810) can0 080#A004
(1720539243.636265) can0 425#0000
(1720539243.636421) can0 080#A004
(1720539243.645669) can0 425#0000
(1720539243.645813) can0 080#A004
(1720539243.656284) can0 425#0000
(1720539243.656394) can0 080#A004
(1720539243.665686) can0 425#0000
(1720539243.665828) can0 080#9E04
(1720539243.676259) can0 425#0000
(1720539243.676412) can0 080#9E04
(1720539243.685680) can0 425#0000
(1720539243.685819) can0 080#9F04
(1720539243.696268) can0 425#0000
(1720539243.696405) can0 080#9F04
(1720539243.705693) can0 425#0000
(1720539243.705814) can0 080#A004
(1720539243.711518) can0 100#00001C25
(1720539243.716266) can0 425#0000
(1720539243.716423) can0 080#A004
(1720539243.725654) can0 425#0000
(1720539243.725823) can0 080#A004
(1720539243.736266) can0 425#0000
(1720539243.736395) can0 080#A004
(1720539243.745655) can0 425#0000
(1720539243.745842) can0 080#A004
(1720539243.756302) can0 425#0000
(1720539243.756414) can0 080#A004
(1720539243.765689) can0 425#0000
(1720539243.765832) can0 080#9F04
(1720539243.776269) can0 425#0000
(1720539243.776408) can0 080#9F04
(1720539243.785670) can0 425#0000
(1720539243.785828) can0 080#9F04
(1720539243.796269) can0 425#0000
(1720539243.796407) can0 080#9F04
(1720539243.805697) can0 425#0000
(1720539243.805829) can0 080#9F04
(1720539243.811559) can0 100#00001C25
(1720539243.816285) can0 425#0000
(1720539243.816403) can0 080#9F04
(1720539243.825704) can0 425#0000
(1720539243.825833) can0 080#9F04
(1720539243.836271) can0 425#0000
(1720539243.836396) can0 080#9F04
(1720539243.845682) can0 425#0000
(1720539243.845828) can0 080#A004
(1720539243.856290) can0 425#0000
(1720539243.856396) can0 080#A004
(1720539243.865695) can0 425#0000
(1720539243.865830) can0 080#9D04
(1720539243.876273) can0 425#0000
(1720539243.876396) can0 080#9D04
(1720539243.885677) can0 425#0000
(1720539243.885829) can0 080#A104
(1720539243.896273) can0 425#0000
(1720539243.896397) can0 080#A104
(1720539243.905701) can0 425#0000
(1720539243.905830) can0 080#9F04
(1720539243.911638) can0 100#00001C25
(1720539243.916266) can0 425#0000
(1720539243.916453) can0 080#9F04
(1720539243.925700) can0 425#0000
(1720539243.925830) can0 080#9D04
(1720539243.936269) can0 425#0000
(1720539243.936453) can0 080#9D04
(1720539243.945702) can0 425#0000
(1720539243.945830) can0 080#9E04
(1720539243.956262) can0 425#0000
(1720539243.956410) can0 080#9E04
(1720539243.965699) can0 425#0000
(1720539243.965830) can0 080#9F04
(1720539243.976261) can0 425#0000
(1720539243.976409) can0 080#9F04
(1720539243.985678) can0 425#0000
(1720539243.985831) can0 080#9F04
(1720539243.996262) can0 425#0000
(1720539243.996410) can0 080#9F04
(1720539244.005707) can0 425#0000
(1720539244.005832) can0 080#9F04
(1720539244.011672) can0 100#00001C25
(1720539244.016276) can0 425#0000
(1720539244.016411) can0 080#9F04
(1720539244.025699) can0 425#0000
(1720539244.025819) can0 080#9E04
(1720539244.036291) can0 425#0000
(1720539244.036411) can0 080#9E04
(1720539244.045699) can0 425#0000
(1720539244.045819) can0 080#9F04
(1720539244.056275) can0 425#0000
(1720539244.056411) can0 080#9F04
(1720539244.065680) can0 425#0000
(1720539244.065820) can0 080#9C04
(1720539244.076298) can0 425#0000
(1720539244.076412) can0 080#9C04
(1720539244.085681) can0 425#0000
(1720539244.085820) can0 080#9E04
(1720539244.096279) can0 425#0000
(1720539244.096455) can0 080#9E04
(1720539244.105703) can0 425#0000
(1720539244.105820) can0 080#9D04
(1720539244.111727) can0 100#00001C25
(1720539244.116275) can0 425#0000
(1720539244.116412) can0 080#9D04
(1720539244.125669) can0 425#0000
(1720539244.125833) can0 080#9D04
(1720539244.136297) can0 425#0000
(1720539244.136480) can0 080#9D04
(1720539244.145669) can0 425#0000
(1720539244.145833) can0 080#9E04
(1720539244.156275) can0 425#0000
(1720539244.156455) can0 080#9E04
(1720539244.165708) can0 425#0000
(1720539244.165834) can0 080#9E04
(1720539244.176295) can0 425#0000
(1720539244.176413) can0 080#9E04
(1720539244.185676) can0 425#0000
(1720539244.185835) can0 080#9D04
(1720539244.196277) can0 425#0000
(1720539244.196413) can0 080#9D04
(1720539244.205695) can0 425#0000
(1720539244.205833) can0 080#9E04
(1720539244.211772) can0 100#00001C25
(1720539244.216276) can0 425#0000
(1720539244.216402) can0 080#9E04
(1720539244.225683) can0 425#0000
(1720539244.225834) can0 080#A004
(1720539244.236277) can0 425#0000
(1720539244.236403) can0 080#A004
(1720539244.245684) can0 425#0000
(1720539244.245835) can0 080#9004
(1720539244.256301) can0 425#0000
(1720539244.256402) can0 080#9004
(1720539244.265702) can0 425#0000
(1720539244.265835) can0 080#9C04
(1720539244.276278) can0 425#0000
(1720539244.276403) can0 080#9C04
(1720539244.285703) can0 425#0000
(1720539244.285836) can0 080#9D04
(1720539244.296279) can0 425#0000
(1720539244.296403) can0 080#9D04
(1720539244.305686) can0 425#0000
(1720539244.305835) can0 080#9D04
(1720539244.311837) can0 100#00001C25
(1720539244.316268) can0 425#0000
(1720539244.316415) can0 080#9D04
(1720539244.325708) can0 425#0000
(1720539244.325875) can0 080#9E04
(1720539244.336267) can0 425#0000
(1720539244.336416) can0 080#9E04
(1720539244.345685) can0 425#0000
(1720539244.345836) can0 080#A004
(1720539244.356265) can0 425#0000
(1720539244.356416) can0 080#A004
(1720539244.365688) can0 425#0000
(1720539244.365837) can0 080#9C04
(1720539244.376305) can0 425#0000
(1720539244.376378) can0 080#9C04
(1720539244.385685) can0 425#0000
(1720539244.385837) can0 080#9D04
(1720539244.396270) can0 425#0000
(1720539244.396416) can0 080#9D04
(1720539244.405740) can0 425#0000
(1720539244.405833) can0 080#9E04
(1720539244.411826) can0 100#00001C25
(1720539244.416304) can0 425#0000
(1720539244.416417) can0 080#9E04
(1720539244.425710) can0 425#0000
(1720539244.425825) can0 080#9D04
(1720539244.436300) can0 425#0000
(1720539244.436417) can0 080#9D04
(1720539244.445712) can0 425#0000
(1720539244.445825) can0 080#9E04
(1720539244.456282) can0 425#0000
(1720539244.456418) can0 080#9E04
(1720539244.465770) can0 425#0000
(1720539244.465832) can0 080#9C04
(1720539244.476280) can0 425#0000
(1720539244.476417) can0 080#9C04
(1720539244.485686) can0 425#0000
(1720539244.485826) can0 080#9D04
(1720539244.496281) can0 425#0000
(1720539244.496417) can0 080#9D04
(1720539244.505687) can0 425#0000
(1720539244.505827) can0 080#9E04
(1720539244.511939) can0 100#00001C25
(1720539244.516251) can0 425#0000
(1720539244.516412) can0 080#9E04
(1720539244.525660) can0 425#0000
(1720539244.525844) can0 080#9E04
(1720539244.536289) can0 425#0000
(1720539244.536418) can0 080#9E04
(1720539244.545678) can0 425#0000
(1720539244.545840) can0 080#9E04
(1720539244.556372) can0 425#0000
(1720539244.556383) can0 080#9E04
(1720539244.565711) can0 425#0000
(1720539244.565838) can0 080#9C04
(1720539244.576282) can0 425#0000
(1720539244.576406) can0 080#9C04
(1720539244.585687) can0 425#0000
(1720539244.585839) can0 080#9804
(1720539244.596286) can0 425#0000
(1720539244.596420) can0 080#9804
(1720539244.605689) can0 425#0000
(1720539244.605839) can0 080#9D04
(1720539244.611990) can0 100#00001C25
(1720539244.616268) can0 425#0000
(1720539244.616436) can0 080#9D04
(1720539244.625716) can0 425#0000
(1720539244.625838) can0 080#9F04
(1720539244.636299) can0 425#0000
(1720539244.636409) can0 080#9F04
(1720539244.645696) can0 425#0000
(1720539244.645855) can0 080#9F04
(1720539244.656302) can0 425#0000
(1720539244.656428) can0 080#9F04
(1720539244.665675) can0 425#0000
(1720539244.665846) can0 080#9E04
(1720539244.676272) can0 425#0000
(1720539244.676420) can0 080#9E04
(1720539244.685692) can0 425#0000
(1720539244.685842) can0 080#9D04
(1720539244.696373) can0 425#0000
(1720539244.696383) can0 080#9D04
(1720539244.705693) can0 425#0000
(1720539244.705843) can0 080#9E04
(1720539244.712012) can0 100#00001C25
(1720539244.716371) can0 425#0000
(1720539244.716385) can0 080#9E04
(1720539244.725783) can0 425#0000
(1720539244.725925) can0 080#9E04
(1720539244.736392) can0 425#0000
(1720539244.736413) can0 080#9E04
(1720539244.745769) can0 425#0000
(1720539244.745831) can0 080#9F04
(1720539244.756288) can0 425#0000
(1720539244.756423) can0 080#9F04
(1720539244.765714) can0 425#0000
(1720539244.765829) can0 080#9D04
(1720539244.776286) can0 425#0000
(1720539244.776423) can0 080#9D04
(1720539244.785718) can0 425#0000
(1720539244.785830) can0 080#9E04
(1720539244.796350) can0 425#0000
(1720539244.796393) can0 080#9E04
(1720539244.805775) can0 425#0000
(1720539244.805837) can0 080#9E04
(1720539244.812135) can0 100#00001C25
(1720539244.816312) can0 425#0000
(1720539244.816422) can0 080#9E04
(1720539244.825683) can0 425#0000
(1720539244.825878) can0 080#9F04
(1720539244.836286) can0 425#0000
(1720539244.836422) can0 080#9F04
(1720539244.845682) can0 425#0000
(1720539244.845844) can0 080#9F04
(1720539244.856314) can0 425#0000
(1720539244.856354) can0 080#9F04
(1720539244.865690) can0 425#0000
(1720539244.865843) can0 080#9F04
(1720539244.876314) can0 425#0000
(1720539244.876443) can0 080#9F04
(1720539244.885771) can0 425#0000
(1720539244.885845) can0 080#9E04
(1720539244.896363) can0 425#0000
(1720539244.896538) can0 080#9E04
(1720539244.905716) can0 425#0000
(1720539244.905844) can0 080#9F04
(1720539244.912120) can0 100#00001C25
(1720539244.916294) can0 425#0000
(1720539244.916423) can0 080#9F04
(1720539244.925700) can0 425#0000
(1720539244.925849) can0 080#9A04
(1720539244.936300) can0 425#0000
(1720539244.936395) can0 080#9A04
(1720539244.945693) can0 425#0000
(1720539244.945844) can0 080#9E04
(1720539244.956286) can0 425#0000
(1720539244.956413) can0 080#9E04
(1720539244.965712) can0 425#0000
(1720539244.965845) can0 080#9D04
(1720539244.976287) can0 425#0000
(1720539244.976370) can0 080#9D04
(1720539244.985693) can0 425#0000
(1720539244.985845) can0 080#9E04
(1720539244.996279) can0 425#0000
(1720539244.996415) can0 080#9E04
(1720539245.005695) can0 425#0000
(1720539245.005846) can0 080#9D04
(1720539245.012184) can0 100#00001C25
(1720539245.016247) can0 425#0000
(1720539245.016432) can0 080#9D04
(1720539245.025677) can0 425#0000
(1720539245.025851) can0 080#9E04
(1720539245.036279) can0 425#0000
(1720539245.036384) can0 080#9E04
(1720539245.045715) can0 425#0000
(1720539245.045847) can0 080#9F04
(1720539245.056278) can0 425#0000
(1720539245.056428) can0 080#9F04
(1720539245.065700) can0 425#0000
(1720539245.065846) can0 080#9E04
(1720539245.076311) can0 425#0000
(1720539245.076344) can0 080#9E04
(1720539245.085694) can0 425#0000
(1720539245.085846) can0 080#9E04
(1720539245.096236) can0 425#0000
(1720539245.096426) can0 080#9E04
(1720539245.105696) can0 425#0000
(1720539245.105847) can0 080#9E04
(1720539245.112208) can0 100#00001C25
(1720539245.116290) can0 425#0000
(1720539245.116426) can0 080#9E04
(1720539245.125719) can0 425#0000
(1720539245.125836) can0 080#9F04
(1720539245.136292) can0 425#0000
(1720539245.136386) can0 080#9F04
(1720539245.145717) can0 425#0000
(1720539245.145835) can0 080#9F04
(1720539245.156314) can0 425#0000
(1720539245.156353) can0 080#9F04
(1720539245.165699) can0 425#0000
(1720539245.165836) can0 080#9C04
(1720539245.176310) can0 425#0000
(1720539245.176428) can0 080#9C04
(1720539245.185696) can0 425#0000
(1720539245.185837) can0 080#9F04
(1720539245.196312) can0 425#0000
(1720539245.196427) can0 080#9F04
(1720539245.205697) can0 425#0000
(1720539245.205837) can0 080#9E04
(1720539245.212280) can0 100#00001C25
(1720539245.216273) can0 425#0000
(1720539245.216428) can0 080#9E04
(1720539245.225696) can0 425#0000
(1720539245.225849) can0 080#9E04
(1720539245.236276) can0 425#0000
(1720539245.236428) can0 080#9E04
(1720539245.245685) can0 425#0000
(1720539245.245850) can0 080#9404
(1720539245.256294) can0 425#0000
(1720539245.256387) can0 080#9404
(1720539245.265687) can0 425#0000
(1720539245.265849) can0 080#9D04
(1720539245.276290) can0 425#0000
(1720539245.276429) can0 080#9D04
(1720539245.285687) can0 425#0000
(1720539245.285850) can0 080#9E04
(1720539245.296309) can0 425#0000
(1720539245.296429) can0 080#9E04
(1720539245.305685) can0 425#0000
(1720539245.305850) can0 080#9E04
(1720539245.312313) can0 100#00001C25
(1720539245.316291) can0 425#0000
(1720539245.316417) can0 080#9E04
(1720539245.325698) can0 425#0000
(1720539245.325855) can0 080#9F04
(1720539245.336295) can0 425#0000
(1720539245.336417) can0 080#9F04
(1720539245.345725) can0 425#0000
(1720539245.345850) can0 080#9E04
(1720539245.356294) can0 425#0000
(1720539245.356418) can0 080#9E04
(1720539245.365699) can0 425#0000
(1720539245.365852) can0 080#9D04
(1720539245.376269) can0 425#0000
(1720539245.376418) can0 080#9D04
(1720539245.385701) can0 425#0000
(1720539245.385851) can0 080#9E04
(1720539245.396292) can0 425#0000
(1720539245.396418) can0 080#9E04
(1720539245.405697) can0 425#0000
(1720539245.405851) can0 080#9E04
(1720539245.412354) can0 100#00001C25
(1720539245.416280) can0 425#0000
(1720539245.416431) can0 080#9E04
(1720539245.425699) can0 425#0000
(1720539245.425851) can0 080#9E04
(1720539245.436281) can0 425#0000
(1720539245.436388) can0 080#9E04
(1720539245.445722) can0 425#0000
(1720539245.445852) can0 080#9F04
(1720539245.456281) can0 425#0000
(1720539245.456431) can0 080#9F04
(1720539245.465753) can0 425#0000
(1720539245.465852) can0 080#9D04
(1720539245.476271) can0 425#0000
(1720539245.476432) can0 080#9D04
(1720539245.485703) can0 425#0000
(1720539245.485853) can0 080#9E04
(1720539245.496316) can0 425#0000
(1720539245.496432) can0 080#9E04
(1720539245.505706) can0 425#0000
(1720539245.505853) can0 080#9E04
(1720539245.512383) can0 100#00001C25
(1720539245.516309) can0 425#0000
(1720539245.516421) can0 080#9E04
(1720539245.525722) can0 425#0000
(1720539245.525855) can0 080#9F04
(1720539245.536289) can0 425#0000
(1720539245.536397) can0 080#9F04
(1720539245.545783) can0 425#0000
(1720539245.545983) can0 080#A004
(1720539245.556356) can0 425#0000
(1720539245.556542) can0 080#A004
(1720539245.565770) can0 425#0000
(1720539245.565846) can0 080#9D04
(1720539245.576334) can0 425#0000
(1720539245.576578) can0 080#9D04
(1720539245.585804) can0 425#0000
(1720539245.585815) can0 080#9604
(1720539245.596297) can0 425#0000
(1720539245.596390) can0 080#9604
(1720539245.605793) can0 425#0000
(1720539245.605845) can0 080#9D04
(1720539245.612536) can0 100#00001C25
(1720539245.616268) can0 425#0000
(1720539245.616442) can0 080#9D04
(1720539245.625707) can0 425#0000
(1720539245.625860) can0 080#9F04
(1720539245.636255) can0 425#0000
(1720539245.636392) can0 080#9F04
(1720539245.645703) can0 425#0000
(1720539245.645855) can0 080#9F04
(1720539245.656383) can0 425#0000
(1720539245.656386) can0 080#9F04
(1720539245.665694) can0 425#0000
(1720539245.665855) can0 080#9D04
(1720539245.676386) can0 425#0000
(1720539245.676396) can0 080#9D04
(1720539245.685693) can0 425#0000
(1720539245.685843) can0 080#9E04
(1720539245.696385) can0 425#0000
(1720539245.696418) can0 080#9E04
(1720539245.705796) can0 425#0000
(1720539245.705858) can0 080#9E04
(1720539245.712526) can0 100#00001C25
(1720539245.716384) can0 425#0000
(1720539245.716387) can0 080#9E04
(1720539245.725690) can0 425#0000
(1720539245.725870) can0 080#9F04
(1720539245.736269) can0 425#0000
(1720539245.736430) can0 080#9F04
(1720539245.745705) can0 425#0000
(1720539245.745861) can0 080#9F04
(1720539245.756255) can0 425#0000
(1720539245.756381) can0 080#9F04
(1720539245.765704) can0 425#0000
(1720539245.765857) can0 080#9D04
(1720539245.776255) can0 425#0000
(1720539245.776424) can0 080#9D04
(1720539245.785709) can0 425#0000
(1720539245.785857) can0 080#9F04
(1720539245.796292) can0 425#0000
(1720539245.796396) can0 080#9F04
(1720539245.805707) can0 425#0000
(1720539245.805858) can0 080#9F04
(1720539245.812591) can0 100#00001C25
(1720539245.816301) can0 425#0000
(1720539245.816436) can0 080#9F04
(1720539245.825708) can0 425#0000
(1720539245.825847) can0 080#9F04
(1720539245.836276) can0 425#0000
(1720539245.836437) can0 080#9F04
(1720539245.845706) can0 425#0000
(1720539245.845847) can0 080#9E04
(1720539245.856277) can0 425#0000
(1720539245.856394) can0 080#9E04
(1720539245.865707) can0 425#0000
(1720539245.865847) can0 080#9D04
(1720539245.876279) can0 425#0000
(1720539245.876437) can0 080#9D04
(1720539245.885726) can0 425#0000
(1720539245.885845) can0 080#9E04
(1720539245.896328) can0 425#0000
(1720539245.896438) can0 080#9E04
(1720539245.905707) can0 425#0000
(1720539245.905846) can0 080#9E04
(1720539245.912628) can0 100#00001C25
(1720539245.916262) can0 425#0000
(1720539245.916438) can0 080#9E04
(1720539245.925730) can0 425#0000
(1720539245.925859) can0 080#9B04
(1720539245.936260) can0 425#0000
(1720539245.936439) can0 080#9B04
(1720539245.945705) can0 425#0000
(1720539245.945859) can0 080#9E04
(1720539245.956260) can0 425#0000
(1720539245.956396) can0 080#9E04
(1720539245.965696) can0 425#0000
(1720539245.965860) can0 080#9E04
(1720539245.976281) can0 425#0000
(1720539245.976397) can0 080#9E04
(1720539245.985697) can0 425#0000
(1720539245.985860) can0 080#9E04
(1720539245.996279) can0 425#0000
(1720539245.996440) can0 080#9E04
(1720539246.005703) can0 425#0000
(1720539246.005860) can0 080#9E04
(1720539246.012676) can0 100#00001C25
(1720539246.016286) can0 425#0000
(1720539246.016427) can0 080#9E04
(1720539246.025709) can0 425#0000
(1720539246.025860) can0 080#9F04
(1720539246.036284) can0 425#0000
(1720539246.036428) can0 080#9F04
(1720539246.045729) can0 425#0000
(1720539246.045861) can0 080#9F04
(1720539246.056284) can0 425#0000
(1720539246.056385) can0 080#9F04
(1720539246.065729) can0 425#0000
(1720539246.065861) can0 080#9B04
(1720539246.076324) can0 425#0000
(1720539246.076428) can0 080#9B04
(1720539246.085763) can0 425#0000
(1720539246.085861) can0 080#9D04
(1720539246.096264) can0 425#0000
(1720539246.096429) can0 080#9D04
(1720539246.105717) can0 425#0000
(1720539246.105861) can0 080#9D04
(1720539246.112716) can0 100#00001C25
(1720539246.116251) can0 425#0000
(1720539246.116442) can0 080#9D04
(1720539246.125749) can0 425#0000
(1720539246.125861) can0 080#9E04
(1720539246.136259) can0 425#0000
(1720539246.136399) can0 080#9E04
(1720539246.145713) can0 425#0000
(1720539246.145863) can0 080#A004
(1720539246.156261) can0 425#0000
(1720539246.156441) can0 080#A004
(1720539246.165712) can0 425#0000
(1720539246.165862) can0 080#9D04
(1720539246.176283) can0 425#0000
(1720539246.176399) can0 080#9D04
(1720539246.185712) can0 425#0000
(1720539246.185862) can0 080#9E04
(1720539246.196297) can0 425#0000
(1720539246.196442) can0 080#9E04
(1720539246.205733) can0 425#0000
(1720539246.205863) can0 080#9E04
(1720539246.212747) can0 100#00001C25
(1720539246.216262) can0 425#0000
(1720539246.216442) can0 080#9E04
(1720539246.225712) can0 425#0000
(1720539246.225851) can0 080#9D04
(1720539246.236288) can0 425#0000
(1720539246.236401) can0 080#9D04
(1720539246.245731) can0 425#0000
(1720539246.245851) can0 080#9504
(1720539246.256289) can0 425#0000
(1720539246.256400) can0 080#9504
(1720539246.265714) can0 425#0000
(1720539246.265851) can0 080#9C04
(1720539246.276288) can0 425#0000
(1720539246.276401) can0 080#9C04
(1720539246.285736) can0 425#0000
(1720539246.285852) can0 080#9D04
(1720539246.296308) can0 425#0000
(1720539246.296444) can0 080#9D04
(1720539246.305737) can0 425#0000
(1720539246.305852) can0 080#9F04
(1720539246.312862) can0 100#00001C25
(1720539246.316301) can0 425#0000
(1720539246.316433) can0 080#9F04
(1720539246.325721) can0 425#0000
(1720539246.325879) can0 080#9E04
(1720539246.336280) can0 425#0000
(1720539246.336409) can0 080#9E04
(1720539246.345691) can0 425#0000
(1720539246.345880) can0 080#9E04
(1720539246.356288) can0 425#0000
(1720539246.356452) can0 080#9E04
(1720539246.365754) can0 425#0000
(1720539246.365870) can0 080#9C04
(1720539246.376288) can0 425#0000
(1720539246.376402) can0 080#9C04
(1720539246.385739) can0 425#0000
(1720539246.385865) can0 080#9E04
(1720539246.396290) can0 425#0000
(1720539246.396446) can0 080#9E04
(1720539246.405736) can0 425#0000
(1720539246.405866) can0 080#9E04
(1720539246.412865) can0 100#00001C25
(1720539246.416306) can0 425#0000
(1720539246.416422) can0 080#9E04
(1720539246.425704) can0 425#0000
(1720539246.425881) can0 080#9D04
(1720539246.436283) can0 425#0000
(1720539246.436441) can0 080#9D04
(1720539246.445726) can0 425#0000
(1720539246.445871) can0 080#9F04
(1720539246.456269) can0 425#0000
(1720539246.456391) can0 080#9F04
(1720539246.465717) can0 425#0000
(1720539246.465866) can0 080#9F04
(1720539246.476351) can0 425#0000
(1720539246.476382) can0 080#9F04
(1720539246.485740) can0 425#0000
(1720539246.485867) can0 080#9C04
(1720539246.496294) can0 425#0000
(1720539246.496392) can0 080#9C04
(1720539246.505776) can0 425#0000
(1720539246.505856) can0 080#9E04
(1720539246.512932) can0 100#00001C25
(1720539246.516339) can0 425#0000
(1720539246.516436) can0 080#9E04
(1720539246.525707) can0 425#0000
(1720539246.525883) can0 080#9C04
(1720539246.536274) can0 425#0000
(1720539246.536454) can0 080#9C04
(1720539246.545700) can0 425#0000
(1720539246.545873) can0 080#9D04
(1720539246.556325) can0 425#0000
(1720539246.556378) can0 080#9D04
(1720539246.565754) can0 425#0000
(1720539246.565868) can0 080#9C04
(1720539246.576265) can0 425#0000
(1720539246.576405) can0 080#9C04
(1720539246.585747) can0 425#0000
(1720539246.585869) can0 080#9304
(1720539246.596294) can0 425#0000
(1720539246.596449) can0 080#9304
(1720539246.605797) can0 425#0000
(1720539246.605839) can0 080#9E04
(1720539246.613041) can0 100#00001C25
(1720539246.616275) can0 425#0000
(1720539246.616449) can0 080#9E04
(1720539246.625742) can0 425#0000
(1720539246.625857) can0 080#9C04
(1720539246.636353) can0 425#0000
(1720539246.636364) can0 080#9C04
(1720539246.645746) can0 425#0000
(1720539246.645857) can0 080#9E04
(1720539246.656291) can0 425#0000
(1720539246.656449) can0 080#9E04
(1720539246.665720) can0 425#0000
(1720539246.665858) can0 080#9B04
(1720539246.676296) can0 425#0000
(1720539246.676406) can0 080#9B04
(1720539246.685787) can0 425#0000
(1720539246.685853) can0 080#9E04
(1720539246.696298) can0 425#0000
(1720539246.696406) can0 080#9E04
(1720539246.705720) can0 425#0000
(1720539246.705858) can0 080#9D04
(1720539246.713015) can0 100#00001C25
(1720539246.716284) can0 425#0000
(1720539246.716457) can0 080#9D04
(1720539246.725728) can0 425#0000
(1720539246.725875) can0 080#9E04
(1720539246.736295) can0 425#0000
(1720539246.736408) can0 080#9E04
(1720539246.745746) can0 425#0000
(1720539246.745871) can0 080#9F04
(1720539246.756297) can0 425#0000
(1720539246.756408) can0 080#9F04
(1720539246.765712) can0 425#0000
(1720539246.765871) can0 080#9E04
(1720539246.776272) can0 425#0000
(1720539246.776408) can0 080#9E04
(1720539246.785711) can0 425#0000
(1720539246.785872) can0 080#9E04
(1720539246.796269) can0 425#0000
(1720539246.796451) can0 080#9E04
(1720539246.805706) can0 425#0000
(1720539246.805872) can0 080#9E04
(1720539246.813056) can0 100#00001C25
(1720539246.816274) can0 425#0000
(1720539246.816439) can0 080#9E04
(1720539246.825721) can0 425#0000
(1720539246.825872) can0 080#9E04
(1720539246.836273) can0 425#0000
(1720539246.836396) can0 080#9E04
(1720539246.845719) can0 425#0000
(1720539246.845860) can0 080#9F04
(1720539246.856273) can0 425#0000
(1720539246.856440) can0 080#9F04
(1720539246.865723) can0 425#0000
(1720539246.865873) can0 080#9F04
(1720539246.876273) can0 425#0000
(1720539246.876397) can0 080#9F04
(1720539246.885719) can0 425#0000
(1720539246.885873) can0 080#9F04
(1720539246.896292) can0 425#0000
(1720539246.896440) can0 080#9F04
(1720539246.905719) can0 425#0000
(1720539246.905873) can0 080#9F04
(1720539246.913164) can0 100#00001C25
(1720539246.916263) can0 425#0000
(1720539246.916452) can0 080#9F04
(1720539246.925721) can0 425#0000
(1720539246.925873) can0 080#9E04
(1720539246.936261) can0 425#0000
(1720539246.936409) can0 080#9E04
(1720539246.945721) can0 425#0000
(1720539246.945874) can0 080#A004
(1720539246.956260) can0 425#0000
(1720539246.956410) can0 080#A004
(1720539246.965739) can0 425#0000
(1720539246.965874) can0 080#9C04
(1720539246.976260) can0 425#0000
(1720539246.976411) can0 080#9C04
(1720539246.985740) can0 425#0000
(1720539246.985874) can0 080#9E04
(1720539246.996266) can0 425#0000
(1720539246.996411) can0 080#9E04
(1720539247.005723) can0 425#0000
(1720539247.005862) can0 080#9E04
(1720539247.013167) can0 100#00001C25
(1720539247.016276) can0 425#0000
(1720539247.016454) can0 080#9E04
(1720539247.025722) can0 425#0000
(1720539247.025875) can0 080#9E04
(1720539247.036292) can0 425#0000
(1720539247.036411) can0 080#9E04
(1720539247.045716) can0 425#0000
(1720539247.045875) can0 080#9E04
(1720539247.056279) can0 425#0000
(1720539247.056455) can0 080#9E04
(1720539247.065710) can0 425#0000
(1720539247.065875) can0 080#9C04
(1720539247.076273) can0 425#0000
(1720539247.076412) can0 080#9C04
(1720539247.085711) can0 425#0000
(1720539247.085876) can0 080#9D04
(1720539247.096275) can0 425#0000
(1720539247.096456) can0 080#9D04
(1720539247.105718) can0 425#0000
(1720539247.105877) can0 080#9C04
(1720539247.113212) can0 100#00001C25
(1720539247.116281) can0 425#0000
(1720539247.116443) can0 080#9C04
(1720539247.125744) can0 425#0000
(1720539247.125877) can0 080#9C04
(1720539247.136274) can0 425#0000
(1720539247.136401) can0 080#9C04
(1720539247.145764) can0 425#0000
(1720539247.145876) can0 080#9C04
(1720539247.156297) can0 425#0000
(1720539247.156401) can0 080#9C04
(1720539247.165744) can0 425#0000
(1720539247.165877) can0 080#9B04
(1720539247.176279) can0 425#0000
(1720539247.176444) can0 080#9B04
(1720539247.185725) can0 425#0000
(1720539247.185877) can0 080#9C04
(1720539247.196280) can0 425#0000
(1720539247.196401) can0 080#9C04
(1720539247.205725) can0 425#0000
(1720539247.205877) can0 080#9D04
(1720539247.213252) can0 100#00001C25
(1720539247.216263) can0 425#0000
(1720539247.216458) can0 080#9D04
(1720539247.225725) can0 425#0000
(1720539247.225878) can0 080#9D04
(1720539247.236270) can0 425#0000
(1720539247.236415) can0 080#9D04
(1720539247.245728) can0 425#0000
(1720539247.245880) can0 080#9704
(1720539247.256267) can0 425#0000
(1720539247.256414) can0 080#9704
(1720539247.265786) can0 425#0000
(1720539247.265878) can0 080#9B04
(1720539247.276265) can0 425#0000
(1720539247.276414) can0 080#9B04
(1720539247.285728) can0 425#0000
(1720539247.285879) can0 080#9C04
(1720539247.296267) can0 425#0000
(1720539247.296415) can0 080#9C04
(1720539247.305747) can0 425#0000
(1720539247.305879) can0 080#9D04
(1720539247.313282) can0 100#00001C25
(1720539247.316279) can0 425#0000
(1720539247.316459) can0 080#9D04
(1720539247.325727) can0 425#0000
(1720539247.325867) can0 080#9F04
(1720539247.336279) can0 425#0000
(1720539247.336459) can0 080#9F04
(1720539247.345728) can0 425#0000
(1720539247.345867) can0 080#9E04
(1720539247.356299) can0 425#0000
(1720539247.356416) can0 080#9E04
(1720539247.365729) can0 425#0000
(1720539247.365869) can0 080#9B04
(1720539247.376301) can0 425#0000
(1720539247.376459) can0 080#9B04
(1720539247.385748) can0 425#0000
(1720539247.385868) can0 080#9C04
(1720539247.396300) can0 425#0000
(1720539247.396417) can0 080#9C04
(1720539247.405750) can0 425#0000
(1720539247.405868) can0 080#9E04
(1720539247.413357) can0 100#00001C25
(1720539247.416275) can0 425#0000
(1720539247.416449) can0 080#9E04
(1720539247.425735) can0 425#0000
(1720539247.425895) can0 080#9C04
(1720539247.436297) can0 425#0000
(1720539247.436424) can0 080#9C04
(1720539247.445771) can0 425#0000
(1720539247.445895) can0 080#9D04
(1720539247.456295) can0 425#0000
(1720539247.456425) can0 080#9D04
(1720539247.465739) can0 425#0000
(1720539247.465896) can0 080#9C04
(1720539247.476295) can0 425#0000
(1720539247.476468) can0 080#9C04
(1720539247.485702) can0 425#0000
(1720539247.485886) can0 080#9D04
(1720539247.496281) can0 425#0000
(1720539247.496418) can0 080#9D04
(1720539247.505719) can0 425#0000
(1720539247.505882) can0 080#9C04
(1720539247.513402) can0 100#00001C25
(1720539247.516280) can0 425#0000
(1720539247.516438) can0 080#9C04
(1720539247.525719) can0 425#0000
(1720539247.525898) can0 080#9D04
(1720539247.536315) can0 425#0000
(1720539247.536414) can0 080#9D04
(1720539247.545739) can0 425#0000
(1720539247.545897) can0 080#9D04
(1720539247.556317) can0 425#0000
(1720539247.556457) can0 080#9D04
(1720539247.565732) can0 425#0000
(1720539247.565887) can0 080#9C04
(1720539247.576304) can0 425#0000
(1720539247.576407) can0 080#9C04
(1720539247.585751) can0 425#0000
(1720539247.585883) can0 080#9304
(1720539247.596283) can0 425#0000
(1720539247.596408) can0 080#9304
(1720539247.605732) can0 425#0000
(1720539247.605883) can0 080#9D04
(1720539247.613448) can0 100#00001C25
(1720539247.616267) can0 425#0000
(1720539247.616453) can0 080#9D04
(1720539247.625743) can0 425#0000
(1720539247.625898) can0 080#9E04
(1720539247.636286) can0 425#0000
(1720539247.636427) can0 080#9E04
(1720539247.645741) can0 425#0000
(1720539247.645897) can0 080#9D04
(1720539247.656319) can0 425#0000
(1720539247.656470) can0 080#9D04
(1720539247.665736) can0 425#0000
(1720539247.665889) can0 080#9B04
(1720539247.676280) can0 425#0000
(1720539247.676421) can0 080#9B04
(1720539247.685733) can0 425#0000
(1720539247.685884) can0 080#9D04
(1720539247.696280) can0 425#0000
(1720539247.696421) can0 080#9D04
(1720539247.705735) can0 425#0000
(1720539247.705885) can0 080#9C04
(1720539247.713478) can0 100#00001C25
(1720539247.716317) can0 425#0000
(1720539247.716472) can0 080#9C04
(1720539247.725738) can0 425#0000
(1720539247.725877) can0 080#9F04
(1720539247.736307) can0 425#0000
(1720539247.736421) can0 080#9F04
(1720539247.745754) can0 425#0000
(1720539247.745873) can0 080#9D04
(1720539247.756286) can0 425#0000
(1720539247.756465) can0 080#9D04
(1720539247.765753) can0 425#0000
(1720539247.765873) can0 080#9D04
(1720539247.776285) can0 425#0000
(1720539247.776422) can0 080#9D04
(1720539247.785734) can0 425#0000
(1720539247.785874) can0 080#9E04
(1720539247.796287) can0 425#0000
(1720539247.796476) can0 080#9E04
(1720539247.805734) can0 425#0000
(1720539247.805874) can0 080#9D04
(1720539247.813559) can0 100#00001C25
(1720539247.816282) can0 425#0000
(1720539247.816455) can0 080#9D04
(1720539247.825712) can0 425#0000
(1720539247.825903) can0 080#9F04
(1720539247.836321) can0 425#0000
(1720539247.836473) can0 080#9F04
(1720539247.845708) can0 425#0000
(1720539247.845892) can0 080#9E04
(1720539247.856288) can0 425#0000
(1720539247.856424) can0 080#9E04
(1720539247.865725) can0 425#0000
(1720539247.865888) can0 080#9C04
(1720539247.876307) can0 425#0000
(1720539247.876424) can0 080#9C04
(1720539247.885726) can0 425#0000
(1720539247.885887) can0 080#9C04
(1720539247.896312) can0 425#0000
(1720539247.896466) can0 080#9C04
(1720539247.905676) can0 425#0000
(1720539247.905885) can0 080#9D04
(1720539247.913575) can0 100#00001C25
(1720539247.916301) can0 425#0000
(1720539247.916462) can0 080#9D04
(1720539247.925739) can0 425#0000
(1720539247.925892) can0 080#9B04
(1720539247.936287) can0 425#0000
(1720539247.936413) can0 080#9B04
(1720539247.945757) can0 425#0000
(1720539247.945888) can0 080#9E04
(1720539247.956290) can0 425#0000
(1720539247.956457) can0 080#9E04
(1720539247.965710) can0 425#0000
(1720539247.965886) can0 080#9C04
(1720539247.976284) can0 425#0000
(1720539247.976403) can0 080#9C04
(1720539247.985743) can0 425#0000
(1720539247.985903) can0 080#9E04
(1720539247.996322) can0 425#0000
(1720539247.996463) can0 080#9E04
(1720539248.005721) can0 425#0000
(1720539248.005894) can0 080#9C04
(1720539248.013607) can0 100#00001C25
(1720539248.016285) can0 425#0000
(1720539248.016468) can0 080#9C04
(1720539248.025691) can0 425#0000
(1720539248.025887) can0 080#9D04
(1720539248.036274) can0 425#0000
(1720539248.036415) can0 080#9D04
(1720539248.045745) can0 425#0000
(1720539248.045904) can0 080#9D04
(1720539248.056291) can0 425#0000
(1720539248.056477) can0 080#9D04
(1720539248.065722) can0 425#0000
(1720539248.065895) can0 080#9C04
(1720539248.076278) can0 425#0000
(1720539248.076426) can0 080#9C04
(1720539248.085745) can0 425#0000
(1720539248.085791) can0 080#9B04
(1720539248.096284) can0 425#0000
(1720539248.096470) can0 080#9B04
(1720539248.105759) can0 425#0000
(1720539248.105890) can0 080#9D04
(1720539248.113695) can0 100#00001C25
(1720539248.116296) can0 425#0000
(1720539248.116470) can0 080#9D04
(1720539248.125759) can0 425#0000
(1720539248.125879) can0 080#9D04
(1720539248.136292) can0 425#0000
(1720539248.136428) can0 080#9D04
(1720539248.145760) can0 425#0000
(1720539248.145820) can0 080#9E04
(1720539248.156309) can0 425#0000
(1720539248.156470) can0 080#9E04
(1720539248.165739) can0 425#0000
(1720539248.165815) can0 080#9B04
(1720539248.176312) can0 425#0000
(1720539248.176428) can0 080#9B04
(1720539248.185741) can0 425#0000
(1720539248.185880) can0 080#9D04
(1720539248.196316) can0 425#0000
(1720539248.196428) can0 080#9D04
(1720539248.205740) can0 425#0000
(1720539248.205815) can0 080#9F04
(1720539248.213746) can0 100#00001C25
(1720539248.216291) can0 425#0000
(1720539248.216459) can0 080#9F04
(1720539248.225714) can0 425#0000
(1720539248.225889) can0 080#9F04
(1720539248.236313) can0 425#0000
(1720539248.236417) can0 080#9F04
(1720539248.245749) can0 425#0000
(1720539248.245906) can0 080#9C04
(1720539248.256328) can0 425#0000
(1720539248.256467) can0 080#9C04
(1720539248.265725) can0 425#0000
(1720539248.265897) can0 080#9B04
(1720539248.276295) can0 425#0000
(1720539248.276417) can0 080#9B04
(1720539248.285764) can0 425#0000
(1720539248.285892) can0 080#9D04
(1720539248.296295) can0 425#0000
(1720539248.296461) can0 080#9D04
(1720539248.305765) can0 425#0000
(1720539248.305893) can0 080#9D04
(1720539248.313787) can0 100#00001C25
(1720539248.316284) can0 425#0000
(1720539248.316473) can0 080#9D04
(1720539248.325696) can0 425#0000
(1720539248.325827) can0 080#9E04
(1720539248.336315) can0 425#0000
(1720539248.336420) can0 080#9E04
(1720539248.345733) can0 425#0000
(1720539248.345909) can0 080#9E04
(1720539248.356332) can0 425#0000
(1720539248.356481) can0 080#9E04
(1720539248.365727) can0 425#0000
(1720539248.365899) can0 080#9C04
(1720539248.376317) can0 425#0000
(1720539248.376429) can0 080#9C04
(1720539248.385856) can0 425#0000
(1720539248.385891) can0 080#9F04
(1720539248.396370) can0 425#0000
(1720539248.396403) can0 080#9F04
(1720539248.405761) can0 425#0000
(1720539248.405962) can0 080#9E04
(1720539248.413825) can0 100#00001C25
(1720539248.416295) can0 425#0000
(1720539248.416474) can0 080#9E04
(1720539248.425774) can0 425#0000
(1720539248.425813) can0 080#9F04
(1720539248.436298) can0 425#0000
(1720539248.436432) can0 080#9F04
(1720539248.445698) can0 425#0000
(1720539248.445879) can0 080#9E04
(1720539248.456294) can0 425#0000
(1720539248.456456) can0 080#9E04
(1720539248.465760) can0 425#0000
(1720539248.465898) can0 080#9A04
(1720539248.476311) can0 425#0000
(1720539248.476439) can0 080#9A04
(1720539248.485736) can0 425#0000
(1720539248.485898) can0 080#9D04
(1720539248.496399) can0 425#0000
(1720539248.496441) can0 080#9D04
(1720539248.505734) can0 425#0000
(1720539248.505899) can0 080#9D04
(1720539248.513897) can0 100#00001C25
(1720539248.516311) can0 425#0000
(1720539248.516465) can0 080#9D04
(1720539248.525723) can0 425#0000
(1720539248.525911) can0 080#9D04
(1720539248.536313) can0 425#0000
(1720539248.536440) can0 080#9D04
(1720539248.545727) can0 425#0000
(1720539248.545917) can0 080#9D04
(1720539248.556339) can0 425#0000
(1720539248.556483) can0 080#9D04
(1720539248.565720) can0 425#0000
(1720539248.565902) can0 080#9C04
(1720539248.576333) can0 425#0000
(1720539248.576441) can0 080#9C04
(1720539248.585828) can0 425#0000
(1720539248.585860) can0 080#9004
(1720539248.596357) can0 425#0000
(1720539248.596478) can0 080#9004
(1720539248.605737) can0 425#0000
(1720539248.605832) can0 080#9A04
(1720539248.613913) can0 100#00001C25
(1720539248.616312) can0 425#0000
(1720539248.616429) can0 080#9A04
(1720539248.625790) can0 425#0000
(1720539248.625912) can0 080#9C04
(1720539248.636393) can0 425#0000
(1720539248.636414) can0 080#9C04
(1720539248.645775) can0 425#0000
(1720539248.645914) can0 080#9D04
(1720539248.656315) can0 425#0000
(1720539248.656472) can0 080#9D04
(1720539248.665736) can0 425#0000
(1720539248.665903) can0 080#9C04
(1720539248.676353) can0 425#0000
(1720539248.676394) can0 080#9C04
(1720539248.685772) can0 425#0000
(1720539248.685900) can0 080#9D04
(1720539248.696301) can0 425#0000
(1720539248.696556) can0 080#9D04
(1720539248.705774) can0 425#0000
(1720539248.705819) can0 080#9C04
(1720539248.713950) can0 100#00001C25
(1720539248.716282) can0 425#0000
(1720539248.716469) can0 080#9C04
(1720539248.725754) can0 425#0000
(1720539248.725914) can0 080#9E04
(1720539248.736310) can0 425#0000
(1720539248.736444) can0 080#9E04
(1720539248.745734) can0 425#0000
(1720539248.745914) can0 080#9D04
(1720539248.756305) can0 425#0000
(1720539248.756445) can0 080#9D04
(1720539248.765738) can0 425#0000
(1720539248.765914) can0 080#9D04
(1720539248.776306) can0 425#0000
(1720539248.776444) can0 080#9D04
(1720539248.785753) can0 425#0000
(1720539248.785915) can0 080#9C04
(1720539248.796304) can0 425#0000
(1720539248.796444) can0 080#9C04
(1720539248.805755) can0 425#0000
(1720539248.805915) can0 080#9A04
(1720539248.814042) can0 100#00001C25
(1720539248.816297) can0 425#0000
(1720539248.816469) can0 080#9A04
(1720539248.825760) can0 425#0000
(1720539248.825903) can0 080#9E04
(1720539248.836313) can0 425#0000
(1720539248.836444) can0 080#9E04
(1720539248.845726) can0 425#0000
(1720539248.845904) can0 080#9D04
(1720539248.856337) can0 425#0000
(1720539248.856445) can0 080#9D04
(1720539248.865736) can0 425#0000
(1720539248.865903) can0 080#9C04
(1720539248.876315) can0 425#0000
(1720539248.876445) can0 080#9C04
(1720539248.885736) can0 425#0000
(1720539248.885904) can0 080#9C04
(1720539248.896339) can0 425#0000
(1720539248.896445) can0 080#9C04
(1720539248.905756) can0 425#0000
(1720539248.905904) can0 080#9C04
(1720539248.914098) can0 100#00001C25
(1720539248.916332) can0 425#0000
(1720539248.916446) can0 080#9C04
(1720539248.925738) can0 425#0000
(1720539248.925916) can0 080#9904
(1720539248.936317) can0 425#0000
(1720539248.936447) can0 080#9904
(1720539248.945766) can0 425#0000
(1720539248.945917) can0 080#9E04
(1720539248.956318) can0 425#0000
(1720539248.956446) can0 080#9E04
(1720539248.965736) can0 425#0000
(1720539248.965917) can0 080#9B04
(1720539248.976336) can0 425#0000
(1720539248.976447) can0 080#9B04
(1720539248.985727) can0 425#0000
(1720539248.985918) can0 080#9D04
(1720539248.996318) can0 425#0000
(1720539248.996447) can0 080#9D04
(1720539249.005759) can0 425#0000
(1720539249.005918) can0 080#9D04
(1720539249.014178) can0 100#00001C25
(1720539249.016321) can0 425#0000
(1720539249.016478) can0 080#9D04
(1720539249.025734) can0 425#0000
(1720539249.025908) can0 080#9C04
(1720539249.036302) can0 425#0000
(1720539249.036471) can0 080#9C04
(1720539249.045736) can0 425#0000
(1720539249.045838) can0 080#9E04
(1720539249.056301) can0 425#0000
(1720539249.056418) can0 080#9E04
(1720539249.065759) can0 425#0000
(1720539249.065919) can0 080#9B04
(1720539249.076347) can0 425#0000
(1720539249.076436) can0 080#9B04
(1720539249.085741) can0 425#0000
(1720539249.085919) can0 080#9E04
(1720539249.096340) can0 425#0000
(1720539249.096436) can0 080#9E04
(1720539249.105747) can0 425#0000
(1720539249.105920) can0 080#9D04
(1720539249.114174) can0 100#00001C25
(1720539249.116296) can0 425#0000
(1720539249.116442) can0 080#9D04
(1720539249.125707) can0 425#0000
(1720539249.125838) can0 080#9D04
(1720539249.136293) can0 425#0000
(1720539249.136431) can0 080#9D04
(1720539249.145741) can0 425#0000
(1720539249.145920) can0 080#9D04
(1720539249.156342) can0 425#0000
(1720539249.156450) can0 080#9D04
(1720539249.165741) can0 425#0000
(1720539249.165920) can0 080#9C04
(1720539249.176316) can0 425#0000
(1720539249.176437) can0 080#9C04
(1720539249.185699) can0 425#0000
(1720539249.185922) can0 080#9C04
(1720539249.196308) can0 425#0000
(1720539249.196450) can0 080#9C04
(1720539249.205698) can0 425#0000
(1720539249.205922) can0 080#9B04
(1720539249.214208) can0 100#00001C25
(1720539249.216309) can0 425#0000
(1720539249.216443) can0 080#9B04
(1720539249.225707) can0 425#0000
(1720539249.225827) can0 080#9D04
(1720539249.236329) can0 425#0000
(1720539249.236438) can0 080#9D04
(1720539249.245700) can0 425#0000
(1720539249.245909) can0 080#9A04
(1720539249.256341) can0 425#0000
(1720539249.256451) can0 080#9A04
(1720539249.265745) can0 425#0000
(1720539249.265910) can0 080#9904
(1720539249.276323) can0 425#0000
(1720539249.276452) can0 080#9904
(1720539249.285763) can0 425#0000
(1720539249.285910) can0 080#A004
(1720539249.296321) can0 425#0000
(1720539249.296451) can0 080#A004
(1720539249.305746) can0 425#0000
(1720539249.305910) can0 080#9E04
(1720539249.314288) can0 100#00001C25
(1720539249.316310) can0 425#0000
(1720539249.316487) can0 080#9E04
(1720539249.325730) can0 425#0000
(1720539249.325841) can0 080#9D04
(1720539249.336304) can0 425#0000
(1720539249.336434) can0 080#9D04
(1720539249.345691) can0 425#0000
(1720539249.345923) can0 080#9D04
(1720539249.356342) can0 425#0000
(1720539249.356453) can0 080#9D04
(1720539249.365690) can0 425#0000
(1720539249.365923) can0 080#9D04
(1720539249.376324) can0 425#0000
(1720539249.376452) can0 080#9D04
(1720539249.385741) can0 425#0000
(1720539249.385923) can0 080#9D04
(1720539249.396343) can0 425#0000
(1720539249.396453) can0 080#9D04
(1720539249.405767) can0 425#0000
(1720539249.405923) can0 080#9D04
(1720539249.414305) can0 100#00001C25
(1720539249.416329) can0 425#0000
(1720539249.416476) can0 080#9D04
(1720539249.425711) can0 425#0000
(1720539249.425842) can0 080#9D04
(1720539249.436297) can0 425#0000
(1720539249.436435) can0 080#9D04
(1720539249.445746) can0 425#0000
(1720539249.445924) can0 080#9E04
(1720539249.456324) can0 425#0000
(1720539249.456454) can0 080#9E04
(1720539249.465747) can0 425#0000
(1720539249.465926) can0 080#9C04
(1720539249.476313) can0 425#0000
(1720539249.476454) can0 080#9C04
(1720539249.485775) can0 425#0000
(1720539249.485809) can0 080#9C04
(1720539249.496334) can0 425#0000
(1720539249.496447) can0 080#9C04
(1720539249.505713) can0 425#0000
(1720539249.505845) can0 080#9C04
(1720539249.514355) can0 100#00001C25
(1720539249.516305) can0 425#0000
(1720539249.516480) can0 080#9C04
(1720539249.525747) can0 425#0000
(1720539249.525914) can0 080#9E04
(1720539249.536345) can0 425#0000
(1720539249.536455) can0 080#9E04
(1720539249.545753) can0 425#0000
(1720539249.545913) can0 080#9D04
(1720539249.556326) can0 425#0000
(1720539249.556455) can0 080#9D04
(1720539249.565767) can0 425#0000
(1720539249.565913) can0 080#9C04
(1720539249.576328) can0 425#0000
(1720539249.576401) can0 080#9C04
(1720539249.585707) can0 425#0000
(1720539249.585913) can0 080#8F04
(1720539249.596328) can0 425#0000
(1720539249.596402) can0 080#8F04
(1720539249.605707) can0 425#0000
(1720539249.605914) can0 080#9D04
(1720539249.614432) can0 100#00001C25
(1720539249.616309) can0 425#0000
(1720539249.616482) can0 080#9D04
(1720539249.625737) can0 425#0000
(1720539249.625927) can0 080#9B04
(1720539249.636325) can0 425#0000
(1720539249.636457) can0 080#9B04
(1720539249.645696) can0 425#0000
(1720539249.645927) can0 080#9C04
(1720539249.656348) can0 425#0000
(1720539249.656473) can0 080#9C04
(1720539249.665726) can0 425#0000
(1720539249.665927) can0 080#9B04
(1720539249.676327) can0 425#0000
(1720539249.676413) can0 080#9B04
(1720539249.685694) can0 425#0000
(1720539249.685929) can0 080#9C04
(1720539249.696347) can0 425#0000
(1720539249.696458) can0 080#9C04
(1720539249.705717) can0 425#0000
(1720539249.705928) can0 080#9C04
(1720539249.714474) can0 100#00001C25
(1720539249.716327) can0 425#0000
(1720539249.716445) can0 080#9C04
(1720539249.725727) can0 425#0000
(1720539249.725928) can0 080#9B04
(1720539249.736283) can0 425#0000
(1720539249.736466) can0 080#9B04
(1720539249.745830) can0 425#0000
(1720539249.745919) can0 080#9E04
(1720539249.756315) can0 425#0000
(1720539249.756438) can0 080#9E04
(1720539249.765735) can0 425#0000
(1720539249.765847) can0 080#9A04
(1720539249.776312) can0 425#0000
(1720539249.776428) can0 080#9A04
(1720539249.785728) can0 425#0000
(1720539249.785930) can0 080#9E04
(1720539249.796330) can0 425#0000
(1720539249.796446) can0 080#9E04
(1720539249.805707) can0 425#0000
(1720539249.805838) can0 080#9C04
(1720539249.814512) can0 100#00001C25
(1720539249.816310) can0 425#0000
(1720539249.816451) can0 080#9C04
(1720539249.825717) can0 425#0000
(1720539249.825847) can0 080#9C04
(1720539249.836322) can0 425#0000
(1720539249.836441) can0 080#9C04
(1720539249.845710) can0 425#0000
(1720539249.845839) can0 080#9C04
(1720539249.856339) can0 425#0000
(1720539249.856452) can0 080#9C04
(1720539249.865716) can0 425#0000
(1720539249.865849) can0 080#9B04
(1720539249.876332) can0 425#0000
(1720539249.876485) can0 080#9B04
(1720539249.885711) can0 425#0000
(1720539249.885931) can0 080#9D04
(1720539249.896319) can0 425#0000
(1720539249.896461) can0 080#9D04
(1720539249.905753) can0 425#0000
(1720539249.905839) can0 080#9E04
(1720539249.914548) can0 100#00001C25
(1720539249.916328) can0 425#0000
(1720539249.916460) can0 080#9E04
(1720539249.925708) can0 425#0000
(1720539249.925827) can0 080#9904
(1720539249.936320) can0 425#0000
(1720539249.936453) can0 080#9904
(1720539249.945739) can0 425#0000
(1720539249.945837) can0 080#9E04
(1720539249.956313) can0 425#0000
(1720539249.956443) can0 080#9E04
(1720539249.965710) can0 425#0000
(1720539249.965919) can0 080#9C04
(1720539249.976331) can0 425#0000
(1720539249.976461) can0 080#9C04
(1720539249.985730) can0 425#0000
(1720539249.985919) can0 080#9D04
(1720539249.996271) can0 425#0000
(1720539249.996439) can0 080#9D04
(1720539250.005751) can0 425#0000
(1720539250.005910) can0 080#9D04
(1720539250.014607) can0 100#00001C25
(1720539250.016334) can0 425#0000
(1720539250.016462) can0 080#9D04
(1720539250.025700) can0 425#0000
(1720539250.025933) can0 080#9D04
(1720539250.036331) can0 425#0000
(1720539250.036462) can0 080#9D04
(1720539250.045699) can0 425#0000
(1720539250.045841) can0 080#9E04
(1720539250.056324) can0 425#0000
(1720539250.056498) can0 080#9E04
(1720539250.065708) can0 425#0000
(1720539250.065851) can0 080#9A04
(1720539250.076317) can0 425#0000
(1720539250.076446) can0 080#9A04
(1720539250.085700) can0 425#0000
(1720539250.085933) can0 080#9B04
(1720539250.096287) can0 425#0000
(1720539250.096484) can0 080#9B04
(1720539250.105697) can0 425#0000
(1720539250.105924) can0 080#9D04
(1720539250.114646) can0 100#00001C25
(1720539250.116322) can0 425#0000
(1720539250.116488) can0 080#9D04
(1720539250.125740) can0 425#0000
(1720539250.125853) can0 080#9B04
(1720539250.136335) can0 425#0000
(1720539250.136477) can0 080#9B04
(1720539250.145734) can0 425#0000
(1720539250.145934) can0 080#9B04
(1720539250.156353) can0 425#0000
(1720539250.156414) can0 080#9B04
(1720539250.165713) can0 425#0000
(1720539250.165843) can0 080#9904
(1720539250.176343) can0 425#0000
(1720539250.176445) can0 080#9904
(1720539250.185721) can0 425#0000
(1720539250.185853) can0 080#9C04
(1720539250.196317) can0 425#0000
(1720539250.196434) can0 080#9C04
(1720539250.205713) can0 425#0000
(1720539250.205843) can0 080#9C04
(1720539250.214702) can0 100#00001C25
(1720539250.216255) can0 425#0000
(1720539250.216486) can0 080#9C04
(1720539250.225774) can0 425#0000
(1720539250.225926) can0 080#9C04
(1720539250.236310) can0 425#0000
(1720539250.236458) can0 080#9C04
(1720539250.245742) can0 425#0000
(1720539250.245855) can0 080#9B04
(1720539250.256306) can0 425#0000
(1720539250.256490) can0 080#9B04
(1720539250.265715) can0 425#0000
(1720539250.265844) can0 080#9A04
(1720539250.276315) can0 425#0000
(1720539250.276458) can0 080#9A04
(1720539250.285722) can0 425#0000
(1720539250.285854) can0 080#9C04
(1720539250.296307) can0 425#0000
(1720539250.296449) can0 080#9C04
(1720539250.305716) can0 425#0000
(1720539250.305937) can0 080#9C04
(1720539250.314727) can0 100#00001C25
(1720539250.316335) can0 425#0000
(1720539250.316467) can0 080#9C04
(1720539250.325715) can0 425#0000
(1720539250.325925) can0 080#9D04
(1720539250.336359) can0 425#0000
(1720539250.336409) can0 080#9D04
(1720539250.345717) can0 425#0000
(1720539250.345834) can0 080#9C04
(1720539250.356345) can0 425#0000
(1720539250.356459) can0 080#9C04
(1720539250.365724) can0 425#0000
(1720539250.365844) can0 080#9A04
(1720539250.376318) can0 425#0000
(1720539250.376449) can0 080#9A04
(1720539250.385717) can0 425#0000
(1720539250.385834) can0 080#9D04
(1720539250.396326) can0 425#0000
(1720539250.396461) can0 080#9D04
(1720539250.405725) can0 425#0000
(1720539250.405844) can0 080#9B04
(1720539250.414797) can0 100#00001C25
(1720539250.416322) can0 425#0000
(1720539250.416460) can0 080#9B04
(1720539250.425710) can0 425#0000
(1720539250.425856) can0 080#9D04
(1720539250.436319) can0 425#0000
(1720539250.436494) can0 080#9D04
(1720539250.445709) can0 425#0000
(1720539250.445939) can0 080#9D04
(1720539250.456272) can0 425#0000
(1720539250.456446) can0 080#9D04
(1720539250.465742) can0 425#0000
(1720539250.465929) can0 080#9D04
(1720539250.476342) can0 425#0000
(1720539250.476462) can0 080#9D04
(1720539250.485717) can0 425#0000
(1720539250.485858) can0 080#9D04
(1720539250.496340) can0 425#0000
(1720539250.496450) can0 080#9D04
(1720539250.505709) can0 425#0000
(1720539250.505848) can0 080#9D04
(1720539250.514827) can0 100#00001C25
(1720539250.516329) can0 425#0000
(1720539250.516449) can0 080#9D04
(1720539250.525725) can0 425#0000
(1720539250.525857) can0 080#9D04
(1720539250.536341) can0 425#0000
(1720539250.536439) can0 080#9D04
(1720539250.545716) can0 425#0000
(1720539250.545939) can0 080#A004
(1720539250.556294) can0 425#0000
(1720539250.556478) can0 080#A004
(1720539250.565713) can0 425#0000
(1720539250.565931) can0 080#9D04
(1720539250.576325) can0 425#0000
(1720539250.576453) can0 080#9D04
(1720539250.585726) can0 425#0000
(1720539250.585859) can0 080#8E04
(1720539250.596321) can0 425#0000
(1720539250.596440) can0 080#8E04
(1720539250.605737) can0 425#0000
(1720539250.605850) can0 080#9E04
(1720539250.614870) can0 100#00001C25
(1720539250.616321) can0 425#0000
(1720539250.616464) can0 080#9E04
(1720539250.625746) can0 425#0000
(1720539250.625859) can0 080#9D04
(1720539250.636314) can0 425#0000
(1720539250.636495) can0 080#9D04
(1720539250.645737) can0 425#0000
(1720539250.645837) can0 080#9D04
(1720539250.656332) can0 425#0000
(1720539250.656464) can0 080#9D04
(1720539250.665754) can0 425#0000
(1720539250.665860) can0 080#9B04
(1720539250.676340) can0 425#0000
(1720539250.676497) can0 080#9B04
(1720539250.685738) can0 425#0000
(1720539250.685838) can0 080#9C04
(1720539250.696333) can0 425#0000
(1720539250.696464) can0 080#9C04
(1720539250.705727) can0 425#0000
(1720539250.705848) can0 080#9C04
(1720539250.714926) can0 100#00001C25
(1720539250.716322) can0 425#0000
(1720539250.716497) can0 080#9C04
(1720539250.725708) can0 425#0000
(1720539250.725851) can0 080#9E04
(1720539250.736318) can0 425#0000
(1720539250.736465) can0 080#9E04
(1720539250.745720) can0 425#0000
(1720539250.745861) can0 080#9C04
(1720539250.756345) can0 425#0000
(1720539250.756454) can0 080#9C04
(1720539250.765741) can0 425#0000
(1720539250.765851) can0 080#9A04
(1720539250.776331) can0 425#0000
(1720539250.776465) can0 080#9A04
(1720539250.785722) can0 425#0000
(1720539250.785863) can0 080#9B04
(1720539250.796326) can0 425#0000
(1720539250.796498) can0 080#9B04
(1720539250.805714) can0 425#0000
(1720539250.805852) can0 080#9A04
(1720539250.814936) can0 100#00001C25
(1720539250.816330) can0 425#0000
(1720539250.816454) can0 080#9A04
(1720539250.825733) can0 425#0000
(1720539250.825862) can0 080#9B04
(1720539250.836324) can0 425#0000
