(1720538803.201344) can0 425#0000
(1720538803.201453) can0 080#3D07
(1720538803.211915) can0 425#0000
(1720538803.212059) can0 080#3D07
(1720538803.221334) can0 425#0000
(1720538803.221450) can0 080#3E07
(1720538803.231898) can0 425#0000
(1720538803.232059) can0 080#3E07
(1720538803.241334) can0 425#0000
(1720538803.241451) can0 080#3D07
(1720538803.251916) can0 425#0000
(1720538803.252059) can0 080#3D07
(1720538803.261334) can0 425#0000
(1720538803.261451) can0 080#3B07
(1720538803.271892) can0 425#0000
(1720538803.272061) can0 080#3B07
(1720538803.281339) can0 425#0000
(1720538803.281452) can0 080#3D07
(1720538803.291917) can0 425#0000
(1720538803.292060) can0 080#3D07
(1720538803.301317) can0 425#0000
(1720538803.301452) can0 080#3D07
(1720538803.311891) can0 425#0000
(1720538803.312073) can0 080#3D07
(1720538803.321318) can0 425#0000
(1720538803.321481) can0 080#3E07
(1720538803.331916) can0 425#0000
(1720538803.332074) can0 080#3E07
(1720538803.341319) can0 425#0000
(1720538803.341453) can0 080#3D07
(1720538803.351886) can0 425#0000
(1720538803.352074) can0 080#3D07
(1720538803.361319) can0 425#0000
(1720538803.361453) can0 080#3D07
(1720538803.371886) can0 425#0000
(1720538803.372075) can0 080#3D07
(1720538803.381337) can0 425#0000
(1720538803.381454) can0 080#3E07
(1720538803.391888) can0 425#0000
(1720538803.392075) can0 080#3E07
(1720538803.401320) can0 425#0000
(1720538803.401455) can0 080#3D07
(1720538803.411893) can0 425#0000
(1720538803.412075) can0 080#3D07
(1720538803.421320) can0 425#0000
(1720538803.421455) can0 080#3E07
(1720538803.431887) can0 425#0000
(1720538803.432078) can0 080#3E07
(1720538803.441343) can0 425#0000
(1720538803.441456) can0 080#3D07
(1720538803.451888) can0 425#0000
(1720538803.452077) can0 080#3D07
(1720538803.461323) can0 425#0000
(1720538803.461456) can0 080#3E07
(1720538803.471891) can0 425#0000
(1720538803.472077) can0 080#3E07
(1720538803.481323) can0 425#0000
(1720538803.481457) can0 080#3E07
(1720538803.491896) can0 425#0000
(1720538803.492077) can0 080#3E07
(1720538803.501324) can0 425#0000
(1720538803.501456) can0 080#3E07
(1720538803.511921) can0 425#0000
(1720538803.512078) can0 080#3E07
(1720538803.521321) can0 425#0000
(1720538803.521457) can0 080#3E07
(1720538803.531922) can0 425#0000
(1720538803.532066) can0 080#3E07
(1720538803.541357) can0 425#0000
(1720538803.541461) can0 080#3F07
(1720538803.551922) can0 425#0000
(1720538803.552079) can0 080#3F07
(1720538803.561343) can0 425#0000
(1720538803.561457) can0 080#3D07
(1720538803.571897) can0 425#0000
(1720538803.572079) can0 080#3D07
(1720538803.581324) can0 425#0000
(1720538803.581458) can0 080#3A07
(1720538803.591891) can0 425#0000
(1720538803.592030) can0 080#3A07
(1720538803.601341) can0 425#0000
(1720538803.601454) can0 080#3D07
(1720538803.611888) can0 425#0000
(1720538803.612070) can0 080#3D07
(1720538803.621337) can0 425#0000
(1720538803.621466) can0 080#3E07
(1720538803.631900) can0 425#0000
(1720538803.632041) can0 080#3E07
(1720538803.641356) can0 425#0000
(1720538803.641463) can0 080#3F07
(1720538803.651924) can0 425#0000
(1720538803.652080) can0 080#3F07
(1720538803.661325) can0 425#0000
(1720538803.661460) can0 080#3D07
(1720538803.671892) can0 425#0000
(1720538803.672081) can0 080#3D07
(1720538803.681345) can0 425#0000
(1720538803.681460) can0 080#3D07
(1720538803.691921) can0 425#0000
(1720538803.692083) can0 080#3D07
(1720538803.701346) can0 425#0000
(1720538803.701460) can0 080#3D07
(1720538803.711894) can0 425#0000
(1720538803.712082) can0 080#3D07
(1720538803.721345) can0 425#0000
(1720538803.721461) can0 080#3E07
(1720538803.731959) can0 425#0000
(1720538803.731999) can0 080#3E07
(1720538803.741372) can0 425#0000
(1720538803.741422) can0 080#3D07
(1720538803.751894) can0 425#0000
(1720538803.752073) can0 080#3D07
(1720538803.761344) can0 425#0000
(1720538803.761458) can0 080#3D07
(1720538803.771892) can0 425#0000
(1720538803.772073) can0 080#3D07
(1720538803.781343) can0 425#0000
(1720538803.781469) can0 080#3D07
(1720538803.791901) can0 425#0000
(1720538803.792087) can0 080#3D07
(1720538803.801340) can0 425#0000
(1720538803.801466) can0 080#3E07
(1720538803.811899) can0 425#0000
(1720538803.812084) can0 080#3E07
(1720538803.821332) can0 425#0000
(1720538803.821463) can0 080#3D07
(1720538803.831930) can0 425#0000
(1720538803.832084) can0 080#3D07
(1720538803.841352) can0 425#0000
(1720538803.841463) can0 080#3D07
(1720538803.851965) can0 425#0000
(1720538803.852086) can0 080#3D07
(1720538803.861366) can0 425#0000
(1720538803.861441) can0 080#3F07
(1720538803.871955) can0 425#0000
(1720538803.872086) can0 080#3F07
(1720538803.881354) can0 425#0000
(1720538803.881465) can0 080#3E07
(1720538803.891931) can0 425#0000
(1720538803.892086) can0 080#3E07
(1720538803.901359) can0 425#0000
(1720538803.901465) can0 080#3D07
(1720538803.911904) can0 425#0000
(1720538803.912087) can0 080#3D07
(1720538803.921334) can0 425#0000
(1720538803.921465) can0 080#3207
(1720538803.931906) can0 425#0000
(1720538803.932131) can0 080#3207
(1720538803.941335) can0 425#0000
(1720538803.941466) can0 080#3D07
(1720538803.951899) can0 425#0000
(1720538803.952086) can0 080#3D07
(1720538803.961334) can0 425#0000
(1720538803.961467) can0 080#3E07
(1720538803.971942) can0 425#0000
(1720538803.972160) can0 080#3E07
(1720538803.981335) can0 425#0000
(1720538803.981466) can0 080#3D07
(1720538803.991907) can0 425#0000
(1720538803.992088) can0 080#3D07
(1720538804.001334) can0 425#0000
(1720538804.001467) can0 080#3D07
(1720538804.011954) can0 425#0000
(1720538804.012089) can0 080#3D07
(1720538804.021357) can0 425#0000
(1720538804.021468) can0 080#3D07
(1720538804.031934) can0 425#0000
(1720538804.032090) can0 080#3D07
(1720538804.041357) can0 425#0000
(1720538804.041467) can0 080#3D07
(1720538804.051940) can0 425#0000
(1720538804.052092) can0 080#3D07
(1720538804.061388) can0 425#0000
(1720538804.061442) can0 080#3B07
(1720538804.071937) can0 425#0000
(1720538804.072046) can0 080#3B07
(1720538804.081373) can0 425#0000
(1720538804.081454) can0 080#3E07
(1720538804.091901) can0 425#0000
(1720538804.092080) can0 080#3E07
(1720538804.101352) can0 425#0000
(1720538804.101476) can0 080#3D07
(1720538804.111906) can0 425#0000
(1720538804.112094) can0 080#3D07
(1720538804.121397) can0 425#0000
(1720538804.121438) can0 080#3E07
(1720538804.131936) can0 425#0000
(1720538804.132090) can0 080#3E07
(1720538804.141356) can0 425#0000
(1720538804.141470) can0 080#3D07
(1720538804.151968) can0 425#0000
(1720538804.152091) can0 080#3D07
(1720538804.161337) can0 425#0000
(1720538804.161471) can0 080#3E07
(1720538804.171904) can0 425#0000
(1720538804.172043) can0 080#3E07
(1720538804.181375) can0 425#0000
(1720538804.181467) can0 080#3D07
(1720538804.191971) can0 425#0000
(1720538804.192085) can0 080#3D07
(1720538804.201413) can0 425#0000
(1720538804.201456) can0 080#3D07
(1720538804.211913) can0 425#0000
(1720538804.212096) can0 080#3D07
(1720538804.221346) can0 425#0000
(1720538804.221475) can0 080#3D07
(1720538804.231942) can0 425#0000
(1720538804.232093) can0 080#3D07
(1720538804.241366) can0 425#0000
(1720538804.241474) can0 080#3D07
(1720538804.251907) can0 425#0000
(1720538804.252094) can0 080#3D07
(1720538804.261394) can0 425#0000
(1720538804.261450) can0 080#3907
(1720538804.271943) can0 425#0000
(1720538804.272095) can0 080#3907
(1720538804.281363) can0 425#0000
(1720538804.281472) can0 080#3B07
(1720538804.291938) can0 425#0000
(1720538804.292093) can0 080#3B07
(1720538804.301370) can0 425#0000
(1720538804.301475) can0 080#3D07
(1720538804.311914) can0 425#0000
(1720538804.312094) can0 080#3D07
(1720538804.321405) can0 425#0000
(1720538804.321462) can0 080#3D07
(1720538804.331942) can0 425#0000
(1720538804.332095) can0 080#3D07
(1720538804.341363) can0 425#0000
(1720538804.341474) can0 080#3D07
(1720538804.351962) can0 425#0000
(1720538804.352096) can0 080#3D07
(1720538804.361362) can0 425#0000
(1720538804.361474) can0 080#3D07
(1720538804.371943) can0 425#0000
(1720538804.372096) can0 080#3D07
(1720538804.381363) can0 425#0000
(1720538804.381474) can0 080#3E07
(1720538804.391911) can0 425#0000
(1720538804.392097) can0 080#3E07
(1720538804.401367) can0 425#0000
(1720538804.401475) can0 080#3E07
(1720538804.411977) can0 425#0000
(1720538804.412097) can0 080#3E07
(1720538804.421366) can0 425#0000
(1720538804.421479) can0 080#3E07
(1720538804.431910) can0 425#0000
(1720538804.432097) can0 080#3E07
(1720538804.441342) can0 425#0000
(1720538804.441477) can0 080#3E07
(1720538804.451976) can0 425#0000
(1720538804.452098) can0 080#3E07
(1720538804.461370) can0 425#0000
(1720538804.461476) can0 080#3D07
(1720538804.471912) can0 425#0000
(1720538804.472098) can0 080#3D07
(1720538804.481346) can0 425#0000
(1720538804.481477) can0 080#3D07
(1720538804.491947) can0 425#0000
(1720538804.492099) can0 080#3D07
(1720538804.501368) can0 425#0000
(1720538804.501478) can0 080#3D07
(1720538804.511948) can0 425#0000
(1720538804.512047) can0 080#3D07
(1720538804.521361) can0 425#0000
(1720538804.521474) can0 080#3D07
(1720538804.531910) can0 425#0000
(1720538804.532089) can0 080#3D07
(1720538804.541359) can0 425#0000
(1720538804.541485) can0 080#3E07
(1720538804.551949) can0 425#0000
(1720538804.552104) can0 080#3E07
(1720538804.561377) can0 425#0000
(1720538804.561487) can0 080#3D07
(1720538804.571914) can0 425#0000
(1720538804.572100) can0 080#3D07
(1720538804.581380) can0 425#0000
(1720538804.581467) can0 080#3C07
(1720538804.591928) can0 425#0000
(1720538804.592101) can0 080#3C07
(1720538804.601370) can0 425#0000
(1720538804.601479) can0 080#3C07
(1720538804.611925) can0 425#0000
(1720538804.612052) can0 080#3C07
(1720538804.621387) can0 425#0000
(1720538804.621453) can0 080#3E07
(1720538804.631941) can0 425#0000
(1720538804.632091) can0 080#3E07
(1720538804.641383) can0 425#0000
(1720538804.641479) can0 080#3E07
(1720538804.651954) can0 425#0000
(1720538804.652105) can0 080#3E07
(1720538804.661376) can0 425#0000
(1720538804.661471) can0 080#3D07
(1720538804.671929) can0 425#0000
(1720538804.672101) can0 080#3D07
(1720538804.681368) can0 425#0000
(1720538804.681468) can0 080#3D07
(1720538804.691985) can0 425#0000
(1720538804.692103) can0 080#3D07
(1720538804.701367) can0 425#0000
(1720538804.701469) can0 080#3D07
(1720538804.711927) can0 425#0000
(1720538804.712054) can0 080#3D07
(1720538804.721364) can0 425#0000
(1720538804.721465) can0 080#3D07
(1720538804.731924) can0 425#0000
(1720538804.732093) can0 080#3D07
(1720538804.741398) can0 425#0000
(1720538804.741469) can0 080#3D07
(1720538804.751954) can0 425#0000
(1720538804.752065) can0 080#3D07
(1720538804.761416) can0 425#0000
(1720538804.761466) can0 080#3B07
(1720538804.771949) can0 425#0000
(1720538804.772104) can0 080#3B07
(1720538804.781369) can0 425#0000
(1720538804.781471) can0 080#3C07
(1720538804.791927) can0 425#0000
(1720538804.792104) can0 080#3C07
(1720538804.801350) can0 425#0000
(1720538804.801472) can0 080#3D07
(1720538804.812010) can0 425#0000
(1720538804.812175) can0 080#3D07
(1720538804.821404) can0 425#0000
(1720538804.821459) can0 080#3D07
(1720538804.831994) can0 425#0000
(1720538804.832174) can0 080#3D07
(1720538804.841485) can0 425#0000
(1720538804.841488) can0 080#3D07
(1720538804.852007) can0 425#0000
(1720538804.852055) can0 080#3D07
(1720538804.861419) can0 425#0000
(1720538804.861450) can0 080#3C07
(1720538804.872024) can0 425#0000
(1720538804.872065) can0 080#3C07
(1720538804.881366) can0 425#0000
(1720538804.881481) can0 080#3C07
(1720538804.892071) can0 425#0000
(1720538804.892074) can0 080#3C07
(1720538804.901363) can0 425#0000
(1720538804.901477) can0 080#3D07
(1720538804.911965) can0 425#0000
(1720538804.912109) can0 080#3D07
(1720538804.921373) can0 425#0000
(1720538804.921474) can0 080#2B07
(1720538804.931997) can0 425#0000
(1720538804.932112) can0 080#2B07
(1720538804.941378) can0 425#0000
(1720538804.941474) can0 080#3D07
(1720538804.951956) can0 425#0000
(1720538804.952128) can0 080#3D07
(1720538804.961344) can0 425#0000
(1720538804.961475) can0 080#3C07
(1720538804.971930) can0 425#0000
(1720538804.972108) can0 080#3C07
(1720538804.981382) can0 425#0000
(1720538804.981475) can0 080#3D07
(1720538804.985680) can0 100#00000000
(1720538804.987204) can0 100#00000000
(1720538804.988737) can0 100#00000500
(1720538804.990312) can0 100#00000A00
(1720538804.991842) can0 100#00000F00
(1720538804.991974) can0 425#0000
(1720538804.992151) can0 080#3D07
(1720538804.993396) can0 100#00001400
(1720538804.994966) can0 100#00001900
(1720538804.996539) can0 100#00001E00
(1720538804.998010) can0 100#00002300
(1720538804.999548) can0 100#00002800
(1720538805.001091) can0 100#00002D00
(1720538805.001359) can0 425#0000
(1720538805.001491) can0 080#3D07
(1720538805.002629) can0 100#00003200
(1720538805.004203) can0 100#00003700
(1720538805.005718) can0 100#00003C00
(1720538805.007262) can0 100#00004100
(1720538805.008770) can0 100#00004600
(1720538805.010364) can0 100#00004B00
(1720538805.011906) can0 100#00005000
(1720538805.012038) can0 425#0000
(1720538805.012247) can0 080#3D07
(1720538805.013450) can0 100#00005500
(1720538805.014994) can0 100#00005A00
(1720538805.016514) can0 100#00005F00
(1720538805.018070) can0 100#00006400
(1720538805.019614) can0 100#00006900
(1720538805.021165) can0 100#00006E00
(1720538805.021321) can0 425#0000
(1720538805.021439) can0 080#3D07
(1720538805.022676) can0 100#00007300
(1720538805.024261) can0 100#00007800
(1720538805.025734) can0 100#00007D00
(1720538805.027304) can0 100#00008200
(1720538805.028850) can0 100#00008700
(1720538805.030369) can0 100#00008C00
(1720538805.031907) can0 100#00009100
(1720538805.032026) can0 425#0000
(1720538805.032263) can0 080#3D07
(1720538805.033451) can0 100#00009600
(1720538805.035012) can0 100#00009B00
(1720538805.036542) can0 100#0000A000
(1720538805.038077) can0 100#0000A500
(1720538805.039597) can0 100#0000AA00
(1720538805.041137) can0 100#0000AF00
(1720538805.041298) can0 425#0000
(1720538805.041446) can0 080#3B07
(1720538805.042697) can0 100#0000B400
(1720538805.044206) can0 100#0000B900
(1720538805.045728) can0 100#0000BE00
(1720538805.047328) can0 100#0000BE00
(1720538805.048860) can0 100#0000C300
(1720538805.050364) can0 100#0000C800
(1720538805.051896) can0 100#0000CD00
(1720538805.052039) can0 425#0000
(1720538805.052261) can0 080#3B07
(1720538805.053446) can0 100#0000D200
(1720538805.054979) can0 100#0000D700
(1720538805.056554) can0 100#0000DC00
(1720538805.058078) can0 100#0000E100
(1720538805.059595) can0 100#0000E600
(1720538805.061161) can0 100#0000EB00
(1720538805.061360) can0 425#0000
(1720538805.061449) can0 080#3A07
(1720538805.062680) can0 100#0000F000
(1720538805.064312) can0 100#0000F500
(1720538805.065761) can0 100#0000FA00
(1720538805.067328) can0 100#0000FF00
(1720538805.068845) can0 100#00000401
(1720538805.070398) can0 100#00000901
(1720538805.071929) can0 100#00000E01
(1720538805.072062) can0 425#0000
(1720538805.072196) can0 080#3A07
(1720538805.073524) can0 100#00001301
(1720538805.075033) can0 100#00001801
(1720538805.076550) can0 100#00001D01
(1720538805.078084) can0 100#00002201
(1720538805.079607) can0 100#00002701
(1720538805.081159) can0 100#00002C01
(1720538805.081392) can0 425#0000
(1720538805.081493) can0 080#3C07
(1720538805.082688) can0 100#00003101
(1720538805.084262) can0 100#00003601
(1720538805.085764) can0 100#00003B01
(1720538805.087328) can0 100#00004001
(1720538805.088848) can0 100#00004501
(1720538805.090365) can0 100#00004A01
(1720538805.091925) can0 100#00004F01
(1720538805.092058) can0 425#0000
(1720538805.092184) can0 080#3C07
(1720538805.093451) can0 100#00005401
(1720538805.095012) can0 100#00005901
(1720538805.096556) can0 100#00005E01
(1720538805.098076) can0 100#00006301
(1720538805.099616) can0 100#00006801
(1720538805.101158) can0 100#00006D01
(1720538805.101361) can0 425#0000
(1720538805.101480) can0 080#3C07
(1720538805.102696) can0 100#00007201
(1720538805.104262) can0 100#00007701
(1720538805.105768) can0 100#00007C01
(1720538805.107300) can0 100#00008101
(1720538805.108845) can0 100#00008601
(1720538805.110409) can0 100#00008B01
(1720538805.111951) can0 100#00009001
(1720538805.112071) can0 425#0000
(1720538805.112263) can0 080#3C07
(1720538805.113541) can0 100#00009001
(1720538805.115012) can0 100#00009501
(1720538805.116517) can0 100#00009A01
(1720538805.118080) can0 100#00009F01
(1720538805.119659) can0 100#0000A401
(1720538805.121178) can0 100#0000A901
(1720538805.121362) can0 425#0000
(1720538805.121486) can0 080#3B07
(1720538805.122697) can0 100#0000AE01
(1720538805.124263) can0 100#0000B301
(1720538805.125800) can0 100#0000B801
(1720538805.127363) can0 100#0000BD01
(1720538805.128873) can0 100#0000C201
(1720538805.130413) can0 100#0000C701
(1720538805.131942) can0 100#0000CC01
(1720538805.132084) can0 425#0000
(1720538805.132250) can0 080#3B07
(1720538805.133556) can0 100#0000D101
(1720538805.135021) can0 100#0000D601
(1720538805.136611) can0 100#0000DB01
(1720538805.138111) can0 100#0000E001
(1720538805.139637) can0 100#0000E501
(1720538805.141190) can0 100#0000EA01
(1720538805.141363) can0 425#0000
(1720538805.141494) can0 080#3D07
(1720538805.142737) can0 100#0000EF01
(1720538805.144250) can0 100#0000F401
(1720538805.145825) can0 100#0000F901
(1720538805.147363) can0 100#0000FE01
(1720538805.148913) can0 100#00000302
(1720538805.150435) can0 100#00000802
(1720538805.151948) can0 425#0000
(1720538805.152079) can0 100#00000D02
(1720538805.152279) can0 080#3D07
(1720538805.153522) can0 100#00001202
(1720538805.155045) can0 100#00001702
(1720538805.156601) can0 100#00001C02
(1720538805.158122) can0 100#00002102
(1720538805.159669) can0 100#00002102
(1720538805.161221) can0 100#00002602
(1720538805.161362) can0 425#0000
(1720538805.161495) can0 080#3C07
(1720538805.162729) can0 100#00002B02
(1720538805.164263) can0 100#00003002
(1720538805.165823) can0 100#00003502
(1720538805.167375) can0 100#00003A02
(1720538805.168876) can0 100#00003F02
(1720538805.170453) can0 100#00004402
(1720538805.171928) can0 425#0000
(1720538805.172102) can0 100#00004902
(1720538805.172268) can0 080#3C07
(1720538805.173535) can0 100#00004E02
(1720538805.175041) can0 100#00005302
(1720538805.176578) can0 100#00005802
(1720538805.178107) can0 100#00005D02
(1720538805.179682) can0 100#00006202
(1720538805.181264) can0 100#00006702
(1720538805.181353) can0 425#0000
(1720538805.181475) can0 080#3C07
(1720538805.182730) can0 100#00006C02
(1720538805.184265) can0 100#00007102
(1720538805.185808) can0 100#00007602
(1720538805.187355) can0 100#00007B02
(1720538805.188917) can0 100#00008002
(1720538805.190452) can0 100#00008502
(1720538805.191896) can0 425#0000
(1720538805.192082) can0 100#00008A02
(1720538805.192263) can0 080#3C07
(1720538805.193536) can0 100#00008F02
(1720538805.195059) can0 100#00009402
(1720538805.196613) can0 100#00009902
(1720538805.198117) can0 100#00009E02
(1720538805.199645) can0 100#0000A302
(1720538805.201195) can0 100#0000A802
(1720538805.201367) can0 425#0000
(1720538805.201499) can0 080#3D07
(1720538805.202741) can0 100#0000AD02
(1720538805.204251) can0 100#0000B202
(1720538805.205846) can0 100#0000B702
(1720538805.207366) can0 100#0000BC02
(1720538805.208911) can0 100#0000C102
(1720538805.210443) can0 100#0000C602
(1720538805.211930) can0 425#0000
(1720538805.212104) can0 100#0000CB02
(1720538805.212264) can0 080#3D07
(1720538805.213544) can0 100#0000D002
(1720538805.215042) can0 100#0000D002
(1720538805.216578) can0 100#0000D502
(1720538805.218125) can0 100#0000DA02
(1720538805.219648) can0 100#0000DF02
(1720538805.221203) can0 100#0000E402
(1720538805.221364) can0 425#0000
(1720538805.221495) can0 080#3D07
(1720538805.222730) can0 100#0000E902
(1720538805.224265) can0 100#0000EE02
(1720538805.225813) can0 100#0000F302
(1720538805.227372) can0 100#0000F802
(1720538805.228879) can0 100#0000FD02
(1720538805.230453) can0 100#00000203
(1720538805.231929) can0 425#0000
(1720538805.232103) can0 100#00000703
(1720538805.232270) can0 080#3D07
(1720538805.233536) can0 100#00000C03
(1720538805.235042) can0 100#00001103
(1720538805.236578) can0 100#00001603
(1720538805.238130) can0 100#00001B03
(1720538805.239649) can0 100#00002003
(1720538805.241209) can0 100#00002503
(1720538805.241368) can0 425#0000
(1720538805.241487) can0 080#3C07
(1720538805.242728) can0 100#00002A03
(1720538805.244268) can0 100#00002F03
(1720538805.245808) can0 100#00003403
(1720538805.247356) can0 100#00003903
(1720538805.248910) can0 100#00003E03
(1720538805.250406) can0 100#00004303
(1720538805.251914) can0 425#0000
(1720538805.252076) can0 100#00004803
(1720538805.252265) can0 080#3C07
(1720538805.253558) can0 100#00004D03
(1720538805.255037) can0 100#00005203
(1720538805.256549) can0 100#00005703
(1720538805.258097) can0 100#00005C03
(1720538805.259640) can0 100#00006103
(1720538805.261170) can0 100#00006603
(1720538805.261356) can0 425#0000
(1720538805.261500) can0 080#3607
(1720538805.262706) can0 100#00006B03
(1720538805.264266) can0 100#00007003
(1720538805.265762) can0 100#00007503
(1720538805.267331) can0 100#00007A03
(1720538805.268849) can0 100#00007F03
(1720538805.270363) can0 100#00008403
(1720538805.271903) can0 100#00008903
(1720538805.272055) can0 425#0000
(1720538805.272187) can0 080#3607
(1720538805.273456) can0 100#00008903
(1720538805.275003) can0 100#00008E03
(1720538805.276566) can0 100#00009303
(1720538805.278080) can0 100#00009803
(1720538805.279646) can0 100#00009D03
(1720538805.281174) can0 100#0000A203
(1720538805.281364) can0 425#0000
(1720538805.281496) can0 080#3C07
(1720538805.282705) can0 100#0000A703
(1720538805.284256) can0 100#0000AC03
(1720538805.285774) can0 100#0000B103
(1720538805.287332) can0 100#0000B603
(1720538805.288848) can0 100#0000BB03
(1720538805.290404) can0 100#0000C003
(1720538805.291956) can0 100#0000C503
(1720538805.292089) can0 425#0000
(1720538805.292266) can0 080#3C07
(1720538805.293531) can0 100#0000CA03
(1720538805.295016) can0 100#0000CF03
(1720538805.296559) can0 100#0000D403
(1720538805.298135) can0 100#0000D903
(1720538805.299629) can0 100#0000DE03
(1720538805.301167) can0 100#0000E303
(1720538805.301370) can0 425#0000
(1720538805.301501) can0 080#3D07
(1720538805.302735) can0 100#0000E803
(1720538805.304265) can0 100#0000ED03
(1720538805.305818) can0 100#0000F203
(1720538805.307334) can0 100#0000F703
(1720538805.308886) can0 100#0000FC03
(1720538805.310413) can0 100#00000104
(1720538805.311916) can0 425#0000
(1720538805.312090) can0 100#00000604
(1720538805.312254) can0 080#3D07
(1720538805.313543) can0 100#00000B04
(1720538805.315037) can0 100#00001004
(1720538805.316589) can0 100#00001504
(1720538805.318094) can0 100#00001A04
(1720538805.319663) can0 100#00001F04
(1720538805.321213) can0 100#00002404
(1720538805.321371) can0 425#0000
(1720538805.321489) can0 080#3C07
(1720538805.322747) can0 100#00002904
(1720538805.324266) can0 100#00002E04
(1720538805.325818) can0 100#00003304
(1720538805.327324) can0 100#00003804
(1720538805.328872) can0 100#00003D04
(1720538805.330412) can0 100#00004204
(1720538805.331960) can0 100#00004704
(1720538805.332079) can0 425#0000
(1720538805.332268) can0 080#3C07
(1720538805.333540) can0 100#00004C04
(1720538805.335038) can0 100#00004C04
(1720538805.336557) can0 100#00005104
(1720538805.338081) can0 100#00005604
(1720538805.339621) can0 100#00005B04
(1720538805.341170) can0 100#00006004
(1720538805.341323) can0 425#0000
(1720538805.341475) can0 080#3C07
(1720538805.342687) can0 100#00006504
(1720538805.344275) can0 100#00006A04
(1720538805.345757) can0 100#00006F04
(1720538805.347327) can0 100#00007404
(1720538805.348838) can0 100#00007904
(1720538805.350371) can0 100#00007E04
(1720538805.351905) can0 100#00008304
(1720538805.352047) can0 425#0000
(1720538805.352267) can0 080#3C07
(1720538805.353452) can0 100#00008804
(1720538805.354990) can0 100#00008D04
(1720538805.356562) can0 100#00009204
(1720538805.358082) can0 100#00009704
(1720538805.359620) can0 100#00009C04
(1720538805.361151) can0 100#0000A104
(1720538805.361368) can0 425#0000
(1720538805.361498) can0 080#3C07
(1720538805.362695) can0 100#0000A604
(1720538805.364260) can0 100#0000AB04
(1720538805.365772) can0 100#0000B004
(1720538805.367334) can0 100#0000B504
(1720538805.368872) can0 100#0000BA04
(1720538805.370401) can0 100#0000BF04
(1720538805.371956) can0 100#0000C404
(1720538805.372088) can0 425#0000
(1720538805.372267) can0 080#3C07
(1720538805.373529) can0 100#0000C904
(1720538805.375040) can0 100#0000CE04
(1720538805.376569) can0 100#0000D304
(1720538805.378091) can0 100#0000D804
(1720538805.379635) can0 100#0000DD04
(1720538805.381164) can0 100#0000E204
(1720538805.381367) can0 425#0000
(1720538805.381499) can0 080#3B07
(1720538805.382693) can0 100#0000E704
(1720538805.384278) can0 100#0000EC04
(1720538805.385770) can0 100#0000F104
(1720538805.387334) can0 100#0000F604
(1720538805.388846) can0 100#0000FB04
(1720538805.390414) can0 100#0000FB04
(1720538805.391976) can0 100#00000005
(1720538805.392107) can0 425#0000
(1720538805.392272) can0 080#3B07
(1720538805.393562) can0 100#00000505
(1720538805.395042) can0 100#00000A05
(1720538805.396579) can0 100#00000F05
(1720538805.398110) can0 100#00001405
(1720538805.399617) can0 100#00001905
(1720538805.401168) can0 100#00001E05
(1720538805.401370) can0 425#0000
(1720538805.401490) can0 080#3D07
(1720538805.402709) can0 100#00002305
(1720538805.404268) can0 100#00002805
(1720538805.405812) can0 100#00002D05
(1720538805.407320) can0 100#00003205
(1720538805.408867) can0 100#00003705
(1720538805.410414) can0 100#00003C05
(1720538805.411958) can0 100#00004105
(1720538805.412078) can0 425#0000
(1720538805.412268) can0 080#3D07
(1720538805.413547) can0 100#00004605
(1720538805.415049) can0 100#00004B05
(1720538805.416549) can0 100#00005005
(1720538805.418101) can0 100#00005505
(1720538805.419646) can0 100#00005A05
(1720538805.421184) can0 100#00005F05
(1720538805.421368) can0 425#0000
(1720538805.421494) can0 080#4007
(1720538805.422734) can0 100#00006405
(1720538805.424269) can0 100#00006905
(1720538805.425808) can0 100#00006E05
(1720538805.427369) can0 100#00007305
(1720538805.428914) can0 100#00007805
(1720538805.430420) can0 100#00007D05
(1720538805.431927) can0 425#0000
(1720538805.432117) can0 100#00008205
(1720538805.432272) can0 080#4007
(1720538805.433568) can0 100#00008705
(1720538805.435050) can0 100#00008C05
(1720538805.436579) can0 100#00008C05
(1720538805.438123) can0 100#00009105
(1720538805.439688) can0 100#00009605
(1720538805.441257) can0 100#00009B05
(1720538805.441358) can0 425#0000
(1720538805.441493) can0 080#3D07
(1720538805.442748) can0 100#0000A005
(1720538805.444256) can0 100#0000A505
(1720538805.445833) can0 100#0000AA05
(1720538805.447372) can0 100#0000AF05
(1720538805.448915) can0 100#0000B405
(1720538805.450433) can0 100#0000B905
(1720538805.451925) can0 425#0000
(1720538805.452086) can0 100#0000BE05
(1720538805.452218) can0 080#3D07
(1720538805.453556) can0 100#0000C305
(1720538805.455090) can0 100#0000C805
(1720538805.456600) can0 100#0000CD05
(1720538805.458167) can0 100#0000D205
(1720538805.459675) can0 100#0000D705
(1720538805.461272) can0 100#0000DC05
(1720538805.461347) can0 425#0000
(1720538805.461493) can0 080#3E07
(1720538805.462735) can0 100#0000E105
(1720538805.464273) can0 100#0000E605
(1720538805.465859) can0 100#0000EB05
(1720538805.467370) can0 100#0000F005
(1720538805.468909) can0 100#0000F505
(1720538805.470464) can0 100#0000FA05
(1720538805.471955) can0 425#0000
(1720538805.472086) can0 100#0000FF05
(1720538805.472274) can0 080#3E07
(1720538805.473528) can0 100#00000406
(1720538805.475092) can0 100#00000906
(1720538805.476602) can0 100#00000E06
(1720538805.478153) can0 100#00001306
(1720538805.479688) can0 100#00001806
(1720538805.481270) can0 100#00001D06
(1720538805.481359) can0 425#0000
(1720538805.481481) can0 080#3D07
(1720538805.482790) can0 100#00002206
(1720538805.484275) can0 100#00002706
(1720538805.485834) can0 100#00002C06
(1720538805.487361) can0 100#00003106
(1720538805.488925) can0 100#00003606
(1720538805.490455) can0 100#00003B06
(1720538805.491918) can0 425#0000
(1720538805.492102) can0 100#00004006
(1720538805.492276) can0 080#3D07
(1720538805.493549) can0 100#00004006
(1720538805.495086) can0 100#00004506
(1720538805.496602) can0 100#00004A06
(1720538805.498167) can0 100#00004F06
(1720538805.499692) can0 100#00005406
(1720538805.501259) can0 100#00005906
(1720538805.501359) can0 425#0000
(1720538805.501494) can0 080#3D07
(1720538805.502748) can0 100#00005E06
(1720538805.504268) can0 100#00006306
(1720538805.505787) can0 100#00006806
(1720538805.507360) can0 100#00006D06
(1720538805.508875) can0 100#00007206
(1720538805.510407) can0 100#00007706
(1720538805.511920) can0 425#0000
(1720538805.512102) can0 100#00007C06
(1720538805.512277) can0 080#3D07
(1720538805.513560) can0 100#00008106
(1720538805.515049) can0 100#00008606
(1720538805.516584) can0 100#00008B06
(1720538805.518147) can0 100#00009006
(1720538805.519642) can0 100#00009506
(1720538805.521212) can0 100#00009A06
(1720538805.521369) can0 425#0000
(1720538805.521503) can0 080#3D07
(1720538805.522740) can0 100#00009F06
(1720538805.524271) can0 100#0000A406
(1720538805.525831) can0 100#0000A906
(1720538805.527362) can0 100#0000AE06
(1720538805.528864) can0 100#0000B306
(1720538805.530378) can0 100#0000B806
(1720538805.531918) can0 425#0000
(1720538805.532092) can0 100#0000BD06
(1720538805.532258) can0 080#3D07
(1720538805.533565) can0 100#0000C206
(1720538805.535042) can0 100#0000C706
(1720538805.536569) can0 100#0000CC06
(1720538805.538095) can0 100#0000D106
(1720538805.539667) can0 100#0000D606
(1720538805.541184) can0 100#0000DB06
(1720538805.541383) can0 425#0000
(1720538805.541482) can0 080#4007
(1720538805.542736) can0 100#0000E006
(1720538805.544272) can0 100#0000E006
(1720538805.545816) can0 100#0000E506
(1720538805.547314) can0 100#0000EA06
(1720538805.548871) can0 100#0000EF06
(1720538805.550418) can0 100#0000F406
(1720538805.551967) can0 100#0000F906
(1720538805.552091) can0 425#0000
(1720538805.552278) can0 080#4007
(1720538805.553521) can0 100#0000FE06
(1720538805.555042) can0 100#00000307
(1720538805.556550) can0 100#00000807
(1720538805.558094) can0 100#00000D07
(1720538805.559631) can0 100#00001207
(1720538805.561169) can0 100#00001707
(1720538805.561358) can0 425#0000
(1720538805.561502) can0 080#3B07
(1720538805.562737) can0 100#00001C07
(1720538805.564274) can0 100#00002107
(1720538805.565780) can0 100#00002607
(1720538805.567331) can0 100#00002B07
(1720538805.568853) can0 100#00003007
(1720538805.570425) can0 100#00003507
(1720538805.571950) can0 100#00003A07
(1720538805.572095) can0 425#0000
(1720538805.572271) can0 080#3B07
(1720538805.573543) can0 100#00003F07
(1720538805.575030) can0 100#00004407
(1720538805.576586) can0 100#00004907
(1720538805.578093) can0 100#00004E07
(1720538805.579651) can0 100#00005307
(1720538805.581155) can0 100#00005807
(1720538805.581371) can0 425#0000
(1720538805.581503) can0 080#3507
(1720538805.582708) can0 100#00005D07
(1720538805.584259) can0 100#00006207
(1720538805.585780) can0 100#00006707
(1720538805.587339) can0 100#00006C07
(1720538805.588870) can0 100#00007107
(1720538805.590406) can0 100#00007607
(1720538805.591967) can0 100#00007B07
(1720538805.592105) can0 425#0000
(1720538805.592279) can0 080#3507
(1720538805.593556) can0 100#00008007
(1720538805.595043) can0 100#00008507
(1720538805.596572) can0 100#00008A07
(1720538805.598105) can0 100#00008F07
(1720538805.599640) can0 100#00009407
(1720538805.601217) can0 100#00009907
(1720538805.601375) can0 425#0000
(1720538805.601507) can0 080#2A07
(1720538805.602741) can0 100#00009E07
(1720538805.604272) can0 100#0000A307
(1720538805.605815) can0 100#0000A807
(1720538805.607376) can0 100#0000AD07
(1720538805.608863) can0 100#0000B207
(1720538805.610457) can0 100#0000B207
(1720538805.611924) can0 425#0000
(1720538805.612104) can0 100#0000B707
(1720538805.612267) can0 080#2A07
(1720538805.613540) can0 100#0000BC07
(1720538805.615047) can0 100#0000C107
(1720538805.616588) can0 100#0000C607
(1720538805.618138) can0 100#0000CB07
(1720538805.619691) can0 100#0000D007
(1720538805.621221) can0 100#0000D507
(1720538805.621377) can0 425#0000
(1720538805.621496) can0 080#2307
(1720538805.622758) can0 100#0000DA07
(1720538805.624275) can0 100#0000DF07
(1720538805.625820) can0 100#0000E407
(1720538805.627366) can0 100#0000E907
(1720538805.628924) can0 100#0000EE07
(1720538805.630457) can0 100#0000F307
(1720538805.631920) can0 425#0000
(1720538805.632082) can0 100#0000F807
(1720538805.632273) can0 080#2307
(1720538805.633566) can0 100#0000FD07
(1720538805.635061) can0 100#00000208
(1720538805.636600) can0 100#00000708
(1720538805.638127) can0 100#00000C08
(1720538805.639693) can0 100#00001108
(1720538805.641212) can0 100#00001608
(1720538805.641361) can0 425#0000
(1720538805.641504) can0 080#1B07
(1720538805.642748) can0 100#00001B08
(1720538805.644266) can0 100#00002008
(1720538805.645808) can0 100#00002508
(1720538805.647379) can0 100#00002A08
(1720538805.648921) can0 100#00002F08
(1720538805.650464) can0 100#00003408
(1720538805.651904) can0 425#0000
(1720538805.652092) can0 100#00003908
(1720538805.652273) can0 080#1B07
(1720538805.653567) can0 100#00003E08
(1720538805.655045) can0 100#00004308
(1720538805.656609) can0 100#00004808
(1720538805.658126) can0 100#00004D08
(1720538805.659670) can0 100#00005208
(1720538805.661204) can0 100#00005708
(1720538805.661373) can0 425#0000
(1720538805.661504) can0 080#1207
(1720538805.662732) can0 100#00005C08
(1720538805.664263) can0 100#00006108
(1720538805.665817) can0 100#00006608
(1720538805.667373) can0 100#00006B08
(1720538805.668877) can0 100#00007008
(1720538805.670415) can0 100#00007508
(1720538805.671920) can0 425#0000
(1720538805.672095) can0 100#00007508
(1720538805.672274) can0 080#1207
(1720538805.673554) can0 100#00007A08
(1720538805.675055) can0 100#00007F08
(1720538805.676570) can0 100#00008408
(1720538805.678106) can0 100#00008908
(1720538805.679657) can0 100#00008E08
(1720538805.681215) can0 100#00009308
(1720538805.681373) can0 425#0000
(1720538805.681505) can0 080#0A07
(1720538805.682741) can0 100#00009808
(1720538805.684276) can0 100#00009D08
(1720538805.685821) can0 100#0000A208
(1720538805.687335) can0 100#0000A708
(1720538805.688865) can0 100#0000AC08
(1720538805.690420) can0 100#0000B108
(1720538805.691966) can0 100#0000B608
(1720538805.692098) can0 425#0000
(1720538805.692261) can0 080#0A07
(1720538805.693547) can0 100#0000BB08
(1720538805.695047) can0 100#0000C008
(1720538805.696540) can0 100#0000C508
(1720538805.698083) can0 100#0000CA08
(1720538805.699631) can0 100#0000CF08
(1720538805.701171) can0 100#0000D408
(1720538805.701374) can0 425#0000
(1720538805.701493) can0 080#0107
(1720538805.702699) can0 100#0000D908
(1720538805.704279) can0 100#0000DE08
(1720538805.705781) can0 100#0000E308
(1720538805.707314) can0 100#0000E808
(1720538805.708875) can0 100#0000ED08
(1720538805.710420) can0 100#0000F208
(1720538805.711939) can0 425#0000
(1720538805.712101) can0 100#0000F708
(1720538805.712294) can0 080#0107
(1720538805.713568) can0 100#0000FC08
(1720538805.715047) can0 100#00000109
(1720538805.716560) can0 100#00000609
(1720538805.718108) can0 100#00000B09
(1720538805.719652) can0 100#00001009
(1720538805.721176) can0 100#00001509
(1720538805.721366) can0 425#0000
(1720538805.721509) can0 080#FC06
(1720538805.722714) can0 100#00001A09
(1720538805.724299) can0 100#00001F09
(1720538805.725772) can0 100#00001F09
(1720538805.727328) can0 100#00002409
(1720538805.728875) can0 100#00002909
(1720538805.730420) can0 100#00002E09
(1720538805.731932) can0 100#00003309
(1720538805.732124) can0 425#0000
(1720538805.732277) can0 080#FC06
(1720538805.733569) can0 100#00003809
(1720538805.735034) can0 100#00003D09
(1720538805.736568) can0 100#00004209
(1720538805.738098) can0 100#00004709
(1720538805.739672) can0 100#00004C09
(1720538805.741165) can0 100#00005109
(1720538805.741378) can0 425#0000
(1720538805.741510) can0 080#FA06
(1720538805.742716) can0 100#00005609
(1720538805.744262) can0 100#00005B09
(1720538805.745818) can0 100#00006009
(1720538805.747342) can0 100#00006509
(1720538805.748874) can0 100#00006A09
(1720538805.750413) can0 100#00006F09
(1720538805.751923) can0 100#00007409
(1720538805.752097) can0 425#0000
(1720538805.752276) can0 080#FA06
(1720538805.753534) can0 100#00007909
(1720538805.755025) can0 100#00007E09
(1720538805.756570) can0 100#00008309
(1720538805.758064) can0 100#00008809
(1720538805.759612) can0 100#00008D09
(1720538805.761173) can0 100#00009209
(1720538805.761375) can0 425#0000
(1720538805.761506) can0 080#F706
(1720538805.762687) can0 100#00009709
(1720538805.764282) can0 100#00009C09
(1720538805.765811) can0 100#0000A109
(1720538805.767341) can0 100#0000A609
(1720538805.768827) can0 100#0000AB09
(1720538805.770379) can0 100#0000B009
(1720538805.771925) can0 100#0000B509
(1720538805.772057) can0 425#0000
(1720538805.772264) can0 080#F706
(1720538805.773461) can0 100#0000BA09
(1720538805.775007) can0 100#0000BF09
(1720538805.776577) can0 100#0000C409
(1720538805.778087) can0 100#0000C909
(1720538805.779613) can0 100#0000CE09
(1720538805.781151) can0 100#0000D309
(1720538805.781327) can0 425#0000
(1720538805.781449) can0 080#F206
(1720538805.782712) can0 100#0000D809
(1720538805.784218) can0 100#0000DD09
(1720538805.785754) can0 100#0000DD09
(1720538805.787264) can0 100#0000E209
(1720538805.788821) can0 100#0000E709
(1720538805.790385) can0 100#0000EC09
(1720538805.791891) can0 100#0000F109
(1720538805.792034) can0 425#0000
(1720538805.792211) can0 080#F206
(1720538805.793418) can0 100#0000F609
(1720538805.794961) can0 100#0000FB09
(1720538805.796588) can0 100#0000000A
(1720538805.798057) can0 100#0000050A
(1720538805.799613) can0 100#00000A0A
(1720538805.801140) can0 100#00000F0A
(1720538805.801328) can0 425#0000
(1720538805.801463) can0 080#F106
(1720538805.802673) can0 100#0000140A
(1720538805.804205) can0 100#0000190A
(1720538805.805734) can0 100#00001E0A
(1720538805.807277) can0 100#0000230A
(1720538805.808825) can0 100#0000280A
(1720538805.810329) can0 100#00002D0A
(1720538805.811880) can0 100#0000320A
(1720538805.812012) can0 425#0000
(1720538805.812126) can0 080#F106
(1720538805.813411) can0 100#0000370A
(1720538805.814928) can0 100#00003C0A
(1720538805.816570) can0 100#0000410A
(1720538805.818048) can0 100#0000460A
(1720538805.819566) can0 100#00004B0A
(1720538805.821108) can0 100#0000500A
(1720538805.821421) can0 425#0000
(1720538805.821551) can0 080#F006
(1720538805.822650) can0 100#0000550A
(1720538805.824217) can0 100#00005A0A
(1720538805.825735) can0 100#00005F0A
(1720538805.827278) can0 100#0000640A
(1720538805.828813) can0 100#0000690A
(1720538805.830338) can0 100#00006E0A
(1720538805.831881) can0 100#0000730A
(1720538805.832014) can0 425#0000
(1720538805.832179) can0 080#F006
(1720538805.833429) can0 100#0000780A
(1720538805.834945) can0 100#00007D0A
(1720538805.836550) can0 100#0000820A
(1720538805.838037) can0 100#0000820A
(1720538805.839571) can0 100#0000870A
(1720538805.841132) can0 100#00008C0A
(1720538805.841285) can0 425#0000
(1720538805.841407) can0 080#EE06
(1720538805.842630) can0 100#0000910A
(1720538805.844191) can0 100#0000960A
(1720538805.845726) can0 100#00009B0A
(1720538805.847265) can0 100#0000A00A
(1720538805.848821) can0 100#0000A50A
(1720538805.850376) can0 100#0000AA0A
(1720538805.851884) can0 100#0000AF0A
(1720538805.851993) can0 425#0000
(1720538805.852165) can0 080#EE06
(1720538805.853425) can0 100#0000B40A
(1720538805.854946) can0 100#0000B90A
(1720538805.856496) can0 100#0000BE0A
(1720538805.858006) can0 100#0000C30A
(1720538805.859571) can0 100#0000C80A
(1720538805.861111) can0 100#0000CD0A
(1720538805.861272) can0 425#0000
(1720538805.861420) can0 080#EC06
(1720538805.862674) can0 100#0000D20A
(1720538805.864217) can0 100#0000D70A
(1720538805.865747) can0 100#0000DC0A
(1720538805.867295) can0 100#0000E10A
(1720538805.868842) can0 100#0000E60A
(1720538805.870381) can0 100#0000EB0A
(1720538805.871912) can0 100#0000F00A
(1720538805.872056) can0 425#0000
(1720538805.872192) can0 080#EC06
(1720538805.873419) can0 100#0000F50A
(1720538805.874994) can0 100#0000FA0A
(1720538805.876573) can0 100#0000FF0A
(1720538805.878057) can0 100#0000040B
(1720538805.879591) can0 100#0000090B
(1720538805.881119) can0 100#00000E0B
(1720538805.881423) can0 425#0000
(1720538805.881551) can0 080#ED06
(1720538805.882702) can0 100#0000130B
(1720538805.884205) can0 100#0000180B
(1720538805.885785) can0 100#00001D0B
(1720538805.887278) can0 100#0000220B
(1720538805.888838) can0 100#0000270B
(1720538805.890355) can0 100#0000270B
(1720538805.891909) can0 100#00002C0B
(1720538805.892045) can0 425#0000
(1720538805.892220) can0 080#ED06
(1720538805.893456) can0 100#0000310B
(1720538805.894985) can0 100#0000360B
(1720538805.896572) can0 100#00003B0B
(1720538805.898067) can0 100#0000400B
(1720538805.899598) can0 100#0000450B
(1720538805.901175) can0 100#00004A0B
(1720538805.901378) can0 425#0000
(1720538805.901509) can0 080#EC06
(1720538805.902704) can0 100#00004F0B
(1720538805.904227) can0 100#0000540B
(1720538805.905799) can0 100#0000590B
(1720538805.907285) can0 100#00005E0B
(1720538805.908865) can0 100#0000630B
(1720538805.910386) can0 100#0000680B
(1720538805.911926) can0 100#00006D0B
(1720538805.912056) can0 425#0000
(1720538805.912180) can0 080#EC06
(1720538805.913465) can0 100#0000720B
(1720538805.915003) can0 100#0000770B
(1720538805.916536) can0 100#00007C0B
(1720538805.918061) can0 100#0000810B
(1720538805.919589) can0 100#0000860B
(1720538805.921132) can0 100#00008B0B
(1720538805.921329) can0 425#0000
(1720538805.921451) can0 080#DC06
(1720538805.922703) can0 100#0000900B
(1720538805.924226) can0 100#0000950B
(1720538805.925757) can0 100#00009A0B
(1720538805.927271) can0 100#00009F0B
(1720538805.928845) can0 100#0000A40B
(1720538805.930378) can0 100#0000A90B
(1720538805.931929) can0 100#0000AE0B
(1720538805.932056) can0 425#0000
(1720538805.932201) can0 080#DC06
(1720538805.933476) can0 100#0000B30B
(1720538805.934986) can0 100#0000B80B
(1720538805.936560) can0 100#0000BD0B
(1720538805.938074) can0 100#0000C20B
(1720538805.939630) can0 100#0000C70B
(1720538805.941139) can0 100#0000CC0B
(1720538805.941327) can0 425#0000
(1720538805.941472) can0 080#EC06
(1720538805.942675) can0 100#0000D10B
(1720538805.944218) can0 100#0000D60B
(1720538805.945769) can0 100#0000DB0B
(1720538805.947282) can0 100#0000E00B
(1720538805.948844) can0 100#0000E50B
(1720538805.950382) can0 100#0000EA0B
(1720538805.951913) can0 100#0000EF0B
(1720538805.952059) can0 425#0000
(1720538805.952279) can0 080#EC06
(1720538805.953465) can0 100#0000EF0B
(1720538805.954982) can0 100#0000F40B
(1720538805.956554) can0 100#0000F90B
(1720538805.958094) can0 100#0000FE0B
(1720538805.959633) can0 100#0000030C
(1720538805.961142) can0 100#0000080C
(1720538805.961329) can0 425#0000
(1720538805.961465) can0 080#EB06
(1720538805.962707) can0 100#00000D0C
(1720538805.964352) can0 100#0000120C
(1720538805.965839) can0 100#0000170C
(1720538805.967323) can0 100#00001C0C
(1720538805.968872) can0 100#0000210C
(1720538805.970375) can0 100#0000260C
(1720538805.971927) can0 100#00002B0C
(1720538805.972059) can0 425#0000
(1720538805.972193) can0 080#EB06
(1720538805.973414) can0 100#0000300C
(1720538805.974987) can0 100#0000350C
(1720538805.976573) can0 100#00003A0C
(1720538805.978073) can0 100#00003F0C
(1720538805.979600) can0 100#0000440C
(1720538805.981176) can0 100#0000490C
(1720538805.981330) can0 425#0000
(1720538805.981465) can0 080#EC06
(1720538805.982689) can0 100#00004E0C
(1720538805.984225) can0 100#0000530C
(1720538805.985750) can0 100#0000580C
(1720538805.987280) can0 100#00005D0C
(1720538805.988817) can0 100#0000620C
(1720538805.990342) can0 100#0000670C
(1720538805.991927) can0 100#00006C0C
(1720538805.992058) can0 425#0000
(1720538805.992182) can0 080#EC06
(1720538805.993466) can0 100#0000710C
(1720538805.994977) can0 100#0000760C
(1720538805.996576) can0 100#00007B0C
(1720538805.998046) can0 100#0000800C
(1720538805.999645) can0 100#0000850C
(1720538806.001140) can0 100#00008A0C
(1720538806.001417) can0 425#0000
(1720538806.001546) can0 080#EC06
(1720538806.002677) can0 100#00008F0C
(1720538806.004219) can0 100#0000940C
(1720538806.005759) can0 100#0000990C
(1720538806.007268) can0 100#00009E0C
(1720538806.008845) can0 100#0000A30C
(1720538806.010388) can0 100#0000A80C
(1720538806.011931) can0 100#0000AD0C
(1720538806.012046) can0 425#0000
(1720538806.012195) can0 080#EC06
(1720538806.013466) can0 100#0000B20C
(1720538806.014976) can0 100#0000B70C
(1720538806.016565) can0 100#0000B70C
(1720538806.018074) can0 100#0000BC0C
(1720538806.019629) can0 100#0000C10C
(1720538806.021139) can0 100#0000C60C
(1720538806.021329) can0 425#0000
(1720538806.021472) can0 080#EB06
(1720538806.022677) can0 100#0000CB0C
(1720538806.024281) can0 100#0000D00C
(1720538806.025734) can0 100#0000D50C
(1720538806.027285) can0 100#0000DA0C
(1720538806.028841) can0 100#0000DF0C
(1720538806.030406) can0 100#0000E40C
(1720538806.031916) can0 100#0000E90C
(1720538806.032060) can0 425#0000
(1720538806.032195) can0 080#EB06
(1720538806.033467) can0 100#0000EE0C
(1720538806.035000) can0 100#0000F30C
(1720538806.036582) can0 100#0000F80C
(1720538806.038095) can0 100#0000FD0C
(1720538806.039631) can0 100#0000020D
(1720538806.041165) can0 100#0000070D
(1720538806.041381) can0 425#0000
(1720538806.041513) can0 080#EA06
(1720538806.042706) can0 100#00000C0D
(1720538806.044277) can0 100#0000110D
(1720538806.045787) can0 100#0000160D
(1720538806.047329) can0 100#00001B0D
(1720538806.048884) can0 100#0000200D
(1720538806.050372) can0 100#0000250D
(1720538806.051950) can0 100#00002A0D
(1720538806.052082) can0 425#0000
(1720538806.052281) can0 080#EA06
(1720538806.053540) can0 100#00002F0D
(1720538806.055053) can0 100#0000340D
(1720538806.056572) can0 100#0000390D
(1720538806.058094) can0 100#00003E0D
(1720538806.059622) can0 100#0000430D
(1720538806.061184) can0 100#0000480D
(1720538806.061385) can0 425#0000
(1720538806.061517) can0 080#DD06
(1720538806.062708) can0 100#00004D0D
(1720538806.064282) can0 100#0000520D
(1720538806.065799) can0 100#0000570D
(1720538806.067349) can0 100#00005C0D
(1720538806.068852) can0 100#0000610D
(1720538806.070429) can0 100#0000660D
(1720538806.071951) can0 100#00006B0D
(1720538806.072082) can0 425#0000
(1720538806.072205) can0 080#DD06
(1720538806.073467) can0 100#0000700D
(1720538806.075032) can0 100#0000750D
(1720538806.076614) can0 100#00007A0D
(1720538806.078106) can0 100#00007F0D
(1720538806.079633) can0 100#0000840D
(1720538806.081178) can0 100#0000840D
(1720538806.081382) can0 425#0000
(1720538806.081501) can0 080#CB06
(1720538806.082704) can0 100#0000890D
(1720538806.084283) can0 100#00008E0D
(1720538806.085804) can0 100#0000930D
(1720538806.087319) can0 100#0000980D
(1720538806.088873) can0 100#00009D0D
(1720538806.090427) can0 100#0000A20D
(1720538806.091961) can0 100#0000A70D
(1720538806.092106) can0 425#0000
(1720538806.092283) can0 080#CB06
(1720538806.093555) can0 100#0000AC0D
(1720538806.095054) can0 100#0000B10D
(1720538806.096581) can0 100#0000B60D
(1720538806.098100) can0 100#0000BB0D
(1720538806.099637) can0 100#0000C00D
(1720538806.101176) can0 100#0000C50D
(1720538806.101385) can0 425#0000
(1720538806.101517) can0 080#BE06
(1720538806.102722) can0 100#0000CA0D
(1720538806.104277) can0 100#0000CF0D
(1720538806.105828) can0 100#0000D40D
(1720538806.107349) can0 100#0000D90D
(1720538806.108887) can0 100#0000DE0D
(1720538806.110416) can0 100#0000E30D
(1720538806.111980) can0 100#0000E80D
(1720538806.112116) can0 425#0000
(1720538806.112290) can0 080#BE06
(1720538806.113551) can0 100#0000ED0D
(1720538806.115055) can0 100#0000F20D
(1720538806.116583) can0 100#0000F70D
(1720538806.118159) can0 100#0000FC0D
(1720538806.119689) can0 100#0000010E
(1720538806.121197) can0 100#0000060E
(1720538806.121394) can0 425#0000
(1720538806.121506) can0 080#BC06
(1720538806.122745) can0 100#00000B0E
(1720538806.124283) can0 100#0000100E
(1720538806.125829) can0 100#0000150E
(1720538806.127394) can0 100#00001A0E
(1720538806.128921) can0 100#00001F0E
(1720538806.130468) can0 100#0000240E
(1720538806.131932) can0 425#0000
(1720538806.132106) can0 100#0000290E
(1720538806.132270) can0 080#BC06
(1720538806.133562) can0 100#00002E0E
(1720538806.135106) can0 100#0000330E
(1720538806.136618) can0 100#0000380E
(1720538806.138149) can0 100#00003D0E
(1720538806.139701) can0 100#0000420E
(1720538806.141284) can0 100#0000470E
(1720538806.141373) can0 425#0000
(1720538806.141495) can0 080#B906
(1720538806.142763) can0 100#00004C0E
(1720538806.144350) can0 100#0000510E
(1720538806.145887) can0 100#0000560E
(1720538806.147418) can0 100#00005B0E
(1720538806.148951) can0 100#00005B0E
(1720538806.150556) can0 100#0000600E
(1720538806.151969) can0 425#0000
(1720538806.152088) can0 100#0000650E
(1720538806.152232) can0 080#B906
(1720538806.153577) can0 100#00006A0E
(1720538806.155136) can0 100#00006F0E
(1720538806.156650) can0 100#0000740E
(1720538806.158186) can0 100#0000790E
(1720538806.159749) can0 100#00007E0E
(1720538806.161286) can0 100#0000830E
(1720538806.161406) can0 425#0000
(1720538806.161551) can0 080#B306
(1720538806.162806) can0 100#0000880E
(1720538806.164334) can0 100#00008D0E
(1720538806.165854) can0 100#0000920E
(1720538806.167434) can0 100#0000970E
(1720538806.168931) can0 100#00009C0E
(1720538806.170512) can0 100#0000A10E
(1720538806.171946) can0 425#0000
(1720538806.172123) can0 100#0000A60E
(1720538806.172302) can0 080#B306
(1720538806.173540) can0 100#0000AB0E
(1720538806.175104) can0 100#0000B00E
(1720538806.176659) can0 100#0000B50E
(1720538806.178181) can0 100#0000BA0E
(1720538806.179708) can0 100#0000BF0E
(1720538806.181278) can0 100#0000C40E
(1720538806.181384) can0 425#0000
(1720538806.181516) can0 080#AA06
(1720538806.182806) can0 100#0000C90E
(1720538806.184335) can0 100#0000CE0E
(1720538806.185870) can0 100#0000D30E
(1720538806.187436) can0 100#0000D80E
(1720538806.188953) can0 100#0000DD0E
(1720538806.190552) can0 100#0000E20E
(1720538806.191932) can0 425#0000
(1720538806.192106) can0 100#0000E70E
(1720538806.192285) can0 080#AA06
(1720538806.193565) can0 100#0000EC0E
(1720538806.195117) can0 100#0000F10E
(1720538806.196666) can0 100#0000F60E
(1720538806.198184) can0 100#0000FB0E
(1720538806.199711) can0 100#0000000F
(1720538806.201284) can0 100#0000050F
(1720538806.201417) can0 425#0000
(1720538806.201551) can0 080#A306
(1720538806.202794) can0 100#00000A0F
(1720538806.204350) can0 100#00000A0F
(1720538806.205889) can0 100#00000F0F
(1720538806.207431) can0 100#0000140F
(1720538806.208972) can0 100#0000190F
(1720538806.210580) can0 100#00001E0F
(1720538806.211915) can0 425#0000
(1720538806.212092) can0 100#0000230F
(1720538806.212221) can0 080#A306
(1720538806.213581) can0 100#0000280F
(1720538806.215144) can0 100#00002D0F
(1720538806.216660) can0 100#0000320F
(1720538806.218213) can0 100#0000370F
(1720538806.219744) can0 100#00003C0F
(1720538806.221293) can0 100#0000410F
(1720538806.221417) can0 425#0000
(1720538806.221540) can0 080#A006
(1720538806.222846) can0 100#0000460F
(1720538806.224389) can0 100#00004B0F
(1720538806.225941) can0 100#0000500F
(1720538806.227465) can0 100#0000550F
(1720538806.228982) can0 100#00005A0F
(1720538806.230563) can0 100#00005F0F
(1720538806.231936) can0 425#0000
(1720538806.232104) can0 100#0000640F
(1720538806.232292) can0 080#A006
(1720538806.233574) can0 100#0000690F
(1720538806.235117) can0 100#00006E0F
(1720538806.236651) can0 100#0000730F
(1720538806.238200) can0 100#0000780F
(1720538806.239743) can0 100#00007D0F
(1720538806.241286) can0 100#0000820F
(1720538806.241405) can0 425#0000
(1720538806.241596) can0 080#9A06
(1720538806.242850) can0 100#0000870F
(1720538806.244389) can0 100#00008C0F
(1720538806.245919) can0 100#0000910F
(1720538806.247476) can0 100#0000960F
(1720538806.249015) can0 100#00009B0F
(1720538806.250579) can0 100#0000A00F
(1720538806.251946) can0 425#0000
(1720538806.252125) can0 100#0000A50F
(1720538806.252304) can0 080#9A06
(1720538806.253672) can0 100#0000AA0F
(1720538806.255169) can0 100#0000AF0F
(1720538806.256709) can0 100#0000B40F
(1720538806.258309) can0 100#0000B90F
(1720538806.259788) can0 100#0000BE0F
(1720538806.261334) can0 100#0000BE0F
(1720538806.261480) can0 425#0000
(1720538806.261610) can0 080#9006
(1720538806.262854) can0 100#0000C30F
(1720538806.264382) can0 100#0000C80F
(1720538806.265933) can0 100#0000CD0F
(1720538806.267480) can0 100#0000D20F
(1720538806.269001) can0 100#0000D70F
(1720538806.270552) can0 100#0000DC0F
(1720538806.271934) can0 425#0000
(1720538806.272109) can0 100#0000E10F
(1720538806.272286) can0 080#9006
(1720538806.273650) can0 100#0000E60F
(1720538806.275182) can0 100#0000EB0F
(1720538806.276723) can0 100#0000F00F
(1720538806.278286) can0 100#0000F50F
(1720538806.279819) can0 100#0000FA0F
(1720538806.281338) can0 100#0000FF0F
(1720538806.281472) can0 425#0000
(1720538806.281647) can0 080#9106
(1720538806.282919) can0 100#00000410
(1720538806.284434) can0 100#00000910
(1720538806.285994) can0 100#00000E10
(1720538806.287580) can0 100#00001310
(1720538806.289053) can0 100#00001810
(1720538806.290590) can0 100#00001D10
(1720538806.291984) can0 425#0000
(1720538806.292118) can0 080#9106
(1720538806.292281) can0 100#00002210
(1720538806.293685) can0 100#00002710
(1720538806.295288) can0 100#00002C10
(1720538806.296751) can0 100#00003110
(1720538806.298275) can0 100#00003610
(1720538806.299826) can0 100#00003B10
(1720538806.301391) can0 100#00004010
(1720538806.301522) can0 425#0000
(1720538806.301623) can0 080#8D06
(1720538806.302890) can0 100#00004510
(1720538806.304435) can0 100#00004A10
(1720538806.305976) can0 100#00004F10
(1720538806.307548) can0 100#00005410
(1720538806.309059) can0 100#00005910
(1720538806.310598) can0 100#00005E10
(1720538806.311956) can0 425#0000
(1720538806.312075) can0 080#8D06
(1720538806.312287) can0 100#00006310
(1720538806.313697) can0 100#00006810
(1720538806.315236) can0 100#00006D10
(1720538806.316739) can0 100#00007210
(1720538806.318299) can0 100#00007710
(1720538806.319832) can0 100#00007710
(1720538806.321391) can0 100#00007C10
(1720538806.321511) can0 425#0000
(1720538806.321636) can0 080#8D06
(1720538806.322932) can0 100#00008110
(1720538806.324434) can0 100#00008610
(1720538806.325965) can0 100#00008B10
(1720538806.327546) can0 100#00009010
(1720538806.329070) can0 100#00009510
(1720538806.330637) can0 100#00009A10
(1720538806.331951) can0 425#0000
(1720538806.332098) can0 080#8D06
(1720538806.332294) can0 100#00009F10
(1720538806.333712) can0 100#0000A410
(1720538806.335215) can0 100#0000A910
(1720538806.336797) can0 100#0000AE10
(1720538806.338289) can0 100#0000B310
(1720538806.339871) can0 100#0000B810
(1720538806.341336) can0 425#0000
(1720538806.341525) can0 100#0000BD10
(1720538806.341637) can0 080#8806
(1720538806.342922) can0 100#0000C210
(1720538806.344461) can0 100#0000C710
(1720538806.346024) can0 100#0000CC10
(1720538806.347560) can0 100#0000D110
(1720538806.349070) can0 100#0000D610
(1720538806.350614) can0 100#0000DB10
(1720538806.351974) can0 425#0000
(1720538806.352105) can0 080#8806
(1720538806.352289) can0 100#0000E010
(1720538806.353699) can0 100#0000E510
(1720538806.355293) can0 100#0000EA10
(1720538806.356766) can0 100#0000EF10
(1720538806.358288) can0 100#0000F410
(1720538806.359843) can0 100#0000F910
(1720538806.361348) can0 425#0000
(1720538806.361524) can0 100#0000FE10
(1720538806.361636) can0 080#8606
(1720538806.362922) can0 100#00000311
(1720538806.364478) can0 100#00000811
(1720538806.366012) can0 100#00000D11
(1720538806.367582) can0 100#00001211
(1720538806.369093) can0 100#00001711
(1720538806.370645) can0 100#00001C11
(1720538806.371983) can0 425#0000
(1720538806.372112) can0 080#8606
(1720538806.372278) can0 100#00002111
(1720538806.373716) can0 100#00002611
(1720538806.375306) can0 100#00002B11
(1720538806.376814) can0 100#00003011
(1720538806.378341) can0 100#00003011
(1720538806.379871) can0 100#00003511
(1720538806.381349) can0 425#0000
(1720538806.381524) can0 100#00003A11
(1720538806.381625) can0 080#8606
(1720538806.382973) can0 100#00003F11
(1720538806.384562) can0 100#00004411
(1720538806.386017) can0 100#00004911
(1720538806.387565) can0 100#00004E11
(1720538806.389142) can0 100#00005311
(1720538806.390665) can0 100#00005811
(1720538806.391933) can0 425#0000
(1720538806.392099) can0 080#8606
(1720538806.392295) can0 100#00005D11
(1720538806.393723) can0 100#00006211
(1720538806.395289) can0 100#00006711
(1720538806.396860) can0 100#00006C11
(1720538806.398393) can0 100#00007111
(1720538806.399936) can0 100#00007611
(1720538806.401366) can0 425#0000
(1720538806.401556) can0 100#00007B11
(1720538806.401688) can0 080#8806
(1720538806.402980) can0 100#00008011
(1720538806.404548) can0 100#00008511
(1720538806.406060) can0 100#00008A11
(1720538806.407622) can0 100#00008F11
(1720538806.409143) can0 100#00009411
(1720538806.410676) can0 100#00009911
(1720538806.411951) can0 425#0000
(1720538806.412099) can0 080#8806
(1720538806.412295) can0 100#00009E11
(1720538806.413739) can0 100#0000A311
(1720538806.415293) can0 100#0000A811
(1720538806.416837) can0 100#0000AD11
(1720538806.418396) can0 100#0000B211
(1720538806.419884) can0 100#0000B711
(1720538806.421349) can0 425#0000
(1720538806.421524) can0 100#0000BC11
(1720538806.421639) can0 080#8706
(1720538806.423005) can0 100#0000C111
(1720538806.424583) can0 100#0000C611
(1720538806.426081) can0 100#0000CB11
(1720538806.427614) can0 100#0000D011
(1720538806.429155) can0 100#0000D511
(1720538806.430714) can0 100#0000D511
(1720538806.431951) can0 425#0000
(1720538806.432105) can0 080#8706
(1720538806.432294) can0 100#0000DA11
(1720538806.433810) can0 100#0000DF11
(1720538806.435293) can0 100#0000E411
(1720538806.436877) can0 100#0000E911
(1720538806.438385) can0 100#0000EE11
(1720538806.439936) can0 100#0000F311
(1720538806.441356) can0 425#0000
(1720538806.441513) can0 100#0000F811
(1720538806.441676) can0 080#8806
(1720538806.443017) can0 100#0000FD11
(1720538806.444583) can0 100#00000212
(1720538806.446106) can0 100#00000712
(1720538806.447630) can0 100#00000C12
(1720538806.449186) can0 100#00001112
(1720538806.450716) can0 100#00001612
(1720538806.451916) can0 425#0000
(1720538806.452117) can0 080#8806
(1720538806.452307) can0 100#00001B12
(1720538806.453816) can0 100#00002012
(1720538806.455353) can0 100#00002512
(1720538806.456881) can0 100#00002A12
(1720538806.458445) can0 100#00002F12
(1720538806.459959) can0 100#00003412
(1720538806.461395) can0 425#0000
(1720538806.461515) can0 080#8606
(1720538806.461638) can0 100#00003912
(1720538806.463018) can0 100#00003E12
(1720538806.464584) can0 100#00004312
(1720538806.466110) can0 100#00004812
(1720538806.467671) can0 100#00004D12
(1720538806.469208) can0 100#00005212
(1720538806.470726) can0 100#00005712
(1720538806.471933) can0 425#0000
(1720538806.472112) can0 080#8606
(1720538806.472298) can0 100#00005C12
(1720538806.473812) can0 100#00006112
(1720538806.475341) can0 100#00006612
(1720538806.476902) can0 100#00006B12
(1720538806.478438) can0 100#00007012
(1720538806.479956) can0 100#00007512
(1720538806.481342) can0 425#0000
(1720538806.481527) can0 100#00007A12
(1720538806.481640) can0 080#8006
(1720538806.483019) can0 100#00007F12
(1720538806.484549) can0 100#00008412
(1720538806.486143) can0 100#00008912
(1720538806.487673) can0 100#00008912
(1720538806.489197) can0 100#00008E12
(1720538806.490717) can0 100#00009312
(1720538806.491925) can0 425#0000
(1720538806.492110) can0 080#8006
(1720538806.492291) can0 100#00009812
(1720538806.493786) can0 100#00009D12
(1720538806.495357) can0 100#0000A212
(1720538806.496873) can0 100#0000A712
(1720538806.498424) can0 100#0000AC12
(1720538806.499942) can0 100#0000B112
(1720538806.501354) can0 425#0000
(1720538806.501526) can0 100#0000B612
(1720538806.501641) can0 080#7306
(1720538806.503033) can0 100#0000BB12
(1720538806.504587) can0 100#0000C012
(1720538806.506110) can0 100#0000C512
(1720538806.507645) can0 100#0000CA12
(1720538806.509177) can0 100#0000CF12
(1720538806.510732) can0 100#0000D412
(1720538806.511926) can0 425#0000
(1720538806.512103) can0 080#7306
(1720538806.512286) can0 100#0000D912
(1720538806.513796) can0 100#0000DE12
(1720538806.515357) can0 100#0000E312
(1720538806.516882) can0 100#0000E812
(1720538806.518426) can0 100#0000ED12
(1720538806.519961) can0 100#0000F212
(1720538806.521391) can0 425#0000
(1720538806.521523) can0 080#6606
(1720538806.521642) can0 100#0000F712
(1720538806.523063) can0 100#0000FC12
(1720538806.524585) can0 100#00000113
(1720538806.526124) can0 100#00000613
(1720538806.527654) can0 100#00000B13
(1720538806.529194) can0 100#00001013
(1720538806.530730) can0 100#00001513
(1720538806.531927) can0 425#0000
(1720538806.532099) can0 080#6606
(1720538806.532292) can0 100#00001A13
(1720538806.533836) can0 100#00001F13
(1720538806.535340) can0 100#00002413
(1720538806.536866) can0 100#00002913
(1720538806.538448) can0 100#00002E13
(1720538806.539970) can0 100#00003313
(1720538806.541391) can0 425#0000
(1720538806.541510) can0 080#5706
(1720538806.541655) can0 100#00003813
(1720538806.543062) can0 100#00003D13
(1720538806.544586) can0 100#00004213
(1720538806.546112) can0 100#00004213
(1720538806.547667) can0 100#00004713
(1720538806.549210) can0 100#00004C13
(1720538806.550766) can0 100#00005113
(1720538806.551942) can0 425#0000
(1720538806.552126) can0 080#5706
(1720538806.552309) can0 100#00005613
(1720538806.553813) can0 100#00005B13
(1720538806.555346) can0 100#00006013
(1720538806.556896) can0 100#00006513
(1720538806.558440) can0 100#00006A13
(1720538806.559958) can0 100#00006F13
(1720538806.561379) can0 425#0000
(1720538806.561480) can0 080#4906
(1720538806.561655) can0 100#00007413
(1720538806.563063) can0 100#00007913
(1720538806.564590) can0 100#00007E13
(1720538806.566144) can0 100#00008313
(1720538806.567711) can0 100#00008813
(1720538806.569206) can0 100#00008D13
(1720538806.570785) can0 100#00009213
(1720538806.571966) can0 425#0000
(1720538806.572134) can0 080#4906
(1720538806.572292) can0 100#00009713
(1720538806.573831) can0 100#00009C13
(1720538806.575391) can0 100#0000A113
(1720538806.576943) can0 100#0000A613
(1720538806.578483) can0 100#0000AB13
(1720538806.579991) can0 100#0000B013
(1720538806.581393) can0 425#0000
(1720538806.581524) can0 080#4206
(1720538806.581656) can0 100#0000B513
(1720538806.583073) can0 100#0000BA13
(1720538806.584643) can0 100#0000BF13
(1720538806.586176) can0 100#0000C413
(1720538806.587719) can0 100#0000C913
(1720538806.589287) can0 100#0000CE13
(1720538806.590793) can0 100#0000D313
(1720538806.591948) can0 425#0000
(1720538806.592109) can0 080#4206
(1720538806.592300) can0 100#0000D813
(1720538806.593845) can0 100#0000DD13
(1720538806.595404) can0 100#0000E213
(1720538806.596923) can0 100#0000E713
(1720538806.598466) can0 100#0000E713
(1720538806.600021) can0 100#0000EC13
(1720538806.601392) can0 425#0000
(1720538806.601481) can0 080#3906
(1720538806.601643) can0 100#0000F113
(1720538806.603126) can0 100#0000F613
(1720538806.604633) can0 100#0000FB13
(1720538806.606212) can0 100#00000014
(1720538806.607705) can0 100#00000514
(1720538806.609295) can0 100#00000A14
(1720538806.610794) can0 100#00000F14
(1720538806.611967) can0 425#0000
(1720538806.612132) can0 080#3906
(1720538806.612361) can0 100#00001414
(1720538806.613892) can0 100#00001914
(1720538806.615399) can0 100#00001E14
(1720538806.616930) can0 100#00002314
(1720538806.618489) can0 100#00002814
(1720538806.620022) can0 100#00002D14
(1720538806.621355) can0 425#0000
(1720538806.621470) can0 080#2D06
(1720538806.621656) can0 100#00003214
(1720538806.623117) can0 100#00003714
(1720538806.624633) can0 100#00003C14
(1720538806.626160) can0 100#00004114
(1720538806.627720) can0 100#00004614
(1720538806.629295) can0 100#00004B14
(1720538806.630815) can0 100#00005014
(1720538806.631939) can0 425#0000
(1720538806.632157) can0 080#2D06
(1720538806.632354) can0 100#00005514
(1720538806.633894) can0 100#00005A14
(1720538806.635437) can0 100#00005F14
(1720538806.636968) can0 100#00006414
(1720538806.638570) can0 100#00006914
(1720538806.640068) can0 100#00006E14
(1720538806.641319) can0 425#0000
(1720538806.641487) can0 080#1A06
(1720538806.641669) can0 100#00007314
(1720538806.643156) can0 100#00007814
(1720538806.644665) can0 100#00007D14
(1720538806.646293) can0 100#00008214
(1720538806.647760) can0 100#00008714
(1720538806.649294) can0 100#00008C14
(1720538806.650830) can0 100#00009114
(1720538806.651960) can0 425#0000
(1720538806.652099) can0 080#1A06
(1720538806.652385) can0 100#00009614
(1720538806.653915) can0 100#00009614
(1720538806.655484) can0 100#00009B14
(1720538806.657000) can0 100#0000A014
(1720538806.658586) can0 100#0000A514
(1720538806.660075) can0 100#0000AA14
(1720538806.661352) can0 425#0000
(1720538806.661496) can0 080#1206
(1720538806.661671) can0 100#0000AF14
(1720538806.663157) can0 100#0000B414
(1720538806.664720) can0 100#0000B914
(1720538806.666243) can0 100#0000BE14
(1720538806.667799) can0 100#0000C314
(1720538806.669287) can0 100#0000C814
(1720538806.670860) can0 100#0000CD14
(1720538806.671950) can0 425#0000
(1720538806.672117) can0 080#1206
(1720538806.672389) can0 100#0000D214
(1720538806.673942) can0 100#0000D714
(1720538806.675473) can0 100#0000DC14
(1720538806.677052) can0 100#0000E114
(1720538806.678583) can0 100#0000E614
(1720538806.680116) can0 100#0000EB14
(1720538806.681322) can0 425#0000
(1720538806.681519) can0 080#0906
(1720538806.681638) can0 100#0000F014
(1720538806.683199) can0 100#0000F514
(1720538806.684758) can0 100#0000FA14
(1720538806.686294) can0 100#0000FF14
(1720538806.687804) can0 100#00000415
(1720538806.689362) can0 100#00000915
(1720538806.690877) can0 100#00000E15
(1720538806.691954) can0 425#0000
(1720538806.692071) can0 080#0906
(1720538806.692440) can0 100#00001315
(1720538806.693947) can0 100#00001815
(1720538806.695482) can0 100#00001D15
(1720538806.697026) can0 100#00002215
(1720538806.698589) can0 100#00002715
(1720538806.700118) can0 100#00002C15
(1720538806.701335) can0 425#0000
(1720538806.701509) can0 080#0106
(1720538806.701687) can0 100#00003115
(1720538806.703193) can0 100#00003615
(1720538806.704722) can0 100#00003B15
(1720538806.706300) can0 100#00004015
(1720538806.707797) can0 100#00004515
(1720538806.709355) can0 100#00004A15
(1720538806.710857) can0 100#00004F15
(1720538806.711960) can0 425#0000
(1720538806.712128) can0 080#0106
(1720538806.712439) can0 100#00005415
(1720538806.713939) can0 100#00005915
(1720538806.715480) can0 100#00005E15
(1720538806.717025) can0 100#00006315
(1720538806.718588) can0 100#00006315
(1720538806.720105) can0 100#00006815
(1720538806.721331) can0 425#0000
(1720538806.721506) can0 080#FE05
(1720538806.721688) can0 100#00006D15
(1720538806.723179) can0 100#00007215
(1720538806.724714) can0 100#00007715
(1720538806.726296) can0 100#00007C15
(1720538806.727795) can0 100#00008115
(1720538806.729290) can0 100#00008615
(1720538806.730861) can0 100#00008B15
(1720538806.731952) can0 425#0000
(1720538806.732117) can0 080#FE05
(1720538806.732387) can0 100#00009015
(1720538806.733943) can0 100#00009515
(1720538806.735495) can0 100#00009A15
(1720538806.737021) can0 100#00009F15
(1720538806.738583) can0 100#0000A415
(1720538806.740089) can0 100#0000A915
(1720538806.741346) can0 425#0000
(1720538806.741497) can0 080#FD05
(1720538806.741659) can0 100#0000AE15
(1720538806.743200) can0 100#0000B315
(1720538806.744719) can0 100#0000B815
(1720538806.746243) can0 100#0000BD15
(1720538806.747762) can0 100#0000C215
(1720538806.749313) can0 100#0000C715
(1720538806.750864) can0 100#0000CC15
(1720538806.751950) can0 425#0000
(1720538806.752117) can0 080#FD05
(1720538806.752399) can0 100#0000D115
(1720538806.753943) can0 100#0000D615
(1720538806.755491) can0 100#0000DB15
(1720538806.757013) can0 100#0000E015
(1720538806.758555) can0 100#0000E515
(1720538806.760113) can0 100#0000EA15
(1720538806.761352) can0 425#0000
(1720538806.761478) can0 080#F805
(1720538806.761671) can0 100#0000EF15
(1720538806.763198) can0 100#0000F415
(1720538806.764747) can0 100#0000F915
(1720538806.766290) can0 100#0000FE15
(1720538806.767808) can0 100#00000316
(1720538806.769348) can0 100#00000816
(1720538806.770881) can0 100#00000D16
(1720538806.771959) can0 425#0000
(1720538806.772073) can0 080#F805
(1720538806.772444) can0 100#00001216
(1720538806.773950) can0 100#00001716
(1720538806.775469) can0 100#00001C16
(1720538806.777031) can0 100#00002116
(1720538806.778590) can0 100#00002116
(1720538806.780111) can0 100#00002616
(1720538806.781320) can0 425#0000
(1720538806.781514) can0 080#EB05
(1720538806.781693) can0 100#00002B16
(1720538806.783195) can0 100#00003016
(1720538806.784720) can0 100#00003516
(1720538806.786306) can0 100#00003A16
(1720538806.787799) can0 100#00003F16
(1720538806.789363) can0 100#00004416
(1720538806.790867) can0 100#00004916
(1720538806.791971) can0 425#0000
(1720538806.792071) can0 080#EB05
(1720538806.792399) can0 100#00004E16
(1720538806.793937) can0 100#00005316
(1720538806.795482) can0 100#00005816
(1720538806.797024) can0 100#00005D16
(1720538806.798592) can0 100#00006216
(1720538806.800098) can0 100#00006716
(1720538806.801366) can0 425#0000
(1720538806.801496) can0 080#E305
(1720538806.801672) can0 100#00006C16
(1720538806.803181) can0 100#00007116
(1720538806.804721) can0 100#00007616
(1720538806.806243) can0 100#00007B16
(1720538806.807821) can0 100#00008016
(1720538806.809350) can0 100#00008516
(1720538806.810900) can0 100#00008A16
(1720538806.811972) can0 425#0000
(1720538806.812068) can0 080#E305
(1720538806.812395) can0 100#00008F16
(1720538806.813971) can0 100#00009416
(1720538806.815483) can0 100#00009916
(1720538806.817033) can0 100#00009E16
(1720538806.818556) can0 100#0000A316
(1720538806.820121) can0 100#0000A816
(1720538806.821354) can0 425#0000
(1720538806.821504) can0 080#E205
(1720538806.821666) can0 100#0000AD16
(1720538806.823200) can0 100#0000B216
(1720538806.824733) can0 100#0000B716
(1720538806.826298) can0 100#0000BC16
(1720538806.827794) can0 100#0000C116
(1720538806.829365) can0 100#0000C616
(1720538806.830881) can0 100#0000CB16
(1720538806.831970) can0 425#0000
(1720538806.832073) can0 080#E205
(1720538806.832401) can0 100#0000D016
(1720538806.833955) can0 100#0000D516
(1720538806.835523) can0 100#0000D516
(1720538806.837021) can0 100#0000DA16
(1720538806.838569) can0 100#0000DF16
(1720538806.840075) can0 100#0000E416
(1720538806.841309) can0 425#0000
(1720538806.841483) can0 080#DF05
(1720538806.841673) can0 100#0000E916
(1720538806.843195) can0 100#0000EE16
(1720538806.844734) can0 100#0000F316
(1720538806.846292) can0 100#0000F816
(1720538806.847803) can0 100#0000FD16
(1720538806.849363) can0 100#00000217
(1720538806.850902) can0 100#00000717
(1720538806.851962) can0 425#0000
(1720538806.852071) can0 080#DF05
(1720538806.852401) can0 100#00000C17
(1720538806.853946) can0 100#00001117
(1720538806.855481) can0 100#00001617
(1720538806.857027) can0 100#00001B17
(1720538806.858592) can0 100#00002017
(1720538806.860118) can0 100#00002517
(1720538806.861354) can0 425#0000
(1720538806.861505) can0 080#D905
(1720538806.861680) can0 100#00002A17
(1720538806.863174) can0 100#00002F17
(1720538806.864707) can0 100#00003417
(1720538806.866299) can0 100#00003917
(1720538806.867803) can0 100#00003E17
(1720538806.869307) can0 100#00004317
(1720538806.870851) can0 100#00004817
(1720538806.871956) can0 425#0000
(1720538806.872120) can0 080#D905
(1720538806.872402) can0 100#00004D17
(1720538806.873950) can0 100#00005217
(1720538806.875484) can0 100#00005717
(1720538806.877025) can0 100#00005C17
(1720538806.878591) can0 100#00006117
(1720538806.880114) can0 100#00006617
(1720538806.881363) can0 425#0000
(1720538806.881497) can0 080#D405
(1720538806.881674) can0 100#00006B17
(1720538806.883190) can0 100#00007017
(1720538806.884735) can0 100#00007517
(1720538806.886304) can0 100#00007A17
(1720538806.887800) can0 100#00007F17
(1720538806.889356) can0 100#00008417
(1720538806.890904) can0 100#00008917
(1720538806.891974) can0 425#0000
(1720538806.892070) can0 080#D405
(1720538806.892418) can0 100#00008E17
(1720538806.893968) can0 100#00009317
(1720538806.895494) can0 100#00009817
(1720538806.897028) can0 100#00009817
(1720538806.898583) can0 100#00009D17
(1720538806.900113) can0 100#0000A217
(1720538806.901320) can0 425#0000
(1720538806.901481) can0 080#D105
(1720538806.901644) can0 100#0000A717
(1720538806.903195) can0 100#0000AC17
(1720538806.904735) can0 100#0000B117
(1720538806.906309) can0 100#0000B617
(1720538806.907808) can0 100#0000BB17
(1720538806.909391) can0 100#0000C017
(1720538806.910900) can0 100#0000C517
(1720538806.911968) can0 425#0000
(1720538806.912085) can0 080#D105
(1720538806.912451) can0 100#0000CA17
(1720538806.913984) can0 100#0000CF17
(1720538806.915571) can0 100#0000D417
(1720538806.917015) can0 100#0000D917
(1720538806.918600) can0 100#0000DE17
(1720538806.920115) can0 100#0000E317
(1720538806.921322) can0 425#0000
(1720538806.921494) can0 080#C605
(1720538806.921681) can0 100#0000E817
(1720538806.923196) can0 100#0000ED17
(1720538806.924735) can0 100#0000F217
(1720538806.926305) can0 100#0000F717
(1720538806.927821) can0 100#0000FC17
(1720538806.929363) can0 100#00000118
(1720538806.930860) can0 100#00000618
(1720538806.931960) can0 425#0000
(1720538806.932071) can0 080#C605
(1720538806.932442) can0 100#00000B18
(1720538806.933984) can0 100#00001018
(1720538806.935483) can0 100#00001518
(1720538806.937029) can0 100#00001A18
(1720538806.938627) can0 100#00001F18
(1720538806.940114) can0 100#00002418
(1720538806.941342) can0 425#0000
(1720538806.941524) can0 080#CD05
(1720538806.941656) can0 100#00002918
(1720538806.943196) can0 100#00002E18
(1720538806.944715) can0 100#00003318
(1720538806.946302) can0 100#00003318
(1720538806.947822) can0 100#00003818
(1720538806.949362) can0 100#00003D18
(1720538806.950891) can0 100#00004218
(1720538806.951974) can0 425#0000
(1720538806.952101) can0 080#CD05
(1720538806.952446) can0 100#00004718
(1720538806.953977) can0 100#00004C18
(1720538806.955593) can0 100#00005118
(1720538806.957078) can0 100#00005618
(1720538806.958594) can0 100#00005B18
(1720538806.960120) can0 100#00006018
(1720538806.961327) can0 425#0000
(1720538806.961500) can0 080#CE05
(1720538806.961677) can0 100#00006518
(1720538806.963202) can0 100#00006A18
(1720538806.964748) can0 100#00006F18
(1720538806.966301) can0 100#00007418
(1720538806.967847) can0 100#00007918
(1720538806.969349) can0 100#00007E18
(1720538806.970893) can0 100#00008318
(1720538806.971965) can0 425#0000
(1720538806.972087) can0 080#CE05
(1720538806.972443) can0 100#00008818
(1720538806.973969) can0 100#00008D18
(1720538806.975572) can0 100#00009218
(1720538806.977050) can0 100#00009718
(1720538806.978578) can0 100#00009C18
(1720538806.980116) can0 100#0000A118
(1720538806.981347) can0 425#0000
(1720538806.981494) can0 080#CA05
(1720538806.981664) can0 100#0000A618
(1720538806.983197) can0 100#0000AB18
(1720538806.984727) can0 100#0000B018
(1720538806.986318) can0 100#0000B518
(1720538806.987839) can0 100#0000BA18
(1720538806.989366) can0 100#0000BF18
(1720538806.990901) can0 100#0000C418
(1720538806.991957) can0 425#0000
(1720538806.992067) can0 080#CA05
(1720538806.992391) can0 100#0000C918
(1720538806.993972) can0 100#0000CE18
(1720538806.995500) can0 100#0000D318
(1720538806.997031) can0 100#0000D818
(1720538806.998605) can0 100#0000DD18
(1720538807.000115) can0 100#0000E218
(1720538807.001353) can0 425#0000
(1720538807.001497) can0 080#C205
(1720538807.001680) can0 100#0000E718
(1720538807.003199) can0 100#0000EC18
(1720538807.004708) can0 100#0000F118
(1720538807.006302) can0 100#0000F118
(1720538807.007807) can0 100#0000F618
(1720538807.009352) can0 100#0000FB18
(1720538807.010875) can0 100#00000019
(1720538807.011958) can0 425#0000
(1720538807.012123) can0 080#C205
(1720538807.012443) can0 100#00000519
(1720538807.013978) can0 100#00000A19
(1720538807.015496) can0 100#00000F19
(1720538807.017030) can0 100#00001419
(1720538807.018596) can0 100#00001919
(1720538807.020103) can0 100#00001E19
(1720538807.021351) can0 425#0000
(1720538807.021494) can0 080#BC05
(1720538807.021677) can0 100#00002319
(1720538807.023186) can0 100#00002819
(1720538807.024738) can0 100#00002D19
(1720538807.026320) can0 100#00003219
(1720538807.027825) can0 100#00003719
(1720538807.029349) can0 100#00003C19
(1720538807.030892) can0 100#00004119
(1720538807.031968) can0 425#0000
(1720538807.032099) can0 080#BC05
(1720538807.032435) can0 100#00004619
(1720538807.034012) can0 100#00004B19
(1720538807.035595) can0 100#00005019
(1720538807.037081) can0 100#00005519
(1720538807.038592) can0 100#00005A19
(1720538807.040151) can0 100#00005F19
(1720538807.041385) can0 425#0000
(1720538807.041536) can0 080#BB05
(1720538807.041638) can0 100#00006419
(1720538807.043240) can0 100#00006919
(1720538807.044760) can0 100#00006E19
(1720538807.046301) can0 100#00007319
(1720538807.047850) can0 100#00007819
(1720538807.049408) can0 100#00007D19
(1720538807.050927) can0 100#00008219
(1720538807.051977) can0 425#0000
(1720538807.052104) can0 080#BB05
(1720538807.052449) can0 100#00008719
(1720538807.053996) can0 100#00008C19
(1720538807.055596) can0 100#00009119
(1720538807.057066) can0 100#00009619
(1720538807.058617) can0 100#00009B19
(1720538807.060134) can0 100#0000A019
(1720538807.061390) can0 425#0000
(1720538807.061486) can0 080#B505
(1720538807.061677) can0 100#0000A519
(1720538807.063218) can0 100#0000AA19
(1720538807.064777) can0 100#0000AF19
(1720538807.066292) can0 100#0000B419
(1720538807.067848) can0 100#0000B419
(1720538807.069369) can0 100#0000B919
(1720538807.070906) can0 100#0000BE19
(1720538807.071926) can0 425#0000
(1720538807.072103) can0 080#B505
(1720538807.072448) can0 100#0000C319
(1720538807.074000) can0 100#0000C819
(1720538807.075584) can0 100#0000CD19
(1720538807.077082) can0 100#0000D219
(1720538807.078602) can0 100#0000D719
(1720538807.080188) can0 100#0000DC19
(1720538807.081344) can0 425#0000
(1720538807.081516) can0 080#B605
(1720538807.081695) can0 100#0000E119
(1720538807.083242) can0 100#0000E619
(1720538807.084769) can0 100#0000EB19
(1720538807.086302) can0 100#0000F019
(1720538807.087847) can0 100#0000F519
(1720538807.089411) can0 100#0000FA19
(1720538807.090937) can0 100#0000FF19
(1720538807.091996) can0 425#0000
(1720538807.092114) can0 080#B605
(1720538807.092454) can0 100#0000041A
(1720538807.093980) can0 100#0000091A
(1720538807.095597) can0 100#00000E1A
(1720538807.097082) can0 100#0000131A
(1720538807.098596) can0 100#0000181A
(1720538807.100153) can0 100#00001D1A
(1720538807.101336) can0 425#0000
(1720538807.101505) can0 080#B705
(1720538807.101680) can0 100#0000221A
(1720538807.103205) can0 100#0000271A
(1720538807.104760) can0 100#00002C1A
(1720538807.106312) can0 100#0000311A
(1720538807.107848) can0 100#0000361A
(1720538807.109355) can0 100#00003B1A
(1720538807.110908) can0 100#0000401A
(1720538807.111984) can0 425#0000
(1720538807.112104) can0 080#B705
(1720538807.112437) can0 100#0000451A
(1720538807.114001) can0 100#00004A1A
(1720538807.115581) can0 100#00004F1A
(1720538807.117081) can0 100#0000541A
(1720538807.118562) can0 100#0000591A
(1720538807.120128) can0 100#00005E1A
(1720538807.121325) can0 425#0000
(1720538807.121496) can0 080#B705
(1720538807.121667) can0 100#0000631A
(1720538807.123213) can0 100#0000681A
(1720538807.124739) can0 100#0000681A
(1720538807.126308) can0 100#00006D1A
(1720538807.127842) can0 100#0000721A
(1720538807.129367) can0 100#0000771A
(1720538807.130907) can0 100#00007C1A
(1720538807.131935) can0 425#0000
(1720538807.132086) can0 080#B705
(1720538807.132407) can0 100#0000811A
(1720538807.133968) can0 100#0000861A
(1720538807.135493) can0 100#00008B1A
(1720538807.137024) can0 100#0000901A
(1720538807.138599) can0 100#0000951A
(1720538807.140137) can0 100#00009A1A
(1720538807.141321) can0 425#0000
(1720538807.141478) can0 080#B805
(1720538807.141666) can0 100#00009F1A
(1720538807.143224) can0 100#0000A41A
(1720538807.144745) can0 100#0000A91A
(1720538807.146292) can0 100#0000AE1A
(1720538807.147812) can0 100#0000B31A
(1720538807.149369) can0 100#0000B81A
(1720538807.150909) can0 100#0000BD1A
(1720538807.151968) can0 425#0000
(1720538807.152075) can0 080#B805
(1720538807.152415) can0 100#0000C21A
(1720538807.153984) can0 100#0000C71A
(1720538807.155567) can0 100#0000CC1A
(1720538807.157076) can0 100#0000D11A
(1720538807.158600) can0 100#0000D61A
(1720538807.160128) can0 100#0000DB1A
(1720538807.161327) can0 425#0000
(1720538807.161531) can0 080#B505
(1720538807.161662) can0 100#0000E01A
(1720538807.163207) can0 100#0000E51A
(1720538807.164766) can0 100#0000EA1A
(1720538807.166305) can0 100#0000EF1A
(1720538807.167848) can0 100#0000F41A
(1720538807.169406) can0 100#0000F91A
(1720538807.170899) can0 100#0000FE1A
(1720538807.171934) can0 425#0000
(1720538807.172116) can0 080#B505
(1720538807.172456) can0 100#0000031B
(1720538807.174003) can0 100#0000081B
(1720538807.175578) can0 100#00000D1B
(1720538807.177077) can0 100#0000121B
(1720538807.178630) can0 100#0000171B
(1720538807.180168) can0 100#00001C1B
(1720538807.181347) can0 425#0000
(1720538807.181517) can0 080#B605
(1720538807.181696) can0 100#0000211B
(1720538807.183217) can0 100#0000261B
(1720538807.184783) can0 100#00002B1B
(1720538807.186305) can0 100#00002B1B
(1720538807.187867) can0 100#0000301B
(1720538807.189397) can0 100#0000351B
(1720538807.190952) can0 100#00003A1B
(1720538807.191980) can0 425#0000
(1720538807.192115) can0 080#B605
(1720538807.192470) can0 100#00003F1B
(1720538807.194018) can0 100#0000441B
(1720538807.195576) can0 100#0000491B
(1720538807.197077) can0 100#00004E1B
(1720538807.198592) can0 100#0000531B
(1720538807.200139) can0 100#0000581B
(1720538807.201332) can0 425#0000
(1720538807.201502) can0 080#B505
(1720538807.201668) can0 100#00005D1B
(1720538807.203202) can0 100#0000621B
(1720538807.204727) can0 100#0000671B
(1720538807.206311) can0 100#00006C1B
(1720538807.207814) can0 100#0000711B
(1720538807.209370) can0 100#0000761B
(1720538807.210930) can0 100#00007B1B
(1720538807.211980) can0 425#0000
(1720538807.212093) can0 080#B505
(1720538807.212457) can0 100#0000801B
(1720538807.213995) can0 100#0000851B
(1720538807.215577) can0 100#00008A1B
(1720538807.217065) can0 100#00008F1B
(1720538807.218607) can0 100#0000941B
(1720538807.220126) can0 100#0000991B
(1720538807.221329) can0 425#0000
(1720538807.221517) can0 080#AF05
(1720538807.221662) can0 100#00009E1B
(1720538807.223205) can0 100#0000A31B
(1720538807.224745) can0 100#0000A81B
(1720538807.226293) can0 100#0000AD1B
(1720538807.227827) can0 100#0000B21B
(1720538807.229353) can0 100#0000B71B
(1720538807.230910) can0 100#0000BC1B
(1720538807.231930) can0 425#0000
(1720538807.232083) can0 080#AF05
(1720538807.232453) can0 100#0000C11B
(1720538807.233974) can0 100#0000C61B
(1720538807.235565) can0 100#0000CB1B
(1720538807.237076) can0 100#0000D01B
(1720538807.238618) can0 100#0000D51B
(1720538807.240123) can0 100#0000DA1B
(1720538807.241347) can0 425#0000
(1720538807.241522) can0 080#9905
(1720538807.241659) can0 100#0000DF1B
(1720538807.243204) can0 100#0000E41B
(1720538807.244721) can0 100#0000E91B
(1720538807.246307) can0 100#0000E91B
(1720538807.247813) can0 100#0000EE1B
(1720538807.249355) can0 100#0000F31B
(1720538807.250897) can0 100#0000F81B
(1720538807.251979) can0 425#0000
(1720538807.252084) can0 080#9905
(1720538807.252410) can0 100#0000FD1B
(1720538807.253948) can0 100#0000021C
(1720538807.255492) can0 100#0000071C
(1720538807.257057) can0 100#00000C1C
(1720538807.258604) can0 100#0000111C
(1720538807.260127) can0 100#0000161C
(1720538807.261349) can0 425#0000
(1720538807.261513) can0 080#8605
(1720538807.261689) can0 100#00001B1C
(1720538807.263222) can0 100#0000201C
(1720538807.264725) can0 100#0000251C
(1720538807.266308) can0 100#00002A1C
(1720538807.267807) can0 100#00002F1C
(1720538807.269364) can0 100#0000341C
(1720538807.270906) can0 100#0000391C
(1720538807.271976) can0 425#0000
(1720538807.272073) can0 080#8605
(1720538807.272402) can0 100#00003E1C
(1720538807.273956) can0 100#0000431C
(1720538807.275502) can0 100#0000481C
(1720538807.277042) can0 100#00004D1C
(1720538807.278554) can0 100#0000521C
(1720538807.280100) can0 100#0000571C
(1720538807.281357) can0 425#0000
(1720538807.281509) can0 080#7E05
(1720538807.281671) can0 100#00005C1C
(1720538807.283183) can0 100#0000611C
(1720538807.284728) can0 100#0000661C
(1720538807.286250) can0 100#00006B1C
(1720538807.287802) can0 100#0000701C
(1720538807.289315) can0 100#0000751C
(1720538807.290871) can0 100#00007A1C
(1720538807.291949) can0 425#0000
(1720538807.292063) can0 080#7E05
(1720538807.292412) can0 100#00007F1C
(1720538807.293960) can0 100#0000841C
(1720538807.295496) can0 100#0000891C
(1720538807.297015) can0 100#00008E1C
(1720538807.298600) can0 100#0000931C
(1720538807.300116) can0 100#0000981C
(1720538807.301314) can0 425#0000
(1720538807.301531) can0 080#7005
(1720538807.301663) can0 100#00009D1C
(1720538807.303205) can0 100#00009D1C
(1720538807.304706) can0 100#0000A21C
(1720538807.306243) can0 100#0000A71C
(1720538807.307808) can0 100#0000AC1C
(1720538807.309310) can0 100#0000B11C
(1720538807.310860) can0 100#0000B61C
(1720538807.311962) can0 425#0000
(1720538807.312063) can0 080#7005
(1720538807.312437) can0 100#0000BB1C
(1720538807.313943) can0 100#0000C01C
(1720538807.315505) can0 100#0000C51C
(1720538807.317036) can0 100#0000CA1C
(1720538807.318575) can0 100#0000CF1C
(1720538807.320111) can0 100#0000D41C
(1720538807.321369) can0 425#0000
(1720538807.321502) can0 080#6E05
(1720538807.321682) can0 100#0000D91C
(1720538807.323196) can0 100#0000DE1C
(1720538807.324726) can0 100#0000E31C
(1720538807.326310) can0 100#0000E81C
(1720538807.327809) can0 100#0000ED1C
(1720538807.329312) can0 100#0000F21C
(1720538807.330869) can0 100#0000F71C
(1720538807.331964) can0 425#0000
(1720538807.332129) can0 080#6E05
(1720538807.332401) can0 100#0000FC1C
(1720538807.333956) can0 100#0000011D
(1720538807.335485) can0 100#0000061D
(1720538807.337021) can0 100#00000B1D
(1720538807.338589) can0 100#0000101D
(1720538807.340097) can0 100#0000151D
(1720538807.341333) can0 425#0000
(1720538807.341494) can0 080#6D05
(1720538807.341657) can0 100#00001A1D
(1720538807.343166) can0 100#00001F1D
(1720538807.344730) can0 100#0000241D
(1720538807.346248) can0 100#0000291D
(1720538807.347777) can0 100#00002E1D
(1720538807.349316) can0 100#0000331D
(1720538807.350873) can0 100#0000381D
(1720538807.351964) can0 425#0000
(1720538807.352065) can0 080#6D05
(1720538807.352407) can0 100#00003D1D
(1720538807.353940) can0 100#00003D1D
(1720538807.355498) can0 100#0000421D
(1720538807.357004) can0 100#0000471D
(1720538807.358602) can0 100#00004C1D
(1720538807.360097) can0 100#0000511D
(1720538807.361355) can0 425#0000
(1720538807.361493) can0 080#6B05
(1720538807.361684) can0 100#0000561D
(1720538807.363168) can0 100#00005B1D
(1720538807.364705) can0 100#0000601D
(1720538807.366236) can0 100#0000651D
(1720538807.367787) can0 100#00006A1D
(1720538807.369316) can0 100#00006F1D
(1720538807.370861) can0 100#0000741D
(1720538807.371966) can0 425#0000
(1720538807.372064) can0 080#6B05
(1720538807.372412) can0 100#0000791D
(1720538807.373961) can0 100#00007E1D
(1720538807.375485) can0 100#0000831D
(1720538807.377016) can0 100#0000881D
(1720538807.378604) can0 100#00008D1D
(1720538807.380098) can0 100#0000921D
(1720538807.381399) can0 425#0000
(1720538807.381498) can0 080#6805
(1720538807.381658) can0 100#0000971D
(1720538807.383168) can0 100#00009C1D
(1720538807.384693) can0 100#0000A11D
(1720538807.386248) can0 100#0000A61D
(1720538807.387789) can0 100#0000AB1D
(1720538807.389317) can0 100#0000B01D
(1720538807.390841) can0 100#0000B51D
(1720538807.391963) can0 425#0000
(1720538807.392088) can0 080#6805
(1720538807.392409) can0 100#0000BA1D
(1720538807.393900) can0 100#0000BF1D
(1720538807.395457) can0 100#0000C41D
(1720538807.397001) can0 100#0000C91D
(1720538807.398567) can0 100#0000CE1D
(1720538807.400075) can0 100#0000D31D
(1720538807.401341) can0 425#0000
(1720538807.401517) can0 080#6805
(1720538807.401692) can0 100#0000D81D
(1720538807.403157) can0 100#0000DD1D
(1720538807.404709) can0 100#0000E21D
(1720538807.406249) can0 100#0000E71D
(1720538807.407784) can0 100#0000EC1D
(1720538807.409297) can0 100#0000F11D
(1720538807.410857) can0 100#0000F61D
(1720538807.411976) can0 425#0000
(1720538807.412065) can0 080#6805
(1720538807.412401) can0 100#0000FB1D
(1720538807.413955) can0 100#0000001E
(1720538807.415507) can0 100#0000051E
(1720538807.417046) can0 100#00000A1E
(1720538807.418591) can0 100#00000F1E
(1720538807.420124) can0 100#00000F1E
(1720538807.421354) can0 425#0000
(1720538807.421503) can0 080#6405
(1720538807.421673) can0 100#0000141E
(1720538807.423207) can0 100#0000191E
(1720538807.424746) can0 100#00001E1E
(1720538807.426328) can0 100#0000231E
(1720538807.427822) can0 100#0000281E
(1720538807.429376) can0 100#00002D1E
(1720538807.430895) can0 100#0000321E
(1720538807.431942) can0 425#0000
(1720538807.432088) can0 080#6405
(1720538807.432414) can0 100#0000371E
(1720538807.433974) can0 100#00003C1E
(1720538807.435581) can0 100#0000411E
(1720538807.437072) can0 100#0000461E
(1720538807.438601) can0 100#00004B1E
(1720538807.440160) can0 100#0000501E
(1720538807.441330) can0 425#0000
(1720538807.441512) can0 080#6505
(1720538807.441659) can0 100#0000551E
(1720538807.443211) can0 100#00005A1E
(1720538807.444751) can0 100#00005F1E
(1720538807.446299) can0 100#0000641E
(1720538807.447821) can0 100#0000691E
(1720538807.449411) can0 100#00006E1E
(1720538807.450914) can0 100#0000731E
(1720538807.451928) can0 425#0000
(1720538807.452087) can0 080#6505
(1720538807.452414) can0 100#0000781E
(1720538807.453964) can0 100#00007D1E
(1720538807.455484) can0 100#0000821E
(1720538807.457044) can0 100#0000871E
(1720538807.458581) can0 100#00008C1E
(1720538807.460134) can0 100#0000911E
(1720538807.461363) can0 425#0000
(1720538807.461508) can0 080#6205
(1720538807.461685) can0 100#0000961E
(1720538807.463211) can0 100#00009B1E
(1720538807.464722) can0 100#0000A01E
(1720538807.466312) can0 100#0000A51E
(1720538807.467816) can0 100#0000AA1E
(1720538807.469377) can0 100#0000AF1E
(1720538807.470903) can0 100#0000B41E
(1720538807.471985) can0 425#0000
(1720538807.472087) can0 080#6205
(1720538807.472414) can0 100#0000B91E
(1720538807.473954) can0 100#0000BE1E
(1720538807.475499) can0 100#0000BE1E
(1720538807.477046) can0 100#0000C31E
(1720538807.478613) can0 100#0000C81E
(1720538807.480124) can0 100#0000CD1E
(1720538807.481365) can0 425#0000
(1720538807.481535) can0 080#6305
(1720538807.481667) can0 100#0000D21E
(1720538807.483201) can0 100#0000D71E
(1720538807.484775) can0 100#0000DC1E
(1720538807.486311) can0 100#0000E11E
(1720538807.487855) can0 100#0000E61E
(1720538807.489360) can0 100#0000EB1E
(1720538807.490902) can0 100#0000F01E
(1720538807.491980) can0 425#0000
(1720538807.492077) can0 080#6305
(1720538807.492396) can0 100#0000F51E
(1720538807.493960) can0 100#0000FA1E
(1720538807.495506) can0 100#0000FF1E
(1720538807.497040) can0 100#0000041F
(1720538807.498592) can0 100#0000091F
(1720538807.500127) can0 100#00000E1F
(1720538807.501364) can0 425#0000
(1720538807.501527) can0 080#6405
(1720538807.501652) can0 100#0000131F
(1720538807.503196) can0 100#0000181F
(1720538807.504738) can0 100#00001D1F
(1720538807.506314) can0 100#0000221F
(1720538807.507799) can0 100#0000271F
(1720538807.509364) can0 100#00002C1F
(1720538807.510945) can0 100#0000311F
(1720538807.512001) can0 425#0000
(1720538807.512078) can0 080#6405
(1720538807.512418) can0 100#0000361F
(1720538807.513959) can0 100#00003B1F
(1720538807.515507) can0 100#0000401F
(1720538807.517033) can0 100#0000451F
(1720538807.518606) can0 100#00004A1F
(1720538807.520136) can0 100#00004F1F
(1720538807.521374) can0 425#0000
(1720538807.521508) can0 080#6405
(1720538807.521683) can0 100#0000541F
(1720538807.523215) can0 100#0000591F
(1720538807.524732) can0 100#00005E1F
(1720538807.526300) can0 100#0000631F
(1720538807.527822) can0 100#0000681F
(1720538807.529378) can0 100#00006D1F
(1720538807.530916) can0 100#0000721F
(1720538807.531934) can0 425#0000
(1720538807.532089) can0 080#6405
(1720538807.532415) can0 100#0000721F
(1720538807.533977) can0 100#0000771F
(1720538807.535489) can0 100#00007C1F
(1720538807.537042) can0 100#0000811F
(1720538807.538610) can0 100#0000861F
(1720538807.540130) can0 100#00008B1F
(1720538807.541338) can0 425#0000
(1720538807.541507) can0 080#6405
(1720538807.541687) can0 100#0000901F
(1720538807.543213) can0 100#0000951F
(1720538807.544758) can0 100#00009A1F
(1720538807.546317) can0 100#00009F1F
(1720538807.547856) can0 100#0000A41F
(1720538807.549376) can0 100#0000A91F
(1720538807.550904) can0 100#0000AE1F
(1720538807.551944) can0 425#0000
(1720538807.552113) can0 080#6405
(1720538807.552459) can0 100#0000B31F
(1720538807.553990) can0 100#0000B81F
(1720538807.555607) can0 100#0000BD1F
(1720538807.557089) can0 100#0000C21F
(1720538807.558612) can0 100#0000C71F
(1720538807.560176) can0 100#0000CC1F
(1720538807.561365) can0 425#0000
(1720538807.561537) can0 080#6505
(1720538807.561755) can0 100#0000D11F
(1720538807.563250) can0 100#0000D61F
(1720538807.564792) can0 100#0000DB1F
(1720538807.566312) can0 100#0000E01F
(1720538807.567877) can0 100#0000E51F
(1720538807.569403) can0 100#0000EA1F
(1720538807.570959) can0 100#0000EF1F
(1720538807.571942) can0 425#0000
(1720538807.572123) can0 080#6505
(1720538807.572477) can0 100#0000F41F
(1720538807.574041) can0 100#0000F91F
(1720538807.575581) can0 100#0000FE1F
(1720538807.577092) can0 100#00000320
(1720538807.578658) can0 100#00000820
(1720538807.580209) can0 100#00000D20
(1720538807.581369) can0 425#0000
(1720538807.581545) can0 080#6505
(1720538807.581715) can0 100#00001220
(1720538807.583255) can0 100#00001720
(1720538807.584792) can0 100#00001C20
(1720538807.586314) can0 100#00002120
(1720538807.587866) can0 100#00002620
(1720538807.589417) can0 100#00002620
(1720538807.590970) can0 100#00002B20
(1720538807.591957) can0 425#0000
(1720538807.592147) can0 080#6505
(1720538807.592499) can0 100#00003020
(1720538807.594029) can0 100#00003520
(1720538807.595587) can0 100#00003A20
(1720538807.597129) can0 100#00003F20
(1720538807.598645) can0 100#00004420
(1720538807.600209) can0 100#00004920
(1720538807.601358) can0 425#0000
(1720538807.601538) can0 080#6205
(1720538807.601755) can0 100#00004E20
(1720538807.603314) can0 100#00005320
(1720538807.604767) can0 100#00005820
(1720538807.606315) can0 100#00005D20
(1720538807.607858) can0 100#00006220
(1720538807.609420) can0 100#00006720
(1720538807.610908) can0 100#00006C20
(1720538807.611946) can0 425#0000
(1720538807.612125) can0 080#6205
(1720538807.612465) can0 100#00007120
(1720538807.614020) can0 100#00007620
(1720538807.615607) can0 100#00007B20
(1720538807.617086) can0 100#00008020
(1720538807.618629) can0 100#00008520
(1720538807.620151) can0 100#00008A20
(1720538807.621355) can0 425#0000
(1720538807.621544) can0 080#5D05
(1720538807.621719) can0 100#00008F20
(1720538807.623242) can0 100#00009420
(1720538807.624776) can0 100#00009920
(1720538807.626315) can0 100#00009E20
(1720538807.627857) can0 100#0000A320
(1720538807.629409) can0 100#0000A820
(1720538807.630960) can0 100#0000AD20
(1720538807.631946) can0 425#0000
(1720538807.632125) can0 080#5D05
(1720538807.632454) can0 100#0000B220
(1720538807.634026) can0 100#0000B720
(1720538807.635586) can0 100#0000BC20
(1720538807.637087) can0 100#0000C120
(1720538807.638605) can0 100#0000C620
(1720538807.640175) can0 100#0000CB20
(1720538807.641352) can0 425#0000
(1720538807.641522) can0 080#4D05
(1720538807.641685) can0 100#0000D020
(1720538807.643234) can0 100#0000D520
(1720538807.644779) can0 100#0000DA20
(1720538807.646314) can0 100#0000DF20
(1720538807.647847) can0 100#0000DF20
(1720538807.649420) can0 100#0000E420
(1720538807.650962) can0 100#0000E920
(1720538807.651991) can0 425#0000
(1720538807.652114) can0 080#4D05
(1720538807.652460) can0 100#0000EE20
(1720538807.654021) can0 100#0000F320
(1720538807.655609) can0 100#0000F820
(1720538807.657074) can0 100#0000FD20
(1720538807.658635) can0 100#00000221
(1720538807.660147) can0 100#00000721
(1720538807.661371) can0 425#0000
(1720538807.661536) can0 080#3905
(1720538807.661730) can0 100#00000C21
(1720538807.663250) can0 100#00001121
(1720538807.664790) can0 100#00001621
(1720538807.666310) can0 100#00001B21
(1720538807.667869) can0 100#00002021
(1720538807.669415) can0 100#00002521
(1720538807.670966) can0 100#00002A21
(1720538807.671963) can0 425#0000
(1720538807.672104) can0 080#3905
(1720538807.672462) can0 100#00002F21
(1720538807.673979) can0 100#00003421
(1720538807.675596) can0 100#00003921
(1720538807.677091) can0 100#00003E21
(1720538807.678619) can0 100#00004321
(1720538807.680164) can0 100#00004821
(1720538807.681356) can0 425#0000
(1720538807.681546) can0 080#2705
(1720538807.681677) can0 100#00004D21
(1720538807.683233) can0 100#00005221
(1720538807.684760) can0 100#00005721
(1720538807.686315) can0 100#00005C21
(1720538807.687875) can0 100#00006121
(1720538807.689384) can0 100#00006621
(1720538807.690907) can0 100#00006B21
(1720538807.691949) can0 425#0000
(1720538807.692117) can0 080#2705
(1720538807.692449) can0 100#00007021
(1720538807.693992) can0 100#00007521
(1720538807.695586) can0 100#00007A21
(1720538807.697087) can0 100#00007F21
(1720538807.698628) can0 100#00008421
(1720538807.700159) can0 100#00008921
(1720538807.701360) can0 425#0000
(1720538807.701532) can0 080#2005
(1720538807.701711) can0 100#00008E21
(1720538807.703247) can0 100#00009321
(1720538807.704773) can0 100#00009821
(1720538807.706357) can0 100#00009D21
(1720538807.707876) can0 100#0000A221
(1720538807.709396) can0 100#0000A221
(1720538807.710921) can0 100#0000A721
(1720538807.711946) can0 425#0000
(1720538807.712117) can0 080#2005
(1720538807.712449) can0 100#0000AC21
(1720538807.714005) can0 100#0000B121
(1720538807.715589) can0 100#0000B621
(1720538807.717088) can0 100#0000BB21
(1720538807.718615) can0 100#0000C021
(1720538807.720165) can0 100#0000C521
(1720538807.721355) can0 425#0000
(1720538807.721526) can0 080#1305
(1720538807.721696) can0 100#0000CA21
(1720538807.723255) can0 100#0000CF21
(1720538807.724752) can0 100#0000D421
(1720538807.726316) can0 100#0000D921
(1720538807.727855) can0 100#0000DE21
(1720538807.729417) can0 100#0000E321
(1720538807.730925) can0 100#0000E821
(1720538807.731948) can0 425#0000
(1720538807.732106) can0 080#1305
(1720538807.732449) can0 100#0000ED21
(1720538807.733993) can0 100#0000F221
(1720538807.735610) can0 100#0000F721
(1720538807.737081) can0 100#0000FC21
(1720538807.738611) can0 100#00000122
(1720538807.740176) can0 100#00000622
(1720538807.741352) can0 425#0000
(1720538807.741528) can0 080#0C05
(1720538807.741715) can0 100#00000B22
(1720538807.743232) can0 100#00001022
(1720538807.744767) can0 100#00001522
(1720538807.746312) can0 100#00001A22
(1720538807.747864) can0 100#00001F22
(1720538807.749416) can0 100#00002422
(1720538807.750916) can0 100#00002922
(1720538807.751996) can0 425#0000
(1720538807.752117) can0 080#0C05
(1720538807.752463) can0 100#00002E22
(1720538807.754006) can0 100#00003322
(1720538807.755598) can0 100#00003822
(1720538807.757089) can0 100#00003D22
(1720538807.758615) can0 100#00004222
(1720538807.760141) can0 100#00004722
(1720538807.761348) can0 425#0000
(1720538807.761541) can0 080#0005
(1720538807.761673) can0 100#00004C22
(1720538807.763232) can0 100#00005122
(1720538807.764772) can0 100#00005622
(1720538807.766317) can0 100#00005B22
(1720538807.767868) can0 100#00006022
(1720538807.769381) can0 100#00006522
(1720538807.770908) can0 100#00006A22
(1720538807.771946) can0 425#0000
(1720538807.772118) can0 080#0005
(1720538807.772467) can0 100#00006F22
