(1716384613.759961) can0 425#0000
(1716384613.760081) can0 080#5E07
(1716384613.769834) can0 425#0000
(1716384613.769954) can0 080#5E07
(1716384613.779987) can0 425#0000
(1716384613.780081) can0 080#5E07
(1716384613.789839) can0 425#0000
(1716384613.789953) can0 080#5E07
(1716384613.799956) can0 425#0000
(1716384613.800080) can0 080#5E07
(1716384613.809840) can0 425#0000
(1716384613.809955) can0 080#5E07
(1716384613.819955) can0 425#0000
(1716384613.820081) can0 080#5E07
(1716384613.829859) can0 425#0000
(1716384613.829954) can0 080#5E07
(1716384613.839960) can0 425#0000
(1716384613.840080) can0 080#5E07
(1716384613.849833) can0 425#0000
(1716384613.849954) can0 080#5E07
(1716384613.859959) can0 425#0000
(1716384613.860080) can0 080#5E07
(1716384613.869833) can0 425#0000
(1716384613.869957) can0 080#5E07
(1716384613.879955) can0 425#0000
(1716384613.880084) can0 080#5E07
(1716384613.889835) can0 425#0000
(1716384613.889958) can0 080#5E07
(1716384613.899939) can0 425#0000
(1716384613.900083) can0 080#5E07
(1716384613.909839) can0 425#0000
(1716384613.909953) can0 080#5E07
(1716384613.919955) can0 425#0000
(1716384613.920082) can0 080#5E07
(1716384613.929854) can0 425#0000
(1716384613.929952) can0 080#5E07
(1716384613.939955) can0 425#0000
(1716384613.940079) can0 080#5E07
(1716384613.949838) can0 425#0000
(1716384613.949953) can0 080#5E07
(1716384613.959953) can0 425#0000
(1716384613.960083) can0 080#5E07
(1716384613.969832) can0 425#0000
(1716384613.969952) can0 080#5E07
(1716384613.979954) can0 425#0000
(1716384613.980083) can0 080#5E07
(1716384613.989837) can0 425#0000
(1716384613.989952) can0 080#5E07
(1716384613.999952) can0 425#0000
(1716384614.000079) can0 080#5E07
(1716384614.009838) can0 425#0000
(1716384614.009952) can0 080#5E07
(1716384614.019957) can0 425#0000
(1716384614.020079) can0 080#5E07
(1716384614.029854) can0 425#0000
(1716384614.029951) can0 080#5E07
(1716384614.039952) can0 425#0000
(1716384614.040078) can0 080#5E07
(1716384614.049832) can0 425#0000
(1716384614.049983) can0 080#5E07
(1716384614.059953) can0 425#0000
(1716384614.060110) can0 080#5E07
(1716384614.069806) can0 425#0000
(1716384614.069956) can0 080#5E07
(1716384614.079953) can0 425#0000
(1716384614.080082) can0 080#5E07
(1716384614.089831) can0 425#0000
(1716384614.089951) can0 080#5E07
(1716384614.099953) can0 425#0000
(1716384614.100078) can0 080#5E07
(1716384614.109833) can0 425#0000
(1716384614.109951) can0 080#5E07
(1716384614.119952) can0 425#0000
(1716384614.120078) can0 080#5E07
(1716384614.129836) can0 425#0000
(1716384614.129951) can0 080#5E07
(1716384614.139951) can0 425#0000
(1716384614.140077) can0 080#5E07
(1716384614.149830) can0 425#0000
(1716384614.149951) can0 080#5E07
(1716384614.159952) can0 425#0000
(1716384614.160077) can0 080#5E07
(1716384614.169853) can0 425#0000
(1716384614.169951) can0 080#5E07
(1716384614.179958) can0 425#0000
(1716384614.180077) can0 080#5E07
(1716384614.189835) can0 425#0000
(1716384614.189951) can0 080#5E07
(1716384614.199952) can0 425#0000
(1716384614.200076) can0 080#5E07
(1716384614.209830) can0 425#0000
(1716384614.209950) can0 080#5E07
(1716384614.219951) can0 425#0000
(1716384614.220077) can0 080#5E07
(1716384614.229832) can0 425#0000
(1716384614.229949) can0 080#5E07
(1716384614.239950) can0 425#0000
(1716384614.240048) can0 080#5E07
(1716384614.249829) can0 425#0000
(1716384614.249933) can0 080#5E07
(1716384614.260011) can0 425#0000
(1716384614.260130) can0 080#5E07
(1716384614.269840) can0 425#0000
(1716384614.269955) can0 080#5E07
(1716384614.279951) can0 425#0000
(1716384614.280076) can0 080#5E07
(1716384614.289834) can0 425#0000
(1716384614.289926) can0 080#5E07
(1716384614.299951) can0 425#0000
(1716384614.300074) can0 080#5E07
(1716384614.309830) can0 425#0000
(1716384614.309949) can0 080#5E07
(1716384614.319951) can0 425#0000
(1716384614.320076) can0 080#5E07
(1716384614.329853) can0 425#0000
(1716384614.329953) can0 080#5E07
(1716384614.339952) can0 425#0000
(1716384614.340068) can0 080#5E07
(1716384614.349804) can0 425#0000
(1716384614.349953) can0 080#5E07
(1716384614.359938) can0 425#0000
(1716384614.360079) can0 080#5E07
(1716384614.369851) can0 425#0000
(1716384614.369953) can0 080#5E07
(1716384614.379949) can0 425#0000
(1716384614.380072) can0 080#5E07
(1716384614.389833) can0 425#0000
(1716384614.389948) can0 080#5E07
(1716384614.399930) can0 425#0000
(1716384614.400075) can0 080#5E07
(1716384614.409850) can0 425#0000
(1716384614.409949) can0 080#5E07
(1716384614.419949) can0 425#0000
(1716384614.420075) can0 080#5E07
(1716384614.429827) can0 425#0000
(1716384614.429948) can0 080#5E07
(1716384614.439956) can0 425#0000
(1716384614.440074) can0 080#5E07
(1716384614.449833) can0 425#0000
(1716384614.449948) can0 080#5E07
(1716384614.460106) can0 425#0000
(1716384614.460249) can0 080#5E07
(1716384614.469826) can0 425#0000
(1716384614.469952) can0 080#5E07
(1716384614.479949) can0 425#0000
(1716384614.480078) can0 080#5E07
(1716384614.489809) can0 425#0000
(1716384614.489952) can0 080#5E07
(1716384614.499949) can0 425#0000
(1716384614.500073) can0 080#5E07
(1716384614.509801) can0 425#0000
(1716384614.509951) can0 080#5E07
(1716384614.519949) can0 425#0000
(1716384614.520048) can0 080#5E07
(1716384614.529802) can0 425#0000
(1716384614.529951) can0 080#5E07
(1716384614.539949) can0 425#0000
(1716384614.540048) can0 080#5E07
(1716384614.549823) can0 425#0000
(1716384614.549952) can0 080#5E07
(1716384614.560604) can0 425#0000
(1716384614.560723) can0 080#5E07
(1716384614.569832) can0 425#0000
(1716384614.569952) can0 080#5E07
(1716384614.579948) can0 425#0000
(1716384614.580073) can0 080#5E07
(1716384614.589849) can0 425#0000
(1716384614.589944) can0 080#5E07
(1716384614.599947) can0 425#0000
(1716384614.600073) can0 080#5E07
(1716384614.609806) can0 425#0000
(1716384614.609951) can0 080#5E07
(1716384614.619947) can0 425#0000
(1716384614.620097) can0 080#5E07
(1716384614.629826) can0 425#0000
(1716384614.629946) can0 080#5E07
(1716384614.639947) can0 425#0000
(1716384614.640048) can0 080#5E07
(1716384614.649805) can0 425#0000
(1716384614.649950) can0 080#5E07
(1716384614.659947) can0 425#0000
(1716384614.660047) can0 080#5E07
(1716384614.669806) can0 425#0000
(1716384614.669950) can0 080#5E07
(1716384614.679949) can0 425#0000
(1716384614.680072) can0 080#5E07
(1716384614.689822) can0 425#0000
(1716384614.689950) can0 080#5E07
(1716384614.699950) can0 425#0000
(1716384614.700072) can0 080#5E07
(1716384614.709805) can0 425#0000
(1716384614.709950) can0 080#5E07
(1716384614.719947) can0 425#0000
(1716384614.720047) can0 080#5E07
(1716384614.729799) can0 425#0000
(1716384614.729950) can0 080#5E07
(1716384614.739946) can0 425#0000
(1716384614.740077) can0 080#5E07
(1716384614.749819) can0 425#0000
(1716384614.749949) can0 080#5E07
(1716384614.759946) can0 425#0000
(1716384614.760047) can0 080#5E07
(1716384614.769859) can0 425#0000
(1716384614.769949) can0 080#5E07
(1716384614.779947) can0 425#0000
(1716384614.780075) can0 080#5E07
(1716384614.789831) can0 425#0000
(1716384614.789949) can0 080#5E07
(1716384614.799947) can0 425#0000
(1716384614.800046) can0 080#5E07
(1716384614.809804) can0 425#0000
(1716384614.809948) can0 080#5E07
(1716384614.819952) can0 425#0000
(1716384614.820046) can0 080#5E07
(1716384614.829825) can0 425#0000
(1716384614.829949) can0 080#5E07
(1716384614.839946) can0 425#0000
(1716384614.840046) can0 080#5E07
(1716384614.849828) can0 425#0000
(1716384614.849944) can0 080#5E07
(1716384614.859944) can0 425#0000
(1716384614.860045) can0 080#5E07
(1716384614.869804) can0 425#0000
(1716384614.869948) can0 080#5E07
(1716384614.879945) can0 425#0000
(1716384614.880045) can0 080#5E07
(1716384614.889820) can0 425#0000
(1716384614.889948) can0 080#5E07
(1716384614.899945) can0 425#0000
(1716384614.900073) can0 080#5E07
(1716384614.909798) can0 425#0000
(1716384614.909949) can0 080#5E07
(1716384614.919945) can0 425#0000
(1716384614.920045) can0 080#5E07
(1716384614.929823) can0 425#0000
(1716384614.929943) can0 080#5E07
(1716384614.939945) can0 425#0000
(1716384614.940045) can0 080#5E07
(1716384614.949799) can0 425#0000
(1716384614.949947) can0 080#5E07
(1716384614.959944) can0 425#0000
(1716384614.960069) can0 080#5E07
(1716384614.969821) can0 425#0000
(1716384614.969947) can0 080#5E07
(1716384614.979944) can0 425#0000
(1716384614.980045) can0 080#5E07
(1716384614.989797) can0 425#0000
(1716384614.989947) can0 080#5E07
(1716384614.999944) can0 425#0000
(1716384615.000044) can0 080#5E07
(1716384615.009803) can0 425#0000
(1716384615.009947) can0 080#5E07
(1716384615.019945) can0 425#0000
(1716384615.020069) can0 080#5E07
(1716384615.029797) can0 425#0000
(1716384615.029943) can0 080#5E07
(1716384615.039948) can0 425#0000
(1716384615.040044) can0 080#5E07
(1716384615.049798) can0 425#0000
(1716384615.049946) can0 080#5E07
(1716384615.059945) can0 425#0000
(1716384615.060069) can0 080#5E07
(1716384615.069797) can0 425#0000
(1716384615.069943) can0 080#5E07
(1716384615.079947) can0 425#0000
(1716384615.080044) can0 080#5E07
(1716384615.089817) can0 425#0000
(1716384615.089943) can0 080#5E07
(1716384615.099946) can0 425#0000
(1716384615.100043) can0 080#5E07
(1716384615.109818) can0 425#0000
(1716384615.109943) can0 080#5E07
(1716384615.119972) can0 425#F5FF
(1716384615.120068) can0 080#5E07
(1716384615.129797) can0 425#F5FF
(1716384615.129943) can0 080#5E07
(1716384615.139949) can0 425#0000
(1716384615.140043) can0 080#5E07
(1716384615.149796) can0 425#0000
(1716384615.149942) can0 080#5E07
(1716384615.159946) can0 425#0000
(1716384615.160067) can0 080#5E07
(1716384615.169802) can0 425#0000
(1716384615.169942) can0 080#5E07
(1716384615.179947) can0 425#0000
(1716384615.180042) can0 080#5E07
(1716384615.189820) can0 425#0000
(1716384615.189938) can0 080#5E07
(1716384615.199945) can0 425#0000
(1716384615.200043) can0 080#5E07
(1716384615.209796) can0 425#0000
(1716384615.209942) can0 080#5E07
(1716384615.219946) can0 425#0000
(1716384615.220042) can0 080#5E07
(1716384615.229796) can0 425#0000
(1716384615.229936) can0 080#5E07
(1716384615.239946) can0 425#0000
(1716384615.240042) can0 080#5E07
(1716384615.249778) can0 425#0000
(1716384615.249941) can0 080#5E07
(1716384615.259945) can0 425#0000
(1716384615.260042) can0 080#5E07
(1716384615.269817) can0 425#0000
(1716384615.269941) can0 080#5E07
(1716384615.279945) can0 425#0000
(1716384615.280041) can0 080#5E07
(1716384615.289767) can0 425#0000
(1716384615.289940) can0 080#5E07
(1716384615.299968) can0 425#0000
(1716384615.300041) can0 080#5E07
(1716384615.309794) can0 425#0000
(1716384615.309941) can0 080#5E07
(1716384615.319945) can0 425#F5FF
(1716384615.320043) can0 080#5E07
(1716384615.329795) can0 425#F5FF
(1716384615.329940) can0 080#5E07
(1716384615.339945) can0 425#0000
(1716384615.340041) can0 080#5E07
(1716384615.349794) can0 425#0000
(1716384615.349940) can0 080#5E07
(1716384615.359944) can0 425#0000
(1716384615.360041) can0 080#5E07
(1716384615.369799) can0 425#0000
(1716384615.369940) can0 080#5E07
(1716384615.379944) can0 425#0000
(1716384615.380041) can0 080#5E07
(1716384615.389794) can0 425#0000
(1716384615.389940) can0 080#5E07
(1716384615.399949) can0 425#0000
(1716384615.400041) can0 080#5E07
(1716384615.409816) can0 425#0000
(1716384615.409940) can0 080#5E07
(1716384615.419940) can0 425#0000
(1716384615.420040) can0 080#5E07
(1716384615.429793) can0 425#0000
(1716384615.429939) can0 080#5E07
(1716384615.439944) can0 425#0000
(1716384615.440040) can0 080#5E07
(1716384615.449793) can0 425#0000
(1716384615.449939) can0 080#5E07
(1716384615.459944) can0 425#0000
(1716384615.460040) can0 080#5E07
(1716384615.469792) can0 425#0000
(1716384615.469939) can0 080#5E07
(1716384615.479943) can0 425#0000
(1716384615.480039) can0 080#5E07
(1716384615.489816) can0 425#0000
(1716384615.489939) can0 080#5E07
(1716384615.499943) can0 425#0000
(1716384615.500039) can0 080#5E07
(1716384615.509796) can0 425#0000
(1716384615.509939) can0 080#5E07
(1716384615.519944) can0 425#0000
(1716384615.520039) can0 080#5E07
(1716384615.529793) can0 425#0000
(1716384615.529938) can0 080#5E07
(1716384615.539943) can0 425#0000
(1716384615.540038) can0 080#5E07
(1716384615.549793) can0 425#0000
(1716384615.549938) can0 080#5E07
(1716384615.560602) can0 425#0000
(1716384615.560739) can0 080#5E07
(1716384615.569800) can0 425#0000
(1716384615.569938) can0 080#5F07
(1716384615.579892) can0 425#0000
(1716384615.580042) can0 080#5F07
(1716384615.589815) can0 425#0000
(1716384615.589939) can0 080#5F07
(1716384615.599942) can0 425#0000
(1716384615.600038) can0 080#5F07
(1716384615.609813) can0 425#0000
(1716384615.609938) can0 080#5F07
(1716384615.619965) can0 425#0000
(1716384615.620063) can0 080#5F07
(1716384615.629816) can0 425#0000
(1716384615.629937) can0 080#5F07
(1716384615.639892) can0 425#0000
(1716384615.640041) can0 080#5F07
(1716384615.649790) can0 425#0000
(1716384615.649937) can0 080#5F07
(1716384615.659941) can0 425#0000
(1716384615.660038) can0 080#5F07
(1716384615.669817) can0 425#0000
(1716384615.669937) can0 080#5F07
(1716384615.679947) can0 425#0000
(1716384615.680066) can0 080#5F07
(1716384615.689792) can0 425#0000
(1716384615.689937) can0 080#5F07
(1716384615.699940) can0 425#0000
(1716384615.700038) can0 080#5F07
(1716384615.709798) can0 425#0000
(1716384615.709936) can0 080#5F07
(1716384615.719897) can0 425#0000
(1716384615.720040) can0 080#5F07
(1716384615.729813) can0 425#0000
(1716384615.729937) can0 080#5F07
(1716384615.739900) can0 425#0000
(1716384615.740040) can0 080#5F07
(1716384615.749812) can0 425#0000
(1716384615.749936) can0 080#5F07
(1716384615.759940) can0 425#0000
(1716384615.760036) can0 080#5F07
(1716384615.769791) can0 425#0000
(1716384615.769936) can0 080#5F07
(1716384615.779897) can0 425#0000
(1716384615.780040) can0 080#5F07
(1716384615.789812) can0 425#0000
(1716384615.789936) can0 080#5F07
(1716384615.799941) can0 425#0000
(1716384615.800037) can0 080#5F07
(1716384615.809812) can0 425#0000
(1716384615.809936) can0 080#5F07
(1716384615.819890) can0 425#0000
(1716384615.820039) can0 080#5F07
(1716384615.829789) can0 425#0000
(1716384615.829935) can0 080#5F07
(1716384615.839923) can0 425#0000
(1716384615.840038) can0 080#5F07
(1716384615.849796) can0 425#0000
(1716384615.849935) can0 080#5F07
(1716384615.859939) can0 425#0000
(1716384615.860037) can0 080#5F07
(1716384615.869788) can0 425#0000
(1716384615.869935) can0 080#5F07
(1716384615.879889) can0 425#0000
(1716384615.880038) can0 080#5F07
(1716384615.889788) can0 425#0000
(1716384615.889935) can0 080#5F07
(1716384615.899939) can0 425#0000
(1716384615.900036) can0 080#5F07
(1716384615.909789) can0 425#0000
(1716384615.909935) can0 080#5F07
(1716384615.919891) can0 425#0000
(1716384615.920038) can0 080#5F07
(1716384615.929812) can0 425#0000
(1716384615.929935) can0 080#5F07
(1716384615.939888) can0 425#0000
(1716384615.940038) can0 080#5F07
(1716384615.949788) can0 425#0000
(1716384615.949934) can0 080#5F07
(1716384615.959938) can0 425#0000
(1716384615.960034) can0 080#5F07
(1716384615.969810) can0 425#0000
(1716384615.969934) can0 080#5F07
(1716384615.979939) can0 425#0000
(1716384615.980034) can0 080#5F07
(1716384615.989846) can0 425#0000
(1716384615.989929) can0 080#5F07
(1716384615.999894) can0 425#0000
(1716384616.000037) can0 080#5F07
(1716384616.009788) can0 425#0000
(1716384616.009933) can0 080#5F07
(1716384616.019939) can0 425#0000
(1716384616.020034) can0 080#5F07
(1716384616.029811) can0 425#0000
(1716384616.029933) can0 080#5F07
(1716384616.039937) can0 425#0000
(1716384616.040033) can0 080#5F07
(1716384616.049810) can0 425#0000
(1716384616.049933) can0 080#5F07
(1716384616.059894) can0 425#0000
(1716384616.060036) can0 080#5F07
(1716384616.069792) can0 425#0000
(1716384616.069933) can0 080#5F07
(1716384616.077258) can0 100#00000000
(1716384616.078935) can0 100#00000000
(1716384616.079936) can0 425#0000
(1716384616.080030) can0 080#5F07
(1716384616.080446) can0 100#FAFF0000
(1716384616.082067) can0 100#F5FF0000
(1716384616.083616) can0 100#F0FF0000
(1716384616.085133) can0 100#EBFF0000
(1716384616.086732) can0 100#E6FF0000
(1716384616.088277) can0 100#E1FF0000
(1716384616.089798) can0 425#0000
(1716384616.089962) can0 100#DCFF0000
(1716384616.090110) can0 080#5F07
(1716384616.091432) can0 100#D7FF0000
(1716384616.093035) can0 100#D2FF0000
(1716384616.094593) can0 100#CDFF0000
(1716384616.096135) can0 100#C8FF0000
(1716384616.097667) can0 100#C3FF0000
(1716384616.099198) can0 100#BEFF0000
(1716384616.099933) can0 425#4400
(1716384616.100035) can0 080#5F07
(1716384616.100732) can0 100#B9FF0000
(1716384616.102262) can0 100#B4FF0000
(1716384616.103791) can0 100#AFFF0000
(1716384616.105336) can0 100#AAFF0000
(1716384616.106870) can0 100#A5FF0000
(1716384616.108407) can0 100#A0FF0000
(1716384616.109792) can0 425#4400
(1716384616.109960) can0 100#9BFF0000
(1716384616.110108) can0 080#5F07
(1716384616.111474) can0 100#96FF0000
(1716384616.113007) can0 100#91FF0000
(1716384616.114544) can0 100#8CFF0000
(1716384616.116065) can0 100#87FF0000
(1716384616.117603) can0 100#82FF0000
(1716384616.119131) can0 100#7DFF0000
(1716384616.119936) can0 425#D2FF
(1716384616.120010) can0 080#5F07
(1716384616.120672) can0 100#78FF0000
(1716384616.122206) can0 100#73FF0000
(1716384616.123750) can0 100#6EFF0000
(1716384616.125319) can0 100#69FF0000
(1716384616.126815) can0 100#64FF0000
(1716384616.128338) can0 100#5FFF0000
(1716384616.129783) can0 425#D2FF
(1716384616.129935) can0 100#5AFF0000
(1716384616.130079) can0 080#5F07
(1716384616.131415) can0 100#55FF0000
(1716384616.132935) can0 100#50FF0000
(1716384616.134450) can0 100#4BFF0000
(1716384616.135985) can0 100#46FF0000
(1716384616.137522) can0 100#41FF0000
(1716384616.139060) can0 100#3CFF0000
(1716384616.139936) can0 425#F5FF
(1716384616.140029) can0 080#5F07
(1716384616.140592) can0 100#37FF0000
(1716384616.142110) can0 100#32FF0000
(1716384616.143643) can0 100#2DFF0000
(1716384616.145189) can0 100#28FF0000
(1716384616.146701) can0 100#23FF0000
(1716384616.148239) can0 100#23FF0000
(1716384616.149793) can0 100#1EFF0000
(1716384616.149933) can0 425#F5FF
(1716384616.150061) can0 080#5F07
(1716384616.151299) can0 100#19FF0000
(1716384616.152838) can0 100#14FF0000
(1716384616.154370) can0 100#0FFF0000
(1716384616.155936) can0 100#0AFF0000
(1716384616.157443) can0 100#05FF0000
(1716384616.158985) can0 100#00FF0000
(1716384616.159932) can0 425#0000
(1716384616.160036) can0 080#5F07
(1716384616.160508) can0 100#FBFE0000
(1716384616.162035) can0 100#F6FE0000
(1716384616.163571) can0 100#F1FE0000
(1716384616.165111) can0 100#ECFE0000
(1716384616.166646) can0 100#E7FE0000
(1716384616.168188) can0 100#E2FE0000
(1716384616.169709) can0 100#DDFE0000
(1716384616.169865) can0 425#0000
(1716384616.169992) can0 080#5F07
(1716384616.171246) can0 100#D8FE0000
(1716384616.172770) can0 100#D3FE0000
(1716384616.174312) can0 100#CEFE0000
(1716384616.175848) can0 100#C9FE0000
(1716384616.177381) can0 100#C4FE0000
(1716384616.178933) can0 100#BFFE0000
(1716384616.179941) can0 425#F5FF
(1716384616.180032) can0 080#5F07
(1716384616.180466) can0 100#BAFE0000
(1716384616.181981) can0 100#B5FE0000
(1716384616.183534) can0 100#B0FE0000
(1716384616.185061) can0 100#ABFE0000
(1716384616.186590) can0 100#A6FE0000
(1716384616.188106) can0 100#A1FE0000
(1716384616.189651) can0 100#9CFE0000
(1716384616.189800) can0 425#F5FF
(1716384616.189935) can0 080#5F07
(1716384616.191186) can0 100#97FE0000
(1716384616.192731) can0 100#92FE0000
(1716384616.194261) can0 100#8DFE0000
(1716384616.195792) can0 100#88FE0000
(1716384616.197317) can0 100#83FE0000
(1716384616.198850) can0 100#7EFE0000
(1716384616.199936) can0 425#F5FF
(1716384616.200033) can0 080#5F07
(1716384616.200370) can0 100#79FE0000
(1716384616.201965) can0 100#74FE0000
(1716384616.203432) can0 100#6FFE0000
(1716384616.204959) can0 100#6FFE0000
(1716384616.206498) can0 100#6AFE0000
(1716384616.208034) can0 100#65FE0000
(1716384616.209565) can0 100#60FE0000
(1716384616.209812) can0 425#F5FF
(1716384616.209927) can0 080#5F07
(1716384616.211091) can0 100#5BFE0000
(1716384616.212623) can0 100#56FE0000
(1716384616.214182) can0 100#51FE0000
(1716384616.215685) can0 100#4CFE0000
(1716384616.217235) can0 100#47FE0000
(1716384616.218757) can0 100#42FE0000
(1716384616.219891) can0 425#F5FF
(1716384616.220031) can0 080#5F07
(1716384616.220270) can0 100#3DFE0000
(1716384616.221807) can0 100#38FE0000
(1716384616.223339) can0 100#33FE0000
(1716384616.224869) can0 100#2EFE0000
(1716384616.226405) can0 100#29FE0000
(1716384616.227934) can0 100#24FE0000
(1716384616.229482) can0 100#1FFE0000
(1716384616.229782) can0 425#F5FF
(1716384616.229936) can0 080#5F07
(1716384616.231009) can0 100#1AFE0000
(1716384616.232541) can0 100#15FE0000
(1716384616.234080) can0 100#10FE0000
(1716384616.235615) can0 100#0BFE0000
(1716384616.237181) can0 100#06FE0000
(1716384616.238687) can0 100#01FE0000
(1716384616.239882) can0 425#E9FF
(1716384616.240014) can0 080#5F07
(1716384616.240231) can0 100#FCFD0000
(1716384616.241741) can0 100#F7FD0000
(1716384616.243273) can0 100#F2FD0000
(1716384616.244807) can0 100#EDFD0000
(1716384616.246348) can0 100#E8FD0000
(1716384616.247935) can0 100#E3FD0000
(1716384616.249416) can0 100#DEFD0000
(1716384616.249797) can0 425#E9FF
(1716384616.249935) can0 080#5F07
(1716384616.250960) can0 100#D9FD0000
(1716384616.252483) can0 100#D4FD0000
(1716384616.254010) can0 100#CFFD0000
(1716384616.255548) can0 100#CAFD0000
(1716384616.257092) can0 100#C5FD0000
(1716384616.258623) can0 100#C0FD0000
(1716384616.259857) can0 425#E9FF
(1716384616.260031) can0 080#5F07
(1716384616.260207) can0 100#BBFD0000
(1716384616.261678) can0 100#B6FD0000
(1716384616.263205) can0 100#B1FD0000
(1716384616.264736) can0 100#ACFD0000
(1716384616.266263) can0 100#A7FD0000
(1716384616.267795) can0 100#A7FD0000
(1716384616.269332) can0 100#A2FD0000
(1716384616.269781) can0 425#E9FF
(1716384616.269934) can0 080#5F07
(1716384616.270863) can0 100#9DFD0000
(1716384616.272404) can0 100#98FD0000
(1716384616.273935) can0 100#93FD0000
(1716384616.275464) can0 100#8EFD0000
(1716384616.276981) can0 100#89FD0000
(1716384616.278505) can0 100#84FD0000
(1716384616.279934) can0 425#E9FF
(1716384616.280031) can0 080#5F07
(1716384616.280202) can0 100#7FFD0000
(1716384616.281591) can0 100#7AFD0000
(1716384616.283110) can0 100#75FD0000
(1716384616.284650) can0 100#70FD0000
(1716384616.286183) can0 100#6BFD0000
(1716384616.287729) can0 100#66FD0000
(1716384616.289220) can0 100#61FD0000
(1716384616.289771) can0 425#E9FF
(1716384616.289931) can0 080#5F07
(1716384616.290783) can0 100#5CFD0000
(1716384616.292316) can0 100#57FD0000
(1716384616.293850) can0 100#52FD0000
(1716384616.295383) can0 100#4DFD0000
(1716384616.296933) can0 100#48FD0000
(1716384616.298455) can0 100#43FD0000
(1716384616.299939) can0 425#E9FF
(1716384616.300052) can0 100#3EFD0000
(1716384616.300206) can0 080#5F07
(1716384616.301537) can0 100#39FD0000
(1716384616.303058) can0 100#34FD0000
(1716384616.304589) can0 100#2FFD0000
(1716384616.306111) can0 100#2AFD0000
(1716384616.307657) can0 100#25FD0000
(1716384616.309194) can0 100#20FD0000
(1716384616.309793) can0 425#E9FF
(1716384616.309935) can0 080#5F07
(1716384616.310737) can0 100#1BFD0000
(1716384616.312261) can0 100#16FD0000
(1716384616.313793) can0 100#11FD0000
(1716384616.315346) can0 100#0CFD0000
(1716384616.316864) can0 100#07FD0000
(1716384616.318406) can0 100#02FD0000
(1716384616.319931) can0 100#FDFC0000
(1716384616.320028) can0 425#E9FF
(1716384616.320205) can0 080#5F07
(1716384616.321457) can0 100#F8FC0000
(1716384616.322981) can0 100#F3FC0000
(1716384616.324515) can0 100#EEFC0000
(1716384616.326034) can0 100#E9FC0000
(1716384616.327591) can0 100#E9FC0000
(1716384616.329105) can0 100#E4FC0000
(1716384616.329786) can0 425#E9FF
(1716384616.329935) can0 080#5F07
(1716384616.330648) can0 100#DFFC0000
(1716384616.332182) can0 100#DAFC0000
(1716384616.333705) can0 100#D5FC0000
(1716384616.335242) can0 100#D0FC0000
(1716384616.336771) can0 100#CBFC0000
(1716384616.338307) can0 100#C6FC0000
(1716384616.339844) can0 100#C1FC0000
(1716384616.339991) can0 425#DEFF
(1716384616.340137) can0 080#5F07
(1716384616.341379) can0 100#BCFC0000
(1716384616.342937) can0 100#B7FC0000
(1716384616.344455) can0 100#B2FC0000
(1716384616.346009) can0 100#ADFC0000
(1716384616.347517) can0 100#A8FC0000
(1716384616.349058) can0 100#A3FC0000
(1716384616.349785) can0 425#DEFF
(1716384616.349934) can0 080#5F07
(1716384616.350581) can0 100#9EFC0000
(1716384616.352108) can0 100#99FC0000
(1716384616.353659) can0 100#94FC0000
(1716384616.355193) can0 100#8FFC0000
(1716384616.356727) can0 100#8AFC0000
(1716384616.358260) can0 100#85FC0000
(1716384616.359796) can0 100#80FC0000
(1716384616.359932) can0 425#E9FF
(1716384616.360077) can0 080#5F07
(1716384616.361324) can0 100#7BFC0000
(1716384616.362859) can0 100#76FC0000
(1716384616.364395) can0 100#71FC0000
(1716384616.365930) can0 100#6CFC0000
(1716384616.367461) can0 100#67FC0000
(1716384616.368983) can0 100#62FC0000
(1716384616.369782) can0 425#E9FF
(1716384616.369931) can0 080#5F07
(1716384616.370531) can0 100#5DFC0000
(1716384616.372090) can0 100#58FC0000
(1716384616.373610) can0 100#53FC0000
(1716384616.375176) can0 100#4EFC0000
(1716384616.376686) can0 100#49FC0000
(1716384616.378223) can0 100#44FC0000
(1716384616.379755) can0 100#3FFC0000
(1716384616.379931) can0 425#E9FF
(1716384616.380059) can0 080#5F07
(1716384616.381281) can0 100#3AFC0000
(1716384616.382804) can0 100#35FC0000
(1716384616.384331) can0 100#30FC0000
(1716384616.385864) can0 100#2BFC0000
(1716384616.387392) can0 100#26FC0000
(1716384616.388934) can0 100#21FC0000
(1716384616.389777) can0 425#E9FF
(1716384616.389934) can0 080#5F07
(1716384616.390449) can0 100#1CFC0000
(1716384616.391983) can0 100#1CFC0000
(1716384616.393510) can0 100#17FC0000
(1716384616.395033) can0 100#12FC0000
(1716384616.396570) can0 100#0DFC0000
(1716384616.398111) can0 100#08FC0000
(1716384616.399642) can0 100#03FC0000
(1716384616.399867) can0 425#E9FF
(1716384616.400034) can0 080#5F07
(1716384616.401184) can0 100#FEFB0000
(1716384616.402713) can0 100#F9FB0000
(1716384616.404242) can0 100#F4FB0000
(1716384616.405788) can0 100#EFFB0000
(1716384616.407319) can0 100#EAFB0000
(1716384616.408845) can0 100#E5FB0000
(1716384616.409786) can0 425#E9FF
(1716384616.409933) can0 080#5F07
(1716384616.410385) can0 100#E0FB0000
(1716384616.411933) can0 100#DBFB0000
(1716384616.413461) can0 100#D6FB0000
(1716384616.414983) can0 100#D1FB0000
(1716384616.416543) can0 100#CCFB0000
(1716384616.418055) can0 100#C7FB0000
(1716384616.419594) can0 100#C2FB0000
(1716384616.419908) can0 425#DEFF
(1716384616.420055) can0 080#5F07
(1716384616.421128) can0 100#BDFB0000
(1716384616.422667) can0 100#B8FB0000
(1716384616.424195) can0 100#B3FB0000
(1716384616.425759) can0 100#AEFB0000
(1716384616.427264) can0 100#A9FB0000
(1716384616.428804) can0 100#A4FB0000
(1716384616.429783) can0 425#DEFF
(1716384616.429934) can0 080#5F07
(1716384616.430335) can0 100#9FFB0000
(1716384616.431869) can0 100#9AFB0000
(1716384616.433405) can0 100#95FB0000
(1716384616.434933) can0 100#90FB0000
(1716384616.436464) can0 100#8BFB0000
(1716384616.437985) can0 100#86FB0000
(1716384616.439533) can0 100#81FB0000
(1716384616.439950) can0 425#DEFF
(1716384616.440028) can0 080#5F07
(1716384616.441061) can0 100#7CFB0000
(1716384616.442590) can0 100#77FB0000
(1716384616.444104) can0 100#72FB0000
(1716384616.445642) can0 100#6DFB0000
(1716384616.447189) can0 100#68FB0000
(1716384616.448700) can0 100#63FB0000
(1716384616.449780) can0 425#DEFF
(1716384616.449933) can0 080#5F07
(1716384616.450230) can0 100#63FB0000
(1716384616.451762) can0 100#5EFB0000
(1716384616.453300) can0 100#59FB0000
(1716384616.454830) can0 100#54FB0000
(1716384616.456359) can0 100#4FFB0000
(1716384616.457933) can0 100#4AFB0000
(1716384616.459426) can0 100#45FB0000
(1716384616.459928) can0 425#F5FF
(1716384616.460030) can0 080#5F07
(1716384616.460957) can0 100#40FB0000
(1716384616.462483) can0 100#3BFB0000
(1716384616.464032) can0 100#36FB0000
(1716384616.465566) can0 100#31FB0000
(1716384616.467089) can0 100#2CFB0000
(1716384616.468624) can0 100#27FB0000
(1716384616.469783) can0 425#F5FF
(1716384616.469969) can0 080#5F07
(1716384616.470205) can0 100#22FB0000
(1716384616.471693) can0 100#1DFB0000
(1716384616.473236) can0 100#18FB0000
(1716384616.474761) can0 100#13FB0000
(1716384616.476289) can0 100#0EFB0000
(1716384616.477824) can0 100#09FB0000
(1716384616.479364) can0 100#04FB0000
(1716384616.479923) can0 425#DEFF
(1716384616.480030) can0 080#5F07
(1716384616.480928) can0 100#FFFA0000
(1716384616.482432) can0 100#FAFA0000
(1716384616.483958) can0 100#F5FA0000
(1716384616.485488) can0 100#F0FA0000
(1716384616.487029) can0 100#EBFA0000
(1716384616.488561) can0 100#E6FA0000
(1716384616.489782) can0 425#DEFF
(1716384616.489942) can0 080#5F07
(1716384616.490076) can0 100#E1FA0000
(1716384616.491622) can0 100#DCFA0000
(1716384616.493180) can0 100#D7FA0000
(1716384616.494685) can0 100#D2FA0000
(1716384616.496215) can0 100#CDFA0000
(1716384616.497759) can0 100#C8FA0000
(1716384616.499289) can0 100#C3FA0000
(1716384616.499932) can0 425#E9FF
(1716384616.500025) can0 080#5F07
(1716384616.500817) can0 100#BEFA0000
(1716384616.502350) can0 100#B9FA0000
(1716384616.503886) can0 100#B4FA0000
(1716384616.505433) can0 100#AFFA0000
(1716384616.506956) can0 100#AFFA0000
(1716384616.508482) can0 100#AAFA0000
(1716384616.509764) can0 425#E9FF
(1716384616.509929) can0 080#5F07
(1716384616.510088) can0 100#A5FA0000
(1716384616.511543) can0 100#A0FA0000
(1716384616.513088) can0 100#9BFA0000
(1716384616.514600) can0 100#96FA0000
(1716384616.516182) can0 100#91FA0000
(1716384616.517684) can0 100#8CFA0000
(1716384616.519211) can0 100#87FA0000
(1716384616.519930) can0 425#D2FF
(1716384616.520028) can0 080#5F07
(1716384616.520738) can0 100#82FA0000
(1716384616.522287) can0 100#7DFA0000
(1716384616.523813) can0 100#78FA0000
(1716384616.525358) can0 100#73FA0000
(1716384616.526939) can0 100#6EFA0000
(1716384616.528422) can0 100#69FA0000
(1716384616.529791) can0 425#D2FF
(1716384616.529932) can0 100#64FA0000
(1716384616.530079) can0 080#5F07
(1716384616.531485) can0 100#5FFA0000
(1716384616.533006) can0 100#5AFA0000
(1716384616.534537) can0 100#55FA0000
(1716384616.536088) can0 100#50FA0000
(1716384616.537609) can0 100#4BFA0000
(1716384616.539175) can0 100#46FA0000
(1716384616.539933) can0 425#DEFF
(1716384616.540033) can0 080#5F07
(1716384616.540674) can0 100#41FA0000
(1716384616.542207) can0 100#3CFA0000
(1716384616.543743) can0 100#37FA0000
(1716384616.545274) can0 100#32FA0000
(1716384616.546807) can0 100#2DFA0000
(1716384616.548331) can0 100#28FA0000
(1716384616.549771) can0 425#DEFF
(1716384616.549957) can0 100#23FA0000
(1716384616.550104) can0 080#5F07
(1716384616.551401) can0 100#1EFA0000
(1716384616.552930) can0 100#19FA0000
(1716384616.554471) can0 100#14FA0000
(1716384616.556006) can0 100#0FFA0000
(1716384616.557524) can0 100#0AFA0000
(1716384616.559056) can0 100#05FA0000
(1716384616.560559) can0 425#C7FF
(1716384616.560731) can0 100#05FA0000
(1716384616.560876) can0 080#5F07
(1716384616.562156) can0 100#00FA0000
(1716384616.563679) can0 100#FBF90000
(1716384616.565207) can0 100#F6F90000
(1716384616.566749) can0 100#F1F90000
(1716384616.568283) can0 100#ECF90000
(1716384616.569767) can0 425#C7FF
(1716384616.569956) can0 100#E7F90000
(1716384616.570075) can0 080#5E07
(1716384616.571347) can0 100#E2F90000
(1716384616.572935) can0 100#DDF90000
(1716384616.574421) can0 100#D8F90000
(1716384616.575953) can0 100#D3F90000
(1716384616.577485) can0 100#CEF90000
(1716384616.579032) can0 100#C9F90000
(1716384616.579873) can0 425#DEFF
(1716384616.580028) can0 080#5E07
(1716384616.580554) can0 100#C4F90000
(1716384616.582088) can0 100#BFF90000
(1716384616.583608) can0 100#BAF90000
(1716384616.585178) can0 100#B5F90000
(1716384616.586678) can0 100#B0F90000
(1716384616.588208) can0 100#ABF90000
(1716384616.589744) can0 100#A6F90000
(1716384616.589928) can0 425#DEFF
(1716384616.590028) can0 080#5E07
(1716384616.591283) can0 100#A1F90000
(1716384616.592815) can0 100#9CF90000
(1716384616.594353) can0 100#97F90000
(1716384616.595934) can0 100#92F90000
(1716384616.597428) can0 100#8DF90000
(1716384616.598956) can0 100#88F90000
(1716384616.599876) can0 425#DEFF
(1716384616.600031) can0 080#5E07
(1716384616.600488) can0 100#83F90000
(1716384616.602031) can0 100#7EF90000
(1716384616.603550) can0 100#79F90000
(1716384616.605089) can0 100#74F90000
(1716384616.606612) can0 100#6FF90000
(1716384616.608177) can0 100#6AF90000
(1716384616.609685) can0 100#65F90000
(1716384616.609833) can0 425#DEFF
(1716384616.609956) can0 080#5E07
(1716384616.611215) can0 100#60F90000
(1716384616.612749) can0 100#5BF90000
(1716384616.614283) can0 100#56F90000
(1716384616.615810) can0 100#51F90000
(1716384616.617340) can0 100#51F90000
(1716384616.618920) can0 100#4CF90000
(1716384616.619932) can0 425#DEFF
(1716384616.620054) can0 080#5E07
(1716384616.620410) can0 100#47F90000
(1716384616.621951) can0 100#42F90000
(1716384616.623484) can0 100#3DF90000
(1716384616.625031) can0 100#38F90000
(1716384616.626556) can0 100#33F90000
(1716384616.628148) can0 100#2EF90000
(1716384616.629619) can0 100#29F90000
(1716384616.629789) can0 425#DEFF
(1716384616.629930) can0 080#5E07
(1716384616.631181) can0 100#24F90000
(1716384616.632683) can0 100#1FF90000
(1716384616.634223) can0 100#1AF90000
(1716384616.635753) can0 100#15F90000
(1716384616.637283) can0 100#10F90000
(1716384616.638828) can0 100#0BF90000
(1716384616.639888) can0 425#DEFF
(1716384616.640028) can0 080#5E07
(1716384616.640328) can0 100#06F90000
(1716384616.641866) can0 100#01F90000
(1716384616.643420) can0 100#FCF80000
(1716384616.644931) can0 100#F7F80000
(1716384616.646455) can0 100#F2F80000
(1716384616.648004) can0 100#EDF80000
(1716384616.649535) can0 100#E8F80000
(1716384616.649782) can0 425#DEFF
(1716384616.649928) can0 080#5E07
(1716384616.651059) can0 100#E3F80000
(1716384616.652607) can0 100#DEF80000
(1716384616.654176) can0 100#D9F80000
(1716384616.655677) can0 100#D4F80000
(1716384616.657208) can0 100#CFF80000
(1716384616.658741) can0 100#CAF80000
(1716384616.659900) can0 425#D2FF
(1716384616.660018) can0 080#5E07
(1716384616.660263) can0 100#C5F80000
(1716384616.661802) can0 100#C0F80000
(1716384616.663335) can0 100#BBF80000
(1716384616.664862) can0 100#B6F80000
(1716384616.666410) can0 100#B6F80000
(1716384616.667931) can0 100#B1F80000
(1716384616.669464) can0 100#ACF80000
(1716384616.669787) can0 425#D2FF
(1716384616.669931) can0 080#5E07
(1716384616.671004) can0 100#A7F80000
(1716384616.672532) can0 100#A2F80000
(1716384616.674052) can0 100#9DF80000
(1716384616.675597) can0 100#98F80000
(1716384616.677131) can0 100#93F80000
(1716384616.678669) can0 100#8EF80000
(1716384616.679876) can0 425#C7FF
(1716384616.680032) can0 080#5E07
(1716384616.680179) can0 100#89F80000
(1716384616.681712) can0 100#84F80000
(1716384616.683237) can0 100#7FF80000
(1716384616.684777) can0 100#7AF80000
(1716384616.686325) can0 100#75F80000
(1716384616.687842) can0 100#70F80000
(1716384616.689371) can0 100#6BF80000
(1716384616.689773) can0 425#C7FF
(1716384616.689930) can0 080#5E07
(1716384616.690930) can0 100#66F80000
(1716384616.692430) can0 100#61F80000
(1716384616.693955) can0 100#5CF80000
(1716384616.695501) can0 100#57F80000
(1716384616.697061) can0 100#52F80000
(1716384616.698563) can0 100#4DF80000
(1716384616.699902) can0 425#DEFF
(1716384616.700027) can0 080#5E07
(1716384616.700202) can0 100#48F80000
(1716384616.701629) can0 100#43F80000
(1716384616.703182) can0 100#3EF80000
(1716384616.704694) can0 100#39F80000
(1716384616.706228) can0 100#34F80000
(1716384616.707754) can0 100#2FF80000
(1716384616.709282) can0 100#2AF80000
(1716384616.709785) can0 425#DEFF
(1716384616.709930) can0 080#5E07
(1716384616.710810) can0 100#25F80000
(1716384616.712342) can0 100#25F80000
(1716384616.713865) can0 100#20F80000
(1716384616.715419) can0 100#1BF80000
(1716384616.716951) can0 100#16F80000
(1716384616.718482) can0 100#11F80000
(1716384616.719931) can0 425#C7FF
(1716384616.720024) can0 100#0CF80000
(1716384616.720199) can0 080#5E07
(1716384616.721554) can0 100#07F80000
(1716384616.723105) can0 100#02F80000
(1716384616.724621) can0 100#FDF70000
(1716384616.726178) can0 100#F8F70000
(1716384616.727691) can0 100#F3F70000
(1716384616.729237) can0 100#EEF70000
(1716384616.729782) can0 425#C7FF
(1716384616.729931) can0 080#5E07
(1716384616.730760) can0 100#E9F70000
(1716384616.732289) can0 100#E4F70000
(1716384616.733819) can0 100#DFF70000
(1716384616.735357) can0 100#DAF70000
(1716384616.736930) can0 100#D5F70000
(1716384616.738427) can0 100#D0F70000
(1716384616.739926) can0 425#C7FF
(1716384616.740052) can0 100#CBF70000
(1716384616.740221) can0 080#5E07
(1716384616.741501) can0 100#C6F70000
(1716384616.743026) can0 100#C1F70000
(1716384616.744561) can0 100#BCF70000
(1716384616.746103) can0 100#B7F70000
(1716384616.747632) can0 100#B2F70000
(1716384616.749178) can0 100#ADF70000
(1716384616.749780) can0 425#C7FF
(1716384616.749930) can0 080#5E07
(1716384616.750700) can0 100#A8F70000
(1716384616.752230) can0 100#A3F70000
(1716384616.753767) can0 100#9EF70000
(1716384616.755307) can0 100#99F70000
(1716384616.756837) can0 100#94F70000
(1716384616.758373) can0 100#8FF70000
(1716384616.759929) can0 100#8AF70000
(1716384616.760052) can0 425#C7FF
(1716384616.760177) can0 080#5E07
(1716384616.761414) can0 100#85F70000
(1716384616.762954) can0 100#80F70000
(1716384616.764478) can0 100#7BF70000
(1716384616.766004) can0 100#76F70000
(1716384616.767533) can0 100#71F70000
(1716384616.769053) can0 100#6CF70000
(1716384616.769778) can0 425#C7FF
(1716384616.769930) can0 080#5E07
(1716384616.770599) can0 100#6CF70000
(1716384616.772129) can0 100#67F70000
(1716384616.773660) can0 100#62F70000
(1716384616.775190) can0 100#5DF70000
(1716384616.776722) can0 100#58F70000
(1716384616.778256) can0 100#53F70000
(1716384616.779789) can0 100#4EF70000
(1716384616.779906) can0 425#B0FF
(1716384616.780072) can0 080#5E07
(1716384616.781320) can0 100#49F70000
(1716384616.782857) can0 100#44F70000
(1716384616.784404) can0 100#3FF70000
(1716384616.785928) can0 100#3AF70000
(1716384616.787466) can0 100#35F70000
(1716384616.789003) can0 100#30F70000
(1716384616.789778) can0 425#B0FF
(1716384616.789926) can0 080#5E07
(1716384616.790535) can0 100#2BF70000
(1716384616.792086) can0 100#26F70000
(1716384616.793618) can0 100#21F70000
(1716384616.795172) can0 100#1CF70000
(1716384616.796687) can0 100#17F70000
(1716384616.798219) can0 100#12F70000
(1716384616.799752) can0 100#0DF70000
(1716384616.799873) can0 425#D2FF
(1716384616.800030) can0 080#5E07
(1716384616.801280) can0 100#08F70000
(1716384616.802810) can0 100#03F70000
(1716384616.804335) can0 100#FEF60000
(1716384616.805930) can0 100#F9F60000
(1716384616.807448) can0 100#F4F60000
(1716384616.808930) can0 100#EFF60000
(1716384616.809774) can0 425#D2FF
(1716384616.809930) can0 080#5E07
(1716384616.810470) can0 100#EAF60000
(1716384616.812003) can0 100#E5F60000
(1716384616.813529) can0 100#E0F60000
(1716384616.815055) can0 100#DBF60000
(1716384616.816599) can0 100#D6F60000
(1716384616.818129) can0 100#D1F60000
(1716384616.819678) can0 100#CCF60000
(1716384616.819879) can0 425#B0FF
(1716384616.820008) can0 080#5E07
(1716384616.821204) can0 100#C7F60000
(1716384616.822727) can0 100#C2F60000
(1716384616.824258) can0 100#BDF60000
(1716384616.825787) can0 100#B8F60000
(1716384616.827320) can0 100#B3F60000
(1716384616.828847) can0 100#B3F60000
(1716384616.829761) can0 425#B0FF
(1716384616.829929) can0 080#5E07
(1716384616.830380) can0 100#AEF60000
(1716384616.831925) can0 100#A9F60000
(1716384616.833455) can0 100#A4F60000
(1716384616.834979) can0 100#9FF60000
(1716384616.836526) can0 100#9AF60000
(1716384616.838049) can0 100#95F60000
(1716384616.839559) can0 100#90F60000
(1716384616.839930) can0 425#BCFF
(1716384616.840027) can0 080#5E07
(1716384616.841075) can0 100#8BF60000
(1716384616.842609) can0 100#86F60000
(1716384616.844154) can0 100#81F60000
(1716384616.845676) can0 100#7CF60000
(1716384616.847209) can0 100#77F60000
(1716384616.848740) can0 100#72F60000
(1716384616.849780) can0 425#BCFF
(1716384616.849929) can0 080#5E07
(1716384616.850271) can0 100#6DF60000
(1716384616.851808) can0 100#68F60000
(1716384616.853338) can0 100#63F60000
(1716384616.854875) can0 100#5EF60000
(1716384616.856398) can0 100#59F60000
(1716384616.857932) can0 100#54F60000
(1716384616.859475) can0 100#4FF60000
(1716384616.859877) can0 425#A5FF
(1716384616.860025) can0 080#5E07
(1716384616.861003) can0 100#4AF60000
(1716384616.862555) can0 100#45F60000
(1716384616.864087) can0 100#40F60000
(1716384616.865611) can0 100#3BF60000
(1716384616.867181) can0 100#36F60000
(1716384616.868685) can0 100#31F60000
(1716384616.869784) can0 425#A5FF
(1716384616.869916) can0 080#5E07
(1716384616.870214) can0 100#2CF60000
(1716384616.871756) can0 100#27F60000
(1716384616.873281) can0 100#22F60000
(1716384616.874805) can0 100#1DF60000
(1716384616.876337) can0 100#18F60000
(1716384616.877866) can0 100#13F60000
(1716384616.879403) can0 100#0EF60000
(1716384616.879873) can0 425#77FF
(1716384616.880029) can0 080#5E07
(1716384616.880930) can0 100#0EF60000
(1716384616.882468) can0 100#09F60000
(1716384616.884000) can0 100#04F60000
(1716384616.885550) can0 100#FFF50000
(1716384616.887085) can0 100#FAF50000
(1716384616.888635) can0 100#F5F50000
(1716384616.889776) can0 425#77FF
(1716384616.889929) can0 080#5E07
(1716384616.890200) can0 100#F0F50000
(1716384616.891680) can0 100#EBF50000
(1716384616.893212) can0 100#E6F50000
(1716384616.894750) can0 100#E1F50000
(1716384616.896282) can0 100#DCF50000
(1716384616.897807) can0 100#D7F50000
(1716384616.899341) can0 100#D2F50000
(1716384616.899929) can0 425#B0FF
(1716384616.900049) can0 080#5E07
(1716384616.900874) can0 100#CDF50000
(1716384616.902411) can0 100#C8F50000
(1716384616.903953) can0 100#C3F50000
(1716384616.905484) can0 100#BEF50000
(1716384616.907003) can0 100#B9F50000
(1716384616.908547) can0 100#B4F50000
(1716384616.909779) can0 425#B0FF
(1716384616.909928) can0 080#5E07
(1716384616.910085) can0 100#AFF50000
(1716384616.911602) can0 100#AAF50000
(1716384616.913175) can0 100#A5F50000
(1716384616.914675) can0 100#A0F50000
(1716384616.916200) can0 100#9BF50000
(1716384616.917734) can0 100#96F50000
(1716384616.919264) can0 100#91F50000
(1716384616.919929) can0 425#A5FF
(1716384616.920025) can0 080#5E07
(1716384616.920788) can0 100#8CF50000
(1716384616.922329) can0 100#87F50000
(1716384616.923866) can0 100#82F50000
(1716384616.925407) can0 100#7DF50000
(1716384616.926924) can0 100#78F50000
(1716384616.928460) can0 100#73F50000
(1716384616.929745) can0 425#A5FF
(1716384616.929928) can0 080#5E07
(1716384616.930071) can0 100#6EF50000
(1716384616.931519) can0 100#69F50000
(1716384616.933052) can0 100#64F50000
(1716384616.934584) can0 100#5FF50000
(1716384616.936125) can0 100#5FF50000
(1716384616.937650) can0 100#5AF50000
(1716384616.939179) can0 100#55F50000
(1716384616.939884) can0 425#A5FF
(1716384616.940025) can0 080#5E07
(1716384616.940706) can0 100#50F50000
(1716384616.942241) can0 100#4BF50000
(1716384616.943768) can0 100#46F50000
(1716384616.945301) can0 100#41F50000
(1716384616.946832) can0 100#3CF50000
(1716384616.948362) can0 100#37F50000
(1716384616.949765) can0 425#A5FF
(1716384616.949923) can0 100#32F50000
(1716384616.950075) can0 080#5E07
(1716384616.951425) can0 100#2DF50000
(1716384616.952953) can0 100#28F50000
(1716384616.954487) can0 100#23F50000
(1716384616.956027) can0 100#1EF50000
(1716384616.957585) can0 100#19F50000
(1716384616.959106) can0 100#14F50000
(1716384616.959876) can0 425#99FF
(1716384616.960031) can0 080#5E07
(1716384616.960642) can0 100#0FF50000
(1716384616.962179) can0 100#0AF50000
(1716384616.963704) can0 100#05F50000
(1716384616.965251) can0 100#00F50000
(1716384616.966775) can0 100#FBF40000
(1716384616.968304) can0 100#F6F40000
(1716384616.969760) can0 425#99FF
(1716384616.969928) can0 100#F1F40000
(1716384616.970075) can0 080#5E07
(1716384616.971365) can0 100#ECF40000
(1716384616.972924) can0 100#E7F40000
(1716384616.974440) can0 100#E2F40000
(1716384616.975977) can0 100#DDF40000
(1716384616.977508) can0 100#D8F40000
(1716384616.979052) can0 100#D3F40000
(1716384616.979928) can0 425#77FF
(1716384616.980025) can0 080#5E07
(1716384616.980574) can0 100#D3F40000
(1716384616.982098) can0 100#CEF40000
(1716384616.983641) can0 100#C9F40000
(1716384616.985202) can0 100#C4F40000
(1716384616.986708) can0 100#BFF40000
(1716384616.988231) can0 100#BAF40000
(1716384616.989797) can0 100#B5F40000
(1716384616.989927) can0 425#77FF
(1716384616.990055) can0 080#5E07
(1716384616.991305) can0 100#B0F40000
(1716384616.992824) can0 100#ABF40000
(1716384616.994379) can0 100#A6F40000
(1716384616.995927) can0 100#A1F40000
(1716384616.997444) can0 100#9CF40000
(1716384616.998977) can0 100#97F40000
(1716384616.999897) can0 425#8EFF
(1716384617.000028) can0 080#5E07
(1716384617.000502) can0 100#92F40000
(1716384617.002058) can0 100#8DF40000
(1716384617.003584) can0 100#88F40000
(1716384617.005102) can0 100#83F40000
(1716384617.006645) can0 100#7EF40000
(1716384617.008179) can0 100#79F40000
(1716384617.009703) can0 100#74F40000
(1716384617.009855) can0 425#8EFF
(1716384617.009980) can0 080#5E07
(1716384617.011228) can0 100#6FF40000
(1716384617.012766) can0 100#6FF40000
(1716384617.014293) can0 100#6AF40000
(1716384617.015825) can0 100#65F40000
(1716384617.017361) can0 100#60F40000
(1716384617.018929) can0 100#5BF40000
(1716384617.019929) can0 425#77FF
(1716384617.020021) can0 080#5E07
(1716384617.020426) can0 100#56F40000
(1716384617.021953) can0 100#51F40000
(1716384617.023498) can0 100#4CF40000
(1716384617.025023) can0 100#47F40000
(1716384617.026564) can0 100#42F40000
(1716384617.028102) can0 100#3DF40000
(1716384617.029625) can0 100#38F40000
(1716384617.029802) can0 425#77FF
(1716384617.029931) can0 080#5E07
(1716384617.031179) can0 100#33F40000
(1716384617.032694) can0 100#2EF40000
(1716384617.034233) can0 100#29F40000
(1716384617.035763) can0 100#24F40000
(1716384617.037299) can0 100#1FF40000
(1716384617.038828) can0 100#1AF40000
(1716384617.039928) can0 425#82FF
(1716384617.040024) can0 080#5E07
(1716384617.040368) can0 100#15F40000
(1716384617.041923) can0 100#15F40000
(1716384617.043438) can0 100#10F40000
(1716384617.044979) can0 100#0BF40000
(1716384617.046511) can0 100#06F40000
(1716384617.048049) can0 100#01F40000
(1716384617.049586) can0 100#FCF30000
(1716384617.049809) can0 425#82FF
(1716384617.049922) can0 080#5E07
(1716384617.051124) can0 100#F7F30000
(1716384617.052658) can0 100#F2F30000
(1716384617.054185) can0 100#EDF30000
(1716384617.055729) can0 100#E8F30000
(1716384617.057245) can0 100#E3F30000
(1716384617.058783) can0 100#DEF30000
(1716384617.059878) can0 425#82FF
(1716384617.060027) can0 080#5E07
(1716384617.060322) can0 100#D9F30000
(1716384617.061860) can0 100#D4F30000
(1716384617.063399) can0 100#CFF30000
(1716384617.064925) can0 100#CAF30000
(1716384617.066456) can0 100#C5F30000
(1716384617.067976) can0 100#C0F30000
(1716384617.069519) can0 100#BBF30000
(1716384617.069767) can0 425#82FF
(1716384617.069924) can0 080#5E07
(1716384617.071054) can0 100#B6F30000
(1716384617.072584) can0 100#B1F30000
(1716384617.074101) can0 100#ACF30000
(1716384617.075644) can0 100#A7F30000
(1716384617.077185) can0 100#A2F30000
(1716384617.078724) can0 100#A2F30000
(1716384617.079883) can0 425#60FF
(1716384617.080007) can0 080#5E07
(1716384617.080279) can0 100#9DF30000
(1716384617.081783) can0 100#98F30000
(1716384617.083313) can0 100#93F30000
(1716384617.084839) can0 100#8EF30000
(1716384617.086380) can0 100#89F30000
(1716384617.087926) can0 100#84F30000
(1716384617.089449) can0 100#7FF30000
(1716384617.089776) can0 425#60FF
(1716384617.089927) can0 080#5E07
(1716384617.090977) can0 100#7AF30000
(1716384617.092513) can0 100#75F30000
(1716384617.094050) can0 100#70F30000
(1716384617.095586) can0 100#6BF30000
(1716384617.097101) can0 100#66F30000
(1716384617.098647) can0 100#61F30000
(1716384617.099868) can0 425#82FF
(1716384617.100028) can0 080#5E07
(1716384617.100175) can0 100#5CF30000
(1716384617.101703) can0 100#57F30000
(1716384617.103249) can0 100#52F30000
(1716384617.104773) can0 100#4DF30000
(1716384617.106308) can0 100#48F30000
(1716384617.107848) can0 100#43F30000
(1716384617.109378) can0 100#3EF30000
(1716384617.109781) can0 425#82FF
(1716384617.109927) can0 080#5E07
(1716384617.110926) can0 100#39F30000
(1716384617.112449) can0 100#34F30000
(1716384617.114000) can0 100#2FF30000
(1716384617.115514) can0 100#2AF30000
(1716384617.117057) can0 100#25F30000
(1716384617.118583) can0 100#20F30000
(1716384617.119919) can0 425#1CFF
(1716384617.120023) can0 080#5E07
(1716384617.120196) can0 100#20F30000
(1716384617.121655) can0 100#1BF30000
(1716384617.123192) can0 100#16F30000
(1716384617.124728) can0 100#11F30000
(1716384617.126258) can0 100#0CF30000
(1716384617.127784) can0 100#07F30000
(1716384617.129316) can0 100#02F30000
(1716384617.129764) can0 425#1CFF
(1716384617.129926) can0 080#5E07
(1716384617.130845) can0 100#FDF20000
(1716384617.132383) can0 100#F8F20000
(1716384617.133926) can0 100#F3F20000
(1716384617.135437) can0 100#EEF20000
(1716384617.136947) can0 100#E9F20000
(1716384617.138498) can0 100#E4F20000
(1716384617.139926) can0 425#49FF
(1716384617.140057) can0 100#DFF20000
(1716384617.140195) can0 080#5E07
(1716384617.141562) can0 100#DAF20000
(1716384617.143101) can0 100#D5F20000
(1716384617.144635) can0 100#D0F20000
(1716384617.146173) can0 100#CBF20000
(1716384617.147701) can0 100#C6F20000
(1716384617.149232) can0 100#C1F20000
(1716384617.149778) can0 425#49FF
(1716384617.149923) can0 080#5E07
(1716384617.150770) can0 100#BCF20000
(1716384617.152298) can0 100#B7F20000
(1716384617.153830) can0 100#B7F20000
(1716384617.155360) can0 100#B2F20000
(1716384617.156925) can0 100#ADF20000
(1716384617.158440) can0 100#A8F20000
(1716384617.159927) can0 425#60FF
(1716384617.160051) can0 100#A3F20000
(1716384617.160173) can0 080#5E07
(1716384617.161523) can0 100#9EF20000
(1716384617.163050) can0 100#99F20000
(1716384617.164582) can0 100#94F20000
(1716384617.166125) can0 100#8FF20000
(1716384617.167658) can0 100#8AF20000
(1716384617.169192) can0 100#85F20000
(1716384617.169773) can0 425#60FF
(1716384617.169926) can0 080#5E07
(1716384617.170740) can0 100#80F20000
(1716384617.172253) can0 100#7BF20000
(1716384617.173783) can0 100#76F20000
(1716384617.175322) can0 100#71F20000
(1716384617.176853) can0 100#6CF20000
(1716384617.178398) can0 100#67F20000
(1716384617.179923) can0 425#55FF
(1716384617.180048) can0 100#62F20000
(1716384617.180197) can0 080#5E07
(1716384617.181466) can0 100#5DF20000
(1716384617.182996) can0 100#5DF20000
(1716384617.184524) can0 100#58F20000
(1716384617.186053) can0 100#53F20000
(1716384617.187581) can0 100#4EF20000
(1716384617.189122) can0 100#49F20000
(1716384617.189776) can0 425#55FF
(1716384617.189925) can0 080#5E07
(1716384617.190647) can0 100#44F20000
(1716384617.192177) can0 100#3FF20000
(1716384617.193711) can0 100#3AF20000
(1716384617.195252) can0 100#35F20000
(1716384617.196784) can0 100#30F20000
(1716384617.198304) can0 100#2BF20000
(1716384617.199837) can0 100#26F20000
(1716384617.199982) can0 425#60FF
(1716384617.200103) can0 080#5E07
(1716384617.201362) can0 100#21F20000
(1716384617.202925) can0 100#1CF20000
(1716384617.204436) can0 100#17F20000
(1716384617.205974) can0 100#12F20000
(1716384617.207507) can0 100#0DF20000
(1716384617.209049) can0 100#08F20000
(1716384617.209772) can0 425#60FF
(1716384617.209925) can0 080#5E07
(1716384617.210569) can0 100#03F20000
(1716384617.212126) can0 100#FEF10000
(1716384617.213639) can0 100#F9F10000
(1716384617.215177) can0 100#F4F10000
(1716384617.216699) can0 100#EFF10000
(1716384617.218247) can0 100#EAF10000
(1716384617.219773) can0 100#E5F10000
(1716384617.219926) can0 425#10FF
(1716384617.220043) can0 080#5E07
(1716384617.221313) can0 100#E0F10000
(1716384617.222852) can0 100#DBF10000
(1716384617.224387) can0 100#D6F10000
(1716384617.225922) can0 100#D1F10000
(1716384617.227472) can0 100#CCF10000
(1716384617.228973) can0 100#CCF10000
(1716384617.229779) can0 425#10FF
(1716384617.229922) can0 080#5E07
(1716384617.230557) can0 100#C7F10000
(1716384617.232081) can0 100#C2F10000
(1716384617.233606) can0 100#BDF10000
(1716384617.235168) can0 100#B8F10000
(1716384617.236677) can0 100#B3F10000
(1716384617.238201) can0 100#AEF10000
(1716384617.239747) can0 100#A9F10000
(1716384617.239922) can0 425#33FF
(1716384617.240050) can0 080#5E07
(1716384617.241246) can0 100#A4F10000
(1716384617.242773) can0 100#9FF10000
(1716384617.244298) can0 100#9AF10000
(1716384617.245837) can0 100#95F10000
(1716384617.247382) can0 100#90F10000
(1716384617.248927) can0 100#8BF10000
(1716384617.249774) can0 425#33FF
(1716384617.249925) can0 080#5E07
(1716384617.250439) can0 100#86F10000
(1716384617.251975) can0 100#81F10000
(1716384617.253508) can0 100#7CF10000
(1716384617.255052) can0 100#77F10000
(1716384617.256579) can0 100#72F10000
(1716384617.258096) can0 100#6DF10000
(1716384617.259633) can0 100#68F10000
(1716384617.259859) can0 425#EEFE
(1716384617.260001) can0 080#5E07
(1716384617.261175) can0 100#63F10000
(1716384617.262701) can0 100#5EF10000
(1716384617.264230) can0 100#59F10000
(1716384617.265763) can0 100#54F10000
(1716384617.267301) can0 100#4FF10000
(1716384617.268831) can0 100#4AF10000
(1716384617.269755) can0 425#EEFE
(1716384617.269925) can0 080#5E07
(1716384617.270363) can0 100#45F10000
(1716384617.271922) can0 100#40F10000
(1716384617.273414) can0 100#3BF10000
(1716384617.274950) can0 100#36F10000
(1716384617.276478) can0 100#31F10000
(1716384617.278029) can0 100#2CF10000
(1716384617.279556) can0 100#27F10000
(1716384617.279915) can0 425#10FF
(1716384617.280025) can0 080#5E07
(1716384617.281071) can0 100#22F10000
(1716384617.282604) can0 100#22F10000
(1716384617.284124) can0 100#1DF10000
(1716384617.285662) can0 100#18F10000
(1716384617.287193) can0 100#13F10000
(1716384617.288735) can0 100#0EF10000
(1716384617.289750) can0 425#10FF
(1716384617.289925) can0 080#5E07
(1716384617.290291) can0 100#09F10000
(1716384617.291805) can0 100#04F10000
(1716384617.293340) can0 100#FFF00000
(1716384617.294924) can0 100#FAF00000
(1716384617.296401) can0 100#F5F00000
(1716384617.297924) can0 100#F0F00000
(1716384617.299466) can0 100#EBF00000
(1716384617.299863) can0 425#D7FE
(1716384617.300022) can0 080#5E07
(1716384617.300999) can0 100#E6F00000
(1716384617.302550) can0 100#E1F00000
(1716384617.304099) can0 100#DCF00000
(1716384617.305623) can0 100#D7F00000
(1716384617.307176) can0 100#D2F00000
(1716384617.308695) can0 100#CDF00000
(1716384617.309775) can0 425#D7FE
(1716384617.309923) can0 080#5E07
(1716384617.310223) can0 100#C8F00000
(1716384617.311756) can0 100#C3F00000
(1716384617.313284) can0 100#BEF00000
(1716384617.314818) can0 100#B9F00000
(1716384617.316350) can0 100#B4F00000
(1716384617.317928) can0 100#AFF00000
(1716384617.319414) can0 100#AAF00000
(1716384617.319921) can0 425#1CFF
(1716384617.320021) can0 080#5E07
(1716384617.320925) can0 100#A5F00000
(1716384617.322482) can0 100#A5F00000
(1716384617.324021) can0 100#A0F00000
(1716384617.325558) can0 100#9BF00000
(1716384617.327080) can0 100#96F00000
(1716384617.328610) can0 100#91F00000
(1716384617.329775) can0 425#1CFF
(1716384617.329925) can0 080#5E07
(1716384617.330197) can0 100#8CF00000
(1716384617.331671) can0 100#87F00000
(1716384617.333200) can0 100#82F00000
(1716384617.334738) can0 100#7DF00000
(1716384617.336274) can0 100#78F00000
(1716384617.337798) can0 100#73F00000
(1716384617.339335) can0 100#6EF00000
(1716384617.339925) can0 425#9EFE
(1716384617.340021) can0 080#5E07
(1716384617.340862) can0 100#69F00000
(1716384617.342395) can0 100#64F00000
(1716384617.343924) can0 100#5FF00000
(1716384617.345461) can0 100#5AF00000
(1716384617.346999) can0 100#55F00000
(1716384617.348527) can0 100#55F00000
(1716384617.349756) can0 425#9EFE
(1716384617.349924) can0 080#5E07
(1716384617.350067) can0 100#50F00000
(1716384617.351598) can0 100#4BF00000
(1716384617.353127) can0 100#46F00000
(1716384617.354662) can0 100#41F00000
(1716384617.356186) can0 100#3CF00000
(1716384617.357720) can0 100#37F00000
(1716384617.359256) can0 100#32F00000
(1716384617.359924) can0 425#C0FE
(1716384617.359993) can0 080#5E07
(1716384617.360794) can0 100#2DF00000
(1716384617.362320) can0 100#28F00000
(1716384617.363855) can0 100#23F00000
(1716384617.365387) can0 100#1EF00000
(1716384617.366927) can0 100#19F00000
(1716384617.368450) can0 100#14F00000
(1716384617.369742) can0 425#C0FE
(1716384617.369920) can0 080#5E07
(1716384617.370075) can0 100#0FF00000
(1716384617.371523) can0 100#0AF00000
(1716384617.373048) can0 100#05F00000
(1716384617.374572) can0 100#00F00000
(1716384617.376099) can0 100#FBEF0000
(1716384617.377652) can0 100#FBEF0000
(1716384617.379174) can0 100#F6EF0000
(1716384617.379870) can0 425#E3FE
(1716384617.380023) can0 080#5E07
(1716384617.380704) can0 100#F1EF0000
(1716384617.382247) can0 100#ECEF0000
(1716384617.383775) can0 100#E7EF0000
(1716384617.385307) can0 100#E2EF0000
(1716384617.386845) can0 100#DDEF0000
(1716384617.388382) can0 100#D8EF0000
(1716384617.389770) can0 425#E3FE
(1716384617.389923) can0 100#D3EF0000
(1716384617.390070) can0 080#5E07
(1716384617.391445) can0 100#CEEF0000
(1716384617.392970) can0 100#C9EF0000
(1716384617.394520) can0 100#C4EF0000
(1716384617.396052) can0 100#BFEF0000
(1716384617.397601) can0 100#BAEF0000
(1716384617.399119) can0 100#B5EF0000
(1716384617.399872) can0 425#AAFE
(1716384617.399999) can0 080#5E07
(1716384617.400673) can0 100#B0EF0000
(1716384617.402197) can0 100#ABEF0000
(1716384617.403736) can0 100#A6EF0000
(1716384617.405270) can0 100#A6EF0000
(1716384617.406800) can0 100#A1EF0000
(1716384617.408324) can0 100#9CEF0000
(1716384617.409771) can0 425#AAFE
(1716384617.409924) can0 100#97EF0000
(1716384617.410071) can0 080#5E07
(1716384617.411411) can0 100#92EF0000
(1716384617.412923) can0 100#8DEF0000
(1716384617.414476) can0 100#88EF0000
(1716384617.415999) can0 100#83EF0000
(1716384617.417542) can0 100#7EEF0000
(1716384617.419080) can0 100#79EF0000
(1716384617.419871) can0 425#4EFE
(1716384617.420025) can0 080#5E07
(1716384617.420610) can0 100#74EF0000
(1716384617.422170) can0 100#6FEF0000
(1716384617.423681) can0 100#6AEF0000
(1716384617.425209) can0 100#65EF0000
(1716384617.426742) can0 100#60EF0000
(1716384617.428271) can0 100#5BEF0000
(1716384617.429757) can0 425#4EFE
(1716384617.429926) can0 100#56EF0000
(1716384617.430067) can0 080#5E07
(1716384617.431326) can0 100#51EF0000
(1716384617.432923) can0 100#51EF0000
(1716384617.434411) can0 100#4CEF0000
(1716384617.435944) can0 100#47EF0000
(1716384617.437502) can0 100#42EF0000
(1716384617.439035) can0 100#3DEF0000
(1716384617.439880) can0 425#93FE
(1716384617.439995) can0 080#5E07
(1716384617.440546) can0 100#38EF0000
(1716384617.442080) can0 100#33EF0000
(1716384617.443614) can0 100#2EEF0000
(1716384617.445167) can0 100#29EF0000
(1716384617.446676) can0 100#24EF0000
(1716384617.448203) can0 100#1FEF0000
(1716384617.449746) can0 100#1AEF0000
(1716384617.449858) can0 425#93FE
(1716384617.450023) can0 080#5E07
(1716384617.451269) can0 100#15EF0000
(1716384617.452822) can0 100#10EF0000
(1716384617.454322) can0 100#0BEF0000
(1716384617.455857) can0 100#06EF0000
(1716384617.457358) can0 100#06EF0000
(1716384617.458923) can0 100#01EF0000
(1716384617.459867) can0 425#65FE
(1716384617.459998) can0 080#5E07
(1716384617.460450) can0 100#FCEE0000
(1716384617.461997) can0 100#F7EE0000
(1716384617.463517) can0 100#F2EE0000
(1716384617.465048) can0 100#EDEE0000
(1716384617.466589) can0 100#E8EE0000
(1716384617.468123) can0 100#E3EE0000
(1716384617.469650) can0 100#DEEE0000
(1716384617.469801) can0 425#65FE
(1716384617.469922) can0 080#5E07
(1716384617.471183) can0 100#D9EE0000
(1716384617.472716) can0 100#D4EE0000
(1716384617.474253) can0 100#CFEE0000
(1716384617.475795) can0 100#CAEE0000
(1716384617.477323) can0 100#C5EE0000
(1716384617.478851) can0 100#C0EE0000
(1716384617.479885) can0 425#4EFE
(1716384617.479998) can0 080#5E07
(1716384617.480387) can0 100#BBEE0000
(1716384617.481919) can0 100#B6EE0000
(1716384617.483456) can0 100#B6EE0000
(1716384617.484998) can0 100#B1EE0000
(1716384617.486527) can0 100#ACEE0000
(1716384617.488044) can0 100#A7EE0000
(1716384617.489594) can0 100#A2EE0000
(1716384617.489770) can0 425#4EFE
(1716384617.489922) can0 080#5E07
(1716384617.491119) can0 100#9DEE0000
(1716384617.492656) can0 100#98EE0000
(1716384617.494183) can0 100#93EE0000
(1716384617.495726) can0 100#8EEE0000
(1716384617.497252) can0 100#89EE0000
(1716384617.498788) can0 100#84EE0000
(1716384617.499879) can0 425#2CFE
(1716384617.500023) can0 080#5E07
(1716384617.500320) can0 100#7FEE0000
(1716384617.501850) can0 100#7AEE0000
(1716384617.503381) can0 100#75EE0000
(1716384617.504923) can0 100#70EE0000
(1716384617.506441) can0 100#6BEE0000
(1716384617.507971) can0 100#6BEE0000
(1716384617.509510) can0 100#66EE0000
(1716384617.509757) can0 425#2CFE
(1716384617.509919) can0 080#5E07
(1716384617.511052) can0 100#61EE0000
(1716384617.512576) can0 100#5CEE0000
(1716384617.514123) can0 100#57EE0000
(1716384617.515640) can0 100#52EE0000
(1716384617.517178) can0 100#4DEE0000
(1716384617.518720) can0 100#48EE0000
(1716384617.519880) can0 425#43FE
(1716384617.519999) can0 080#5E07
(1716384617.520244) can0 100#43EE0000
(1716384617.521777) can0 100#3EEE0000
(1716384617.523307) can0 100#39EE0000
(1716384617.524834) can0 100#34EE0000
(1716384617.526377) can0 100#2FEE0000
(1716384617.528048) can0 100#2AEE0000
(1716384617.529437) can0 100#25EE0000
(1716384617.529866) can0 425#43FE
(1716384617.529987) can0 080#5E07
(1716384617.530972) can0 100#20EE0000
(1716384617.532503) can0 100#1BEE0000
(1716384617.534018) can0 100#16EE0000
(1716384617.535562) can0 100#11EE0000
(1716384617.537098) can0 100#0CEE0000
(1716384617.538788) can0 100#07EE0000
(1716384617.539952) can0 425#F3FD
(1716384617.540080) can0 080#5E07
(1716384617.540347) can0 100#02EE0000
(1716384617.541851) can0 100#FDED0000
(1716384617.543391) can0 100#F8ED0000
(1716384617.545003) can0 100#F3ED0000
(1716384617.546548) can0 100#EEED0000
(1716384617.548194) can0 100#E9ED0000
(1716384617.549751) can0 100#E4ED0000
(1716384617.549853) can0 425#F3FD
(1716384617.549972) can0 080#5E07
(1716384617.551319) can0 100#DFED0000
(1716384617.552845) can0 100#DAED0000
(1716384617.554469) can0 100#D5ED0000
(1716384617.556051) can0 100#D0ED0000
(1716384617.557662) can0 100#CBED0000
(1716384617.559205) can0 100#C6ED0000
(1716384617.560582) can0 425#0AFE
(1716384617.560781) can0 080#5E07
(1716384617.560943) can0 100#C1ED0000
(1716384617.562341) can0 100#BCED0000
(1716384617.563946) can0 100#B7ED0000
(1716384617.565556) can0 100#B2ED0000
(1716384617.567079) can0 100#ADED0000
(1716384617.568691) can0 100#A8ED0000
(1716384617.569867) can0 425#0AFE
(1716384617.569905) can0 080#5B07
(1716384617.570200) can0 100#A3ED0000
(1716384617.571815) can0 100#9EED0000
(1716384617.573427) can0 100#99ED0000
(1716384617.575048) can0 100#94ED0000
(1716384617.576597) can0 100#8FED0000
(1716384617.578206) can0 100#8AED0000
(1716384617.579826) can0 100#85ED0000
(1716384617.579957) can0 425#A3FD
(1716384617.580100) can0 080#5B07
(1716384617.581452) can0 100#80ED0000
(1716384617.582996) can0 100#7BED0000
(1716384617.584528) can0 100#76ED0000
(1716384617.586077) can0 100#71ED0000
(1716384617.587695) can0 100#6CED0000
(1716384617.589230) can0 100#67ED0000
(1716384617.589757) can0 425#A3FD
(1716384617.589922) can0 080#5B07
(1716384617.590774) can0 100#62ED0000
(1716384617.592306) can0 100#5DED0000
(1716384617.593828) can0 100#5DED0000
(1716384617.595366) can0 100#58ED0000
(1716384617.596968) can0 100#53ED0000
(1716384617.598586) can0 100#4EED0000
(1716384617.599894) can0 425#AFFD
(1716384617.600019) can0 080#5B07
(1716384617.600165) can0 100#49ED0000
(1716384617.601726) can0 100#44ED0000
(1716384617.603333) can0 100#3FED0000
(1716384617.604862) can0 100#3AED0000
(1716384617.606399) can0 100#35ED0000
(1716384617.607946) can0 100#30ED0000
(1716384617.609554) can0 100#2BED0000
(1716384617.609777) can0 425#AFFD
(1716384617.609914) can0 080#5B07
(1716384617.611077) can0 100#26ED0000
(1716384617.612618) can0 100#21ED0000
(1716384617.614175) can0 100#1CED0000
(1716384617.615777) can0 100#17ED0000
(1716384617.617393) can0 100#12ED0000
(1716384617.618997) can0 100#0DED0000
(1716384617.619922) can0 425#98FD
(1716384617.620040) can0 080#5B07
(1716384617.620527) can0 100#08ED0000
(1716384617.622167) can0 100#03ED0000
(1716384617.623757) can0 100#FEEC0000
(1716384617.625290) can0 100#F9EC0000
(1716384617.626921) can0 100#F4EC0000
(1716384617.628447) can0 100#EFEC0000
(1716384617.629770) can0 425#98FD
(1716384617.629921) can0 080#5B07
(1716384617.630077) can0 100#EAEC0000
(1716384617.631629) can0 100#E5EC0000
(1716384617.633173) can0 100#E0EC0000
(1716384617.634782) can0 100#DBEC0000
(1716384617.636270) can0 100#D6EC0000
(1716384617.637921) can0 100#D1EC0000
(1716384617.639490) can0 100#CCEC0000
(1716384617.639869) can0 425#6AFD
(1716384617.639997) can0 080#5B07
(1716384617.641077) can0 100#C7EC0000
(1716384617.642605) can0 100#C2EC0000
(1716384617.644168) can0 100#BDEC0000
(1716384617.645667) can0 100#B8EC0000
(1716384617.647211) can0 100#B3EC0000
(1716384617.648752) can0 100#AEEC0000
(1716384617.649775) can0 425#6AFD
(1716384617.649947) can0 080#5B07
(1716384617.650298) can0 100#A9EC0000
(1716384617.651916) can0 100#A4EC0000
(1716384617.653443) can0 100#9FEC0000
(1716384617.655078) can0 100#9AEC0000
(1716384617.656624) can0 100#95EC0000
(1716384617.658245) can0 100#90EC0000
(1716384617.659920) can0 100#8BEC0000
(1716384617.660023) can0 425#31FD
(1716384617.660168) can0 080#5B07
(1716384617.661402) can0 100#86EC0000
(1716384617.662994) can0 100#81EC0000
(1716384617.664542) can0 100#7CEC0000
(1716384617.666078) can0 100#77EC0000
(1716384617.667700) can0 100#72EC0000
(1716384617.669325) can0 100#6DEC0000
(1716384617.669745) can0 425#31FD
(1716384617.669921) can0 080#5B07
(1716384617.670849) can0 100#68EC0000
(1716384617.672390) can0 100#63EC0000
(1716384617.673920) can0 100#5EEC0000
(1716384617.675448) can0 100#59EC0000
(1716384617.677067) can0 100#54EC0000
(1716384617.678667) can0 100#4FEC0000
(1716384617.679878) can0 425#48FD
(1716384617.680002) can0 080#5B07
(1716384617.680198) can0 100#4AEC0000
(1716384617.681716) can0 100#45EC0000
(1716384617.683342) can0 100#40EC0000
(1716384617.684866) can0 100#3BEC0000
(1716384617.686407) can0 100#36EC0000
(1716384617.687945) can0 100#31EC0000
(1716384617.689564) can0 100#2CEC0000
(1716384617.689778) can0 425#48FD
(1716384617.689916) can0 080#5B07
(1716384617.691077) can0 100#27EC0000
(1716384617.692640) can0 100#22EC0000
(1716384617.694172) can0 100#1DEC0000
(1716384617.695670) can0 100#18EC0000
(1716384617.697209) can0 100#13EC0000
(1716384617.698812) can0 100#0EEC0000
(1716384617.699871) can0 425#03FD
(1716384617.700016) can0 080#5B07
(1716384617.700322) can0 100#09EC0000
(1716384617.701853) can0 100#04EC0000
(1716384617.703474) can0 100#FFEB0000
(1716384617.705092) can0 100#FAEB0000
(1716384617.706634) can0 100#F5EB0000
(1716384617.708176) can0 100#F0EB0000
(1716384617.709757) can0 100#EBEB0000
(1716384617.709917) can0 425#03FD
(1716384617.710046) can0 080#5B07
(1716384617.711302) can0 100#E6EB0000
(1716384617.712837) can0 100#E1EB0000
(1716384617.714378) can0 100#DCEB0000
(1716384617.715919) can0 100#D7EB0000
(1716384617.717523) can0 100#D2EB0000
(1716384617.719120) can0 100#CDEB0000
(1716384617.719864) can0 425#26FD
(1716384617.719996) can0 080#5B07
(1716384617.720673) can0 100#C8EB0000
(1716384617.722287) can0 100#C3EB0000
(1716384617.723917) can0 100#BEEB0000
(1716384617.725500) can0 100#B9EB0000
(1716384617.727051) can0 100#B4EB0000
(1716384617.728583) can0 100#AFEB0000
(1716384617.729746) can0 425#26FD
(1716384617.729902) can0 080#5B07
(1716384617.730199) can0 100#AAEB0000
(1716384617.731742) can0 100#A5EB0000
(1716384617.733273) can0 100#A0EB0000
(1716384617.734823) can0 100#9BEB0000
(1716384617.736356) can0 100#96EB0000
(1716384617.737973) can0 100#91EB0000
(1716384617.739588) can0 100#8CEB0000
(1716384617.739921) can0 425#B3FC
(1716384617.740042) can0 080#5B07
(1716384617.741167) can0 100#87EB0000
(1716384617.742667) can0 100#82EB0000
(1716384617.744202) can0 100#7DEB0000
(1716384617.745841) can0 100#78EB0000
(1716384617.747349) can0 100#73EB0000
(1716384617.748916) can0 100#6EEB0000
(1716384617.749772) can0 425#B3FC
(1716384617.749920) can0 080#5B07
(1716384617.750521) can0 100#69EB0000
(1716384617.752041) can0 100#64EB0000
(1716384617.753600) can0 100#5FEB0000
(1716384617.755167) can0 100#5AEB0000
(1716384617.756668) can0 100#55EB0000
(1716384617.758193) can0 100#50EB0000
(1716384617.759827) can0 100#4BEB0000
(1716384617.759946) can0 425#9DFC
(1716384617.760077) can0 080#5B07
(1716384617.761338) can0 100#46EB0000
(1716384617.762943) can0 100#41EB0000
(1716384617.764477) can0 100#3CEB0000
(1716384617.766095) can0 100#37EB0000
(1716384617.767638) can0 100#32EB0000
(1716384617.769176) can0 100#2DEB0000
(1716384617.769752) can0 425#9DFC
(1716384617.769919) can0 080#5B07
(1716384617.770780) can0 100#28EB0000
(1716384617.772319) can0 100#23EB0000
(1716384617.773919) can0 100#1EEB0000
(1716384617.775540) can0 100#19EB0000
(1716384617.777094) can0 100#14EB0000
(1716384617.778717) can0 100#0FEB0000
(1716384617.779880) can0 425#9DFC
(1716384617.779998) can0 080#5B07
(1716384617.780263) can0 100#0AEB0000
(1716384617.781782) can0 100#05EB0000
(1716384617.783412) can0 100#00EB0000
(1716384617.784918) can0 100#FBEA0000
(1716384617.786449) can0 100#F6EA0000
(1716384617.787969) can0 100#F1EA0000
(1716384617.789592) can0 100#ECEA0000
(1716384617.789767) can0 425#9DFC
(1716384617.789917) can0 080#5B07
(1716384617.791204) can0 100#E7EA0000
(1716384617.792743) can0 100#E2EA0000
(1716384617.794341) can0 100#DDEA0000
(1716384617.795940) can0 100#D8EA0000
(1716384617.797491) can0 100#D3EA0000
(1716384617.799094) can0 100#CEEA0000
(1716384617.799876) can0 425#41FC
(1716384617.799992) can0 080#5B07
(1716384617.800654) can0 100#C9EA0000
(1716384617.802201) can0 100#C4EA0000
(1716384617.803760) can0 100#BFEA0000
(1716384617.805242) can0 100#BAEA0000
(1716384617.806778) can0 100#B5EA0000
(1716384617.808305) can0 100#B0EA0000
(1716384617.809745) can0 425#41FC
(1716384617.809916) can0 080#5B07
(1716384617.810042) can0 100#ABEA0000
(1716384617.811542) can0 100#A6EA0000
(1716384617.813075) can0 100#A1EA0000
(1716384617.814682) can0 100#9CEA0000
(1716384617.816220) can0 100#97EA0000
(1716384617.817750) can0 100#92EA0000
(1716384617.819365) can0 100#8DEA0000
(1716384617.819894) can0 425#58FC
(1716384617.820004) can0 080#5B07
(1716384617.820919) can0 100#8DEA0000
(1716384617.822396) can0 100#88EA0000
(1716384617.823965) can0 100#83EA0000
(1716384617.825496) can0 100#7EEA0000
(1716384617.827020) can0 100#79EA0000
(1716384617.828576) can0 100#74EA0000
(1716384617.829773) can0 425#58FC
(1716384617.829901) can0 080#5B07
(1716384617.830199) can0 100#6FEA0000
(1716384617.831804) can0 100#6AEA0000
(1716384617.833413) can0 100#65EA0000
(1716384617.835018) can0 100#60EA0000
(1716384617.836542) can0 100#5BEA0000
(1716384617.838075) can0 100#56EA0000
(1716384617.839687) can0 100#51EA0000
(1716384617.839867) can0 425#A8FC
(1716384617.839995) can0 080#5B07
(1716384617.841296) can0 100#4CEA0000
(1716384617.842830) can0 100#47EA0000
(1716384617.844367) can0 100#42EA0000
(1716384617.845919) can0 100#3DEA0000
(1716384617.847447) can0 100#38EA0000
(1716384617.848990) can0 100#33EA0000
(1716384617.849770) can0 425#A8FC
(1716384617.849920) can0 080#5B07
(1716384617.850604) can0 100#2EEA0000
(1716384617.852171) can0 100#29EA0000
(1716384617.853674) can0 100#24EA0000
(1716384617.855252) can0 100#1FEA0000
(1716384617.856793) can0 100#1AEA0000
(1716384617.858317) can0 100#15EA0000
(1716384617.859920) can0 425#08FC
(1716384617.860041) can0 100#10EA0000
(1716384617.860166) can0 080#5B07
(1716384617.861520) can0 100#0BEA0000
(1716384617.863118) can0 100#06EA0000
(1716384617.864675) can0 100#01EA0000
(1716384617.866310) can0 100#FCE90000
(1716384617.867845) can0 100#F7E90000
(1716384617.869393) can0 100#F2E90000
(1716384617.869762) can0 425#08FC
(1716384617.869919) can0 080#5B07
(1716384617.871015) can0 100#EDE90000
(1716384617.872557) can0 100#E8E90000
(1716384617.874171) can0 100#E3E90000
(1716384617.875697) can0 100#DEE90000
(1716384617.877232) can0 100#D9E90000
(1716384617.878784) can0 100#D4E90000
(1716384617.879875) can0 425#1FFC
(1716384617.879994) can0 080#5B07
(1716384617.880289) can0 100#CFE90000
(1716384617.881919) can0 100#CAE90000
(1716384617.883507) can0 100#C5E90000
(1716384617.885118) can0 100#C0E90000
(1716384617.886649) can0 100#BBE90000
(1716384617.888189) can0 100#B6E90000
(1716384617.889732) can0 100#B1E90000
(1716384617.889855) can0 425#1FFC
(1716384617.889991) can0 080#5B07
(1716384617.891333) can0 100#ACE90000
(1716384617.892863) can0 100#A7E90000
(1716384617.894415) can0 100#A2E90000
(1716384617.895939) can0 100#9DE90000
(1716384617.897484) can0 100#98E90000
(1716384617.899018) can0 100#93E90000
(1716384617.899862) can0 425#14FC
(1716384617.899990) can0 080#5B07
(1716384617.900552) can0 100#8EE90000
(1716384617.902094) can0 100#89E90000
(1716384617.903703) can0 100#84E90000
(1716384617.905317) can0 100#7FE90000
(1716384617.906862) can0 100#7AE90000
(1716384617.908392) can0 100#75E90000
(1716384617.909748) can0 425#14FC
(1716384617.909916) can0 080#5B07
(1716384617.910065) can0 100#70E90000
(1716384617.911555) can0 100#6BE90000
(1716384617.913066) can0 100#66E90000
(1716384617.914691) can0 100#61E90000
(1716384617.916229) can0 100#5CE90000
(1716384617.917764) can0 100#57E90000
(1716384617.919311) can0 100#52E90000
(1716384617.919916) can0 425#C4FB
(1716384617.919991) can0 080#5B07
(1716384617.920842) can0 100#4DE90000
(1716384617.922445) can0 100#48E90000
(1716384617.924039) can0 100#43E90000
(1716384617.925654) can0 100#3EE90000
(1716384617.927189) can0 100#39E90000
(1716384617.928730) can0 100#34E90000
(1716384617.929746) can0 425#C4FB
(1716384617.929919) can0 080#5B07
(1716384617.930350) can0 100#2FE90000
(1716384617.931964) can0 100#2AE90000
(1716384617.933497) can0 100#25E90000
(1716384617.935093) can0 100#20E90000
(1716384617.936645) can0 100#1BE90000
(1716384617.938245) can0 100#16E90000
(1716384617.939789) can0 100#11E90000
(1716384617.939922) can0 425#F1FB
(1716384617.940069) can0 080#5B07
(1716384617.941392) can0 100#0CE90000
(1716384617.942918) can0 100#07E90000
(1716384617.944459) can0 100#02E90000
(1716384617.946092) can0 100#FDE80000
(1716384617.947642) can0 100#F8E80000
(1716384617.949177) can0 100#F3E80000
(1716384617.949755) can0 425#F1FB
(1716384617.949919) can0 080#5B07
(1716384617.950780) can0 100#EEE80000
(1716384617.952315) can0 100#E9E80000
(1716384617.953853) can0 100#E4E80000
(1716384617.955465) can0 100#DFE80000
(1716384617.956989) can0 100#DAE80000
(1716384617.958527) can0 100#D5E80000
(1716384617.959910) can0 425#E6FB
(1716384617.960015) can0 080#5B07
(1716384617.960162) can0 100#D0E80000
(1716384617.961723) can0 100#CBE80000
(1716384617.963224) can0 100#C6E80000
(1716384617.964770) can0 100#C1E80000
(1716384617.966294) can0 100#BCE80000
(1716384617.967835) can0 100#BCE80000
(1716384617.969369) can0 100#B7E80000
(1716384617.969745) can0 425#E6FB
(1716384617.969919) can0 080#5B07
(1716384617.970920) can0 100#B2E80000
(1716384617.972434) can0 100#ADE80000
(1716384617.974018) can0 100#A8E80000
(1716384617.975629) can0 100#A3E80000
(1716384617.977171) can0 100#9EE80000
(1716384617.978774) can0 100#99E80000
(1716384617.979874) can0 425#74FB
(1716384617.979990) can0 080#5B07
(1716384617.980291) can0 100#94E80000
(1716384617.981921) can0 100#8FE80000
(1716384617.983429) can0 100#8AE80000
(1716384617.985014) can0 100#85E80000
(1716384617.986574) can0 100#80E80000
(1716384617.988092) can0 100#7BE80000
(1716384617.989718) can0 100#76E80000
(1716384617.989862) can0 425#74FB
(1716384617.989992) can0 080#5B07
(1716384617.991313) can0 100#71E80000
(1716384617.992848) can0 100#6CE80000
(1716384617.994403) can0 100#67E80000
(1716384617.995993) can0 100#62E80000
(1716384617.997646) can0 100#5DE80000
(1716384617.999249) can0 100#58E80000
(1716384617.999915) can0 425#8BFB
(1716384617.999989) can0 080#5B07
(1716384618.000791) can0 100#53E80000
(1716384618.002388) can0 100#4EE80000
(1716384618.003939) can0 100#49E80000
(1716384618.005582) can0 100#44E80000
(1716384618.007142) can0 100#3FE80000
(1716384618.008657) can0 100#3AE80000
(1716384618.009739) can0 425#8BFB
(1716384618.009898) can0 080#5B07
(1716384618.010197) can0 100#35E80000
(1716384618.011814) can0 100#30E80000
(1716384618.013430) can0 100#2BE80000
(1716384618.015073) can0 100#26E80000
(1716384618.016614) can0 100#21E80000
(1716384618.018169) can0 100#1CE80000
(1716384618.019786) can0 100#17E80000
(1716384618.019942) can0 425#F6FA
(1716384618.020074) can0 080#5B07
(1716384618.021399) can0 100#12E80000
(1716384618.022989) can0 100#0DE80000
(1716384618.024548) can0 100#08E80000
(1716384618.026092) can0 100#03E80000
(1716384618.027614) can0 100#FEE70000
(1716384618.029166) can0 100#F9E70000
(1716384618.029746) can0 425#F6FA
(1716384618.029917) can0 080#5B07
(1716384618.030681) can0 100#F4E70000
(1716384618.032214) can0 100#EFE70000
(1716384618.033762) can0 100#EAE70000
(1716384618.035344) can0 100#E5E70000
(1716384618.036918) can0 100#E0E70000
(1716384618.038418) can0 100#DBE70000
(1716384618.039918) can0 425#52FB
(1716384618.040013) can0 100#D6E70000
(1716384618.040164) can0 080#5B07
(1716384618.041635) can0 100#D1E70000
(1716384618.043264) can0 100#CCE70000
(1716384618.044803) can0 100#C7E70000
(1716384618.046434) can0 100#C2E70000
(1716384618.047988) can0 100#BDE70000
(1716384618.049573) can0 100#B8E70000
(1716384618.049770) can0 425#52FB
(1716384618.049916) can0 080#5B07
(1716384618.051113) can0 100#B3E70000
(1716384618.052646) can0 100#AEE70000
(1716384618.054240) can0 100#A9E70000
(1716384618.055865) can0 100#A4E70000
(1716384618.057390) can0 100#9FE70000
(1716384618.058942) can0 100#9AE70000
(1716384618.059869) can0 425#46FB
(1716384618.059992) can0 080#5B07
(1716384618.060462) can0 100#95E70000
(1716384618.061990) can0 100#90E70000
(1716384618.063614) can0 100#8BE70000
(1716384618.065169) can0 100#86E70000
(1716384618.066772) can0 100#81E70000
(1716384618.068308) can0 100#7CE70000
(1716384618.069766) can0 425#46FB
(1716384618.069917) can0 100#77E70000
(1716384618.070061) can0 080#5B07
(1716384618.071456) can0 100#72E70000
(1716384618.073073) can0 100#6DE70000
(1716384618.074657) can0 100#68E70000
(1716384618.076185) can0 100#63E70000
(1716384618.077740) can0 100#5EE70000
(1716384618.079339) can0 100#59E70000
(1716384618.079862) can0 425#D4FA
(1716384618.079989) can0 080#5B07
(1716384618.080917) can0 100#54E70000
(1716384618.082520) can0 100#4FE70000
(1716384618.084073) can0 100#4AE70000
(1716384618.085680) can0 100#45E70000
(1716384618.087288) can0 100#40E70000
(1716384618.088823) can0 100#3BE70000
(1716384618.089752) can0 425#D4FA
(1716384618.089914) can0 080#5B07
(1716384618.090443) can0 100#36E70000
(1716384618.091965) can0 100#31E70000
(1716384618.093574) can0 100#2CE70000
(1716384618.095169) can0 100#27E70000
(1716384618.096722) can0 100#22E70000
(1716384618.098264) can0 100#1DE70000
(1716384618.099916) can0 100#18E70000
(1716384618.100011) can0 425#B2FA
(1716384618.100138) can0 080#5B07
(1716384618.101406) can0 100#13E70000
(1716384618.103041) can0 100#0EE70000
(1716384618.104569) can0 100#09E70000
(1716384618.106188) can0 100#04E70000
(1716384618.107724) can0 100#FFE60000
(1716384618.109357) can0 100#FAE60000
(1716384618.109741) can0 425#B2FA
(1716384618.109917) can0 080#5B07
(1716384618.110941) can0 100#F5E60000
(1716384618.112476) can0 100#F0E60000
(1716384618.114087) can0 100#EBE60000
(1716384618.115695) can0 100#E6E60000
(1716384618.117306) can0 100#E1E60000
(1716384618.118847) can0 100#DCE60000
(1716384618.119863) can0 425#79FA
(1716384618.119991) can0 080#5B07
(1716384618.120381) can0 100#D7E60000
(1716384618.121917) can0 100#D2E60000
(1716384618.123522) can0 100#CDE60000
(1716384618.125042) can0 100#C8E60000
(1716384618.126588) can0 100#C3E60000
(1716384618.128116) can0 100#BEE60000
(1716384618.129718) can0 100#B9E60000
(1716384618.129916) can0 425#79FA
(1716384618.129988) can0 080#5B07
(1716384618.131328) can0 100#B4E60000
(1716384618.132860) can0 100#AFE60000
(1716384618.134405) can0 100#AAE60000
(1716384618.136016) can0 100#A5E60000
(1716384618.137648) can0 100#A0E60000
(1716384618.139185) can0 100#9BE60000
(1716384618.139860) can0 425#62FA
(1716384618.139992) can0 080#5B07
(1716384618.140740) can0 100#96E60000
(1716384618.142271) can0 100#91E60000
(1716384618.143916) can0 100#8CE60000
(1716384618.145512) can0 100#87E60000
(1716384618.147116) can0 100#82E60000
(1716384618.148671) can0 100#7DE60000
(1716384618.149741) can0 425#62FA
(1716384618.149917) can0 080#5B07
(1716384618.150277) can0 100#78E60000
(1716384618.151888) can0 100#73E60000
(1716384618.153438) can0 100#6EE60000
(1716384618.155046) can0 100#69E60000
(1716384618.156588) can0 100#64E60000
(1716384618.158165) can0 100#5FE60000
(1716384618.159768) can0 100#5AE60000
(1716384618.159921) can0 425#29FA
(1716384618.160042) can0 080#5B07
(1716384618.161290) can0 100#55E60000
(1716384618.162862) can0 100#50E60000
(1716384618.164363) can0 100#4BE60000
(1716384618.165966) can0 100#46E60000
(1716384618.167500) can0 100#41E60000
(1716384618.169040) can0 100#3CE60000
(1716384618.169768) can0 425#29FA
(1716384618.169916) can0 080#5B07
(1716384618.170636) can0 100#37E60000
(1716384618.172176) can0 100#32E60000
(1716384618.173773) can0 100#2DE60000
(1716384618.175380) can0 100#28E60000
(1716384618.176912) can0 100#23E60000
(1716384618.178447) can0 100#1EE60000
(1716384618.179909) can0 425#07FA
(1716384618.179997) can0 080#5B07
(1716384618.180159) can0 100#19E60000
(1716384618.181753) can0 100#14E60000
(1716384618.183268) can0 100#0FE60000
(1716384618.184802) can0 100#0AE60000
(1716384618.186415) can0 100#05E60000
(1716384618.188016) can0 100#00E60000
(1716384618.189560) can0 100#FBE50000
(1716384618.189777) can0 425#07FA
(1716384618.189911) can0 080#5B07
(1716384618.191167) can0 100#F6E50000
(1716384618.192697) can0 100#F1E50000
(1716384618.194238) can0 100#ECE50000
(1716384618.195824) can0 100#E7E50000
(1716384618.197450) can0 100#E2E50000
(1716384618.198990) can0 100#DDE50000
(1716384618.199861) can0 425#C2F9
(1716384618.199988) can0 080#5B07
(1716384618.200539) can0 100#D8E50000
(1716384618.202173) can0 100#D3E50000
(1716384618.203819) can0 100#CEE50000
(1716384618.205333) can0 100#C9E50000
(1716384618.206941) can0 100#C4E50000
(1716384618.208487) can0 100#BFE50000
(1716384618.209746) can0 425#C2F9
(1716384618.209912) can0 080#5B07
(1716384618.210088) can0 100#BAE50000
(1716384618.211699) can0 100#B5E50000
(1716384618.213243) can0 100#B0E50000
(1716384618.214784) can0 100#ABE50000
(1716384618.216321) can0 100#A6E50000
(1716384618.217940) can0 100#A1E50000
(1716384618.219493) can0 100#9CE50000
(1716384618.219861) can0 425#F0F9
(1716384618.219990) can0 080#5B07
(1716384618.221090) can0 100#97E50000
(1716384618.222699) can0 100#92E50000
(1716384618.224227) can0 100#8DE50000
(1716384618.225843) can0 100#88E50000
(1716384618.227452) can0 100#83E50000
(1716384618.228991) can0 100#7EE50000
(1716384618.229739) can0 425#F0F9
(1716384618.229916) can0 080#5B07
(1716384618.230579) can0 100#79E50000
(1716384618.232192) can0 100#74E50000
(1716384618.233728) can0 100#6FE50000
(1716384618.235271) can0 100#6AE50000
(1716384618.236821) can0 100#65E50000
(1716384618.238434) can0 100#60E50000
(1716384618.239849) can0 425#95F9
(1716384618.240041) can0 100#5BE50000
(1716384618.240167) can0 080#5B07
(1716384618.241585) can0 100#56E50000
(1716384618.243115) can0 100#51E50000
(1716384618.244644) can0 100#4CE50000
(1716384618.246253) can0 100#47E50000
(1716384618.247779) can0 100#42E50000
(1716384618.249322) can0 100#3DE50000
(1716384618.249745) can0 425#95F9
(1716384618.249915) can0 080#5B07
(1716384618.250915) can0 100#38E50000
(1716384618.252467) can0 100#33E50000
(1716384618.253990) can0 100#2EE50000
(1716384618.255612) can0 100#29E50000
(1716384618.257165) can0 100#24E50000
(1716384618.258769) can0 100#1FE50000
(1716384618.259872) can0 425#95F9
(1716384618.259990) can0 080#5B07
(1716384618.260284) can0 100#1AE50000
(1716384618.261827) can0 100#15E50000
(1716384618.263374) can0 100#10E50000
(1716384618.264915) can0 100#0BE50000
(1716384618.266534) can0 100#06E50000
(1716384618.268090) can0 100#01E50000
(1716384618.269622) can0 100#FCE40000
(1716384618.269773) can0 425#95F9
(1716384618.269887) can0 080#5B07
(1716384618.271166) can0 100#F7E40000
(1716384618.272711) can0 100#F2E40000
(1716384618.274250) can0 100#EDE40000
(1716384618.275859) can0 100#E8E40000
(1716384618.277405) can0 100#E3E40000
(1716384618.279014) can0 100#DEE40000
(1716384618.279872) can0 425#5BF9
(1716384618.279987) can0 080#5B07
(1716384618.280548) can0 100#D9E40000
(1716384618.282187) can0 100#D4E40000
(1716384618.283717) can0 100#CFE40000
(1716384618.285251) can0 100#CAE40000
(1716384618.286786) can0 100#C5E40000
(1716384618.288318) can0 100#C0E40000
(1716384618.289756) can0 425#5BF9
(1716384618.289905) can0 100#BBE40000
(1716384618.290038) can0 080#5B07
(1716384618.291466) can0 100#B6E40000
(1716384618.293071) can0 100#B1E40000
(1716384618.294619) can0 100#ACE40000
(1716384618.296187) can0 100#A7E40000
(1716384618.297745) can0 100#A2E40000
(1716384618.299362) can0 100#9DE40000
(1716384618.299859) can0 425#50F9
(1716384618.299990) can0 080#5B07
(1716384618.300915) can0 100#98E40000
(1716384618.302528) can0 100#93E40000
(1716384618.304061) can0 100#8EE40000
(1716384618.305610) can0 100#89E40000
(1716384618.307167) can0 100#84E40000
(1716384618.308681) can0 100#7FE40000
(1716384618.309737) can0 425#50F9
(1716384618.309914) can0 080#5B07
(1716384618.310214) can0 100#7AE40000
(1716384618.311846) can0 100#75E40000
(1716384618.313446) can0 100#70E40000
(1716384618.315071) can0 100#6BE40000
(1716384618.316610) can0 100#66E40000
(1716384618.318236) can0 100#61E40000
(1716384618.319767) can0 100#5CE40000
(1716384618.319915) can0 425#00F9
(1716384618.320040) can0 080#5B07
(1716384618.321408) can0 100#57E40000
(1716384618.323011) can0 100#52E40000
(1716384618.324546) can0 100#4DE40000
(1716384618.326166) can0 100#48E40000
(1716384618.327690) can0 100#43E40000
(1716384618.329313) can0 100#3EE40000
(1716384618.329729) can0 425#00F9
(1716384618.329915) can0 080#5B07
(1716384618.330914) can0 100#39E40000
(1716384618.332451) can0 100#34E40000
(1716384618.334071) can0 100#2FE40000
(1716384618.335592) can0 100#2AE40000
(1716384618.337192) can0 100#25E40000
(1716384618.338806) can0 100#20E40000
(1716384618.339865) can0 425#00F9
(1716384618.339990) can0 080#5B07
(1716384618.340338) can0 100#1BE40000
(1716384618.341961) can0 100#16E40000
(1716384618.343574) can0 100#11E40000
(1716384618.345106) can0 100#0CE40000
(1716384618.346719) can0 100#07E40000
(1716384618.348248) can0 100#02E40000
(1716384618.349754) can0 425#00F9
(1716384618.349914) can0 100#FDE30000
(1716384618.350056) can0 080#5B07
(1716384618.351475) can0 100#F8E30000
(1716384618.353090) can0 100#F3E30000
(1716384618.354621) can0 100#EEE30000
(1716384618.356166) can0 100#E9E30000
(1716384618.357680) can0 100#E4E30000
(1716384618.359261) can0 100#DFE30000
(1716384618.359860) can0 425#DEF8
(1716384618.359989) can0 080#5B07
(1716384618.360791) can0 100#DAE30000
(1716384618.362331) can0 100#D5E30000
(1716384618.363968) can0 100#D0E30000
(1716384618.365549) can0 100#CBE30000
(1716384618.367171) can0 100#C6E30000
(1716384618.368715) can0 100#C1E30000
(1716384618.369745) can0 425#DEF8
(1716384618.369914) can0 080#5B07
(1716384618.370214) can0 100#BCE30000
(1716384618.371819) can0 100#B7E30000
(1716384618.373438) can0 100#B2E30000
(1716384618.375039) can0 100#ADE30000
(1716384618.376577) can0 100#A8E30000
(1716384618.378184) can0 100#A3E30000
(1716384618.379823) can0 100#9EE30000
(1716384618.379945) can0 425#77F8
(1716384618.380089) can0 080#5B07
(1716384618.381445) can0 100#99E30000
(1716384618.383070) can0 100#94E30000
(1716384618.384615) can0 100#8FE30000
(1716384618.386162) can0 100#8AE30000
(1716384618.387766) can0 100#85E30000
(1716384618.389302) can0 100#80E30000
(1716384618.389753) can0 425#77F8
(1716384618.389911) can0 080#5B07
(1716384618.390846) can0 100#7BE30000
(1716384618.392385) can0 100#76E30000
(1716384618.394009) can0 100#71E30000
(1716384618.395525) can0 100#6CE30000
(1716384618.397164) can0 100#67E30000
(1716384618.398766) can0 100#62E30000
(1716384618.399870) can0 425#8EF8
(1716384618.399986) can0 080#5B07
(1716384618.400287) can0 100#5DE30000
(1716384618.401914) can0 100#58E30000
(1716384618.403510) can0 100#53E30000
(1716384618.405110) can0 100#4EE30000
(1716384618.406661) can0 100#49E30000
(1716384618.408184) can0 100#44E30000
(1716384618.409709) can0 100#3FE30000
(1716384618.409858) can0 425#8EF8
(1716384618.409989) can0 080#5B07
(1716384618.411257) can0 100#3AE30000
(1716384618.412793) can0 100#35E30000
(1716384618.414434) can0 100#30E30000
(1716384618.415962) can0 100#2BE30000
(1716384618.417511) can0 100#26E30000
(1716384618.419165) can0 100#21E30000
(1716384618.419860) can0 425#8EF8
(1716384618.419989) can0 080#5B07
(1716384618.420670) can0 100#1CE30000
(1716384618.422314) can0 100#17E30000
(1716384618.423934) can0 100#12E30000
(1716384618.425461) can0 100#0DE30000
(1716384618.426988) can0 100#08E30000
(1716384618.428542) can0 100#03E30000
(1716384618.429736) can0 425#8EF8
(1716384618.429911) can0 080#5B07
(1716384618.430185) can0 100#FEE20000
(1716384618.431691) can0 100#F9E20000
(1716384618.433215) can0 100#F9E20000
(1716384618.434766) can0 100#F4E20000
(1716384618.436295) can0 100#EFE20000
(1716384618.437913) can0 100#EAE20000
(1716384618.439446) can0 100#E5E20000
(1716384618.439914) can0 425#27F8
(1716384618.439986) can0 080#5B07
(1716384618.440988) can0 100#E0E20000
(1716384618.442593) can0 100#DBE20000
(1716384618.444189) can0 100#D6E20000
(1716384618.445721) can0 100#D1E20000
(1716384618.447330) can0 100#CCE20000
(1716384618.448857) can0 100#C7E20000
(1716384618.449738) can0 425#27F8
(1716384618.449914) can0 080#5B07
(1716384618.450477) can0 100#C2E20000
(1716384618.452085) can0 100#BDE20000
(1716384618.453724) can0 100#B8E20000
(1716384618.455340) can0 100#B3E20000
(1716384618.456914) can0 100#AEE20000
(1716384618.458490) can0 100#A9E20000
(1716384618.459870) can0 425#1CF8
(1716384618.460010) can0 080#5B07
(1716384618.460159) can0 100#9FE20000
(1716384618.461659) can0 100#9AE20000
(1716384618.463298) can0 100#95E20000
(1716384618.464835) can0 100#90E20000
(1716384618.466367) can0 100#90E20000
(1716384618.467909) can0 100#8BE20000
(1716384618.469459) can0 100#86E20000
(1716384618.469736) can0 425#1CF8
(1716384618.469914) can0 080#5B07
(1716384618.470984) can0 100#81E20000
(1716384618.472541) can0 100#7CE20000
(1716384618.474164) can0 100#77E20000
(1716384618.475750) can0 100#72E20000
(1716384618.477286) can0 100#6DE20000
(1716384618.478913) can0 100#68E20000
(1716384618.479861) can0 425#1CF8
(1716384618.479988) can0 080#5B07
(1716384618.480418) can0 100#63E20000
(1716384618.482043) can0 100#5EE20000
(1716384618.483570) can0 100#59E20000
(1716384618.485112) can0 100#54E20000
(1716384618.486631) can0 100#4FE20000
(1716384618.488194) can0 100#4AE20000
(1716384618.489769) can0 100#45E20000
(1716384618.489914) can0 425#1CF8
(1716384618.490031) can0 080#5B07
(1716384618.491300) can0 100#40E20000
(1716384618.492835) can0 100#3BE20000
(1716384618.494467) can0 100#36E20000
(1716384618.496059) can0 100#31E20000
(1716384618.497685) can0 100#2CE20000
(1716384618.499290) can0 100#27E20000
(1716384618.499860) can0 425#9EF7
(1716384618.499985) can0 080#5B07
(1716384618.500820) can0 100#22E20000
(1716384618.502443) can0 100#1DE20000
(1716384618.504037) can0 100#18E20000
(1716384618.505656) can0 100#13E20000
(1716384618.507200) can0 100#0EE20000
(1716384618.508740) can0 100#09E20000
(1716384618.509742) can0 425#9EF7
(1716384618.509910) can0 080#5B07
(1716384618.510376) can0 100#04E20000
(1716384618.511913) can0 100#FFE10000
(1716384618.513541) can0 100#FAE10000
(1716384618.515164) can0 100#F5E10000
(1716384618.516673) can0 100#F0E10000
(1716384618.518284) can0 100#EBE10000
(1716384618.519913) can0 425#CCF7
(1716384618.520006) can0 100#E6E10000
(1716384618.520159) can0 080#5B07
(1716384618.521497) can0 100#E1E10000
(1716384618.523112) can0 100#DCE10000
(1716384618.524647) can0 100#D7E10000
(1716384618.526260) can0 100#D2E10000
(1716384618.527912) can0 100#CDE10000
(1716384618.529409) can0 100#C8E10000
(1716384618.529737) can0 425#CCF7
(1716384618.529913) can0 080#5B07
(1716384618.531013) can0 100#C3E10000
(1716384618.532552) can0 100#BEE10000
(1716384618.534083) can0 100#B9E10000
(1716384618.535715) can0 100#B4E10000
(1716384618.537252) can0 100#AFE10000
(1716384618.538854) can0 100#AAE10000
(1716384618.539860) can0 425#7CF7
(1716384618.539985) can0 080#5B07
(1716384618.540377) can0 100#A5E10000
(1716384618.541908) can0 100#A0E10000
(1716384618.543444) can0 100#9BE10000
(1716384618.545068) can0 100#96E10000
(1716384618.546659) can0 100#91E10000
(1716384618.548191) can0 100#8CE10000
(1716384618.549734) can0 100#87E10000
(1716384618.549860) can0 425#7CF7
(1716384618.550013) can0 080#5B07
(1716384618.551335) can0 100#82E10000
(1716384618.552913) can0 100#7DE10000
(1716384618.554409) can0 100#78E10000
(1716384618.556011) can0 100#73E10000
(1716384618.557548) can0 100#6EE10000
(1716384618.559175) can0 100#69E10000
(1716384618.560544) can0 425#E8F6
(1716384618.560708) can0 080#5B07
(1716384618.560839) can0 100#64E10000
(1716384618.562260) can0 100#5FE10000
(1716384618.563912) can0 100#5AE10000
(1716384618.565490) can0 100#55E10000
(1716384618.567034) can0 100#50E10000
(1716384618.568571) can0 100#4BE10000
(1716384618.569742) can0 425#E8F6
(1716384618.569913) can0 080#5507
(1716384618.570105) can0 100#46E10000
(1716384618.571718) can0 100#41E10000
(1716384618.573259) can0 100#3CE10000
(1716384618.574915) can0 100#37E10000
(1716384618.576390) can0 100#32E10000
(1716384618.577937) can0 100#2DE10000
(1716384618.579557) can0 100#28E10000
(1716384618.579918) can0 425#E3F7
(1716384618.580006) can0 080#5507
(1716384618.581166) can0 100#23E10000
(1716384618.582720) can0 100#1EE10000
(1716384618.584242) can0 100#19E10000
(1716384618.585785) can0 100#14E10000
(1716384618.587319) can0 100#0FE10000
(1716384618.588866) can0 100#0AE10000
(1716384618.589761) can0 425#E3F7
(1716384618.589912) can0 080#5507
(1716384618.590478) can0 100#05E10000
(1716384618.592090) can0 100#00E10000
(1716384618.593709) can0 100#FBE00000
(1716384618.595225) can0 100#F6E00000
(1716384618.596772) can0 100#F1E00000
(1716384618.598314) can0 100#ECE00000
(1716384618.599845) can0 425#0AF7
(1716384618.600008) can0 100#E7E00000
(1716384618.600159) can0 080#5507
(1716384618.601451) can0 100#E2E00000
(1716384618.602986) can0 100#DDE00000
(1716384618.604530) can0 100#D8E00000
(1716384618.606163) can0 100#D3E00000
(1716384618.607664) can0 100#CEE00000
(1716384618.609204) can0 100#C9E00000
(1716384618.609745) can0 425#0AF7
(1716384618.609912) can0 080#5507
(1716384618.610818) can0 100#C4E00000
(1716384618.612349) can0 100#BFE00000
(1716384618.613961) can0 100#BAE00000
(1716384618.615589) can0 100#B5E00000
(1716384618.617164) can0 100#B0E00000
(1716384618.618696) can0 100#ABE00000
(1716384618.619863) can0 425#38F7
(1716384618.620034) can0 080#5507
(1716384618.620235) can0 100#A6E00000
(1716384618.621813) can0 100#A1E00000
(1716384618.623455) can0 100#9CE00000
(1716384618.625068) can0 100#97E00000
(1716384618.626658) can0 100#92E00000
(1716384618.628214) can0 100#8DE00000
(1716384618.629754) can0 100#88E00000
(1716384618.629912) can0 425#38F7
(1716384618.630043) can0 080#5507
(1716384618.631379) can0 100#83E00000
(1716384618.632907) can0 100#7EE00000
(1716384618.634523) can0 100#79E00000
(1716384618.636182) can0 100#74E00000
(1716384618.637790) can0 100#6FE00000
(1716384618.639393) can0 100#6AE00000
(1716384618.639912) can0 425#98F6
(1716384618.639984) can0 080#5507
(1716384618.640987) can0 100#65E00000
(1716384618.642598) can0 100#60E00000
(1716384618.644189) can0 100#5BE00000
(1716384618.645790) can0 100#56E00000
(1716384618.647422) can0 100#51E00000
(1716384618.648957) can0 100#4CE00000
(1716384618.649737) can0 425#98F6
(1716384618.649912) can0 080#5507
(1716384618.650571) can0 100#47E00000
(1716384618.652175) can0 100#42E00000
(1716384618.653810) can0 100#3DE00000
(1716384618.655389) can0 100#38E00000
(1716384618.656912) can0 100#33E00000
(1716384618.658444) can0 100#2EE00000
(1716384618.659859) can0 425#48F6
(1716384618.660006) can0 100#29E00000
(1716384618.660158) can0 080#5507
(1716384618.661529) can0 100#24E00000
(1716384618.663068) can0 100#1FE00000
(1716384618.664608) can0 100#1AE00000
(1716384618.666209) can0 100#15E00000
(1716384618.667810) can0 100#10E00000
(1716384618.669423) can0 100#0BE00000
(1716384618.669750) can0 425#48F6
(1716384618.669912) can0 080#5507
(1716384618.671032) can0 100#06E00000
(1716384618.672577) can0 100#01E00000
(1716384618.674187) can0 100#FCDF0000
(1716384618.675792) can0 100#F7DF0000
(1716384618.677318) can0 100#F2DF0000
(1716384618.678853) can0 100#EDDF0000
(1716384618.679837) can0 425#48F6
(1716384618.679991) can0 080#5507
(1716384618.680372) can0 100#E8DF0000
(1716384618.681987) can0 100#E3DF0000
(1716384618.683540) can0 100#DEDF0000
(1716384618.685089) can0 100#D9DF0000
(1716384618.686680) can0 100#D4DF0000
(1716384618.688235) can0 100#CFDF0000
(1716384618.689758) can0 100#CADF0000
(1716384618.689911) can0 425#48F6
(1716384618.690030) can0 080#5507
(1716384618.691365) can0 100#C5DF0000
(1716384618.692986) can0 100#C0DF0000
(1716384618.694591) can0 100#BBDF0000
(1716384618.696213) can0 100#B6DF0000
(1716384618.697823) can0 100#B1DF0000
(1716384618.699361) can0 100#ACDF0000
(1716384618.699867) can0 425#EDF5
(1716384618.699983) can0 080#5507
(1716384618.700960) can0 100#A7DF0000
(1716384618.702575) can0 100#A2DF0000
(1716384618.704184) can0 100#9DDF0000
(1716384618.705712) can0 100#98DF0000
(1716384618.707326) can0 100#93DF0000
(1716384618.708914) can0 100#8EDF0000
(1716384618.709733) can0 425#EDF5
(1716384618.709907) can0 080#5507
(1716384618.710407) can0 100#89DF0000
(1716384618.712016) can0 100#84DF0000
(1716384618.713552) can0 100#7FDF0000
(1716384618.715159) can0 100#7ADF0000
(1716384618.716703) can0 100#75DF0000
(1716384618.718313) can0 100#70DF0000
(1716384618.719848) can0 100#6BDF0000
(1716384618.719982) can0 425#53F6
(1716384618.720135) can0 080#5507
(1716384618.721380) can0 100#66DF0000
(1716384618.722911) can0 100#61DF0000
(1716384618.724448) can0 100#5CDF0000
(1716384618.725985) can0 100#57DF0000
(1716384618.727515) can0 100#52DF0000
(1716384618.729035) can0 100#4DDF0000
(1716384618.729731) can0 425#53F6
(1716384618.729912) can0 080#5507
(1716384618.730591) can0 100#48DF0000
(1716384618.732158) can0 100#43DF0000
(1716384618.733655) can0 100#3EDF0000
(1716384618.735192) can0 100#39DF0000
(1716384618.736718) can0 100#34DF0000
(1716384618.738358) can0 100#2FDF0000
(1716384618.739846) can0 425#D6F5
(1716384618.740010) can0 100#2ADF0000
(1716384618.740157) can0 080#5507
(1716384618.741512) can0 100#25DF0000
(1716384618.743057) can0 100#20DF0000
(1716384618.744596) can0 100#1BDF0000
(1716384618.746199) can0 100#16DF0000
(1716384618.747812) can0 100#11DF0000
(1716384618.749345) can0 100#0CDF0000
(1716384618.749751) can0 425#D6F5
(1716384618.749911) can0 080#5507
(1716384618.750960) can0 100#07DF0000
(1716384618.752496) can0 100#02DF0000
(1716384618.754036) can0 100#FDDE0000
(1716384618.755641) can0 100#F8DE0000
(1716384618.757283) can0 100#F3DE0000
(1716384618.758805) can0 100#EEDE0000
(1716384618.759836) can0 425#A8F5
(1716384618.759989) can0 080#5507
(1716384618.760332) can0 100#E9DE0000
(1716384618.761906) can0 100#E4DE0000
(1716384618.763482) can0 100#DFDE0000
(1716384618.765085) can0 100#DADE0000
