(1715866587.382232) can0 425#0000
(1715866587.382345) can0 080#2E07
(1715866587.392100) can0 425#0000
(1715866587.392246) can0 080#2E07
(1715866587.402206) can0 425#0000
(1715866587.402341) can0 080#2E07
(1715866587.412117) can0 425#0000
(1715866587.412245) can0 080#2E07
(1715866587.422205) can0 425#0000
(1715866587.422340) can0 080#2E07
(1715866587.432097) can0 425#0000
(1715866587.432245) can0 080#2E07
(1715866587.442224) can0 425#0000
(1715866587.442341) can0 080#2E07
(1715866587.452099) can0 425#0000
(1715866587.452201) can0 080#2E07
(1715866587.462159) can0 425#0000
(1715866587.462339) can0 080#2E07
(1715866587.472116) can0 425#0000
(1715866587.472244) can0 080#2E07
(1715866587.482202) can0 425#0000
(1715866587.482339) can0 080#2E07
(1715866587.492116) can0 425#0000
(1715866587.492243) can0 080#2E07
(1715866587.502202) can0 425#0000
(1715866587.502341) can0 080#2E07
(1715866587.512098) can0 425#0000
(1715866587.512243) can0 080#2E07
(1715866587.522200) can0 425#0000
(1715866587.522339) can0 080#2E07
(1715866587.532095) can0 425#0000
(1715866587.532243) can0 080#2E07
(1715866587.542201) can0 425#0000
(1715866587.542340) can0 080#2E07
(1715866587.552097) can0 425#0000
(1715866587.552243) can0 080#2E07
(1715866587.562202) can0 425#0000
(1715866587.562338) can0 080#2E07
(1715866587.572098) can0 425#0000
(1715866587.572243) can0 080#2E07
(1715866587.582227) can0 425#0000
(1715866587.582338) can0 080#2E07
(1715866587.592107) can0 425#0000
(1715866587.592242) can0 080#2E07
(1715866587.602247) can0 425#0000
(1715866587.602338) can0 080#2E07
(1715866587.612096) can0 425#0000
(1715866587.612241) can0 080#2E07
(1715866587.622201) can0 425#0000
(1715866587.622337) can0 080#2E07
(1715866587.632094) can0 425#0000
(1715866587.632242) can0 080#2E07
(1715866587.642202) can0 425#0000
(1715866587.642336) can0 080#2E07
(1715866587.652094) can0 425#0000
(1715866587.652240) can0 080#2E07
(1715866587.662201) can0 425#0000
(1715866587.662337) can0 080#2E07
(1715866587.672095) can0 425#0000
(1715866587.672240) can0 080#2E07
(1715866587.682201) can0 425#0000
(1715866587.682338) can0 080#2E07
(1715866587.692094) can0 425#0000
(1715866587.692240) can0 080#2E07
(1715866587.702197) can0 425#0000
(1715866587.702336) can0 080#2E07
(1715866587.712092) can0 425#0000
(1715866587.712239) can0 080#2E07
(1715866587.722201) can0 425#0000
(1715866587.722336) can0 080#2E07
(1715866587.732093) can0 425#0000
(1715866587.732240) can0 080#2E07
(1715866587.742200) can0 425#0000
(1715866587.742335) can0 080#2E07
(1715866587.752084) can0 425#0000
(1715866587.752214) can0 080#2E07
(1715866587.762199) can0 425#0000
(1715866587.762334) can0 080#2E07
(1715866587.772092) can0 425#0000
(1715866587.772239) can0 080#2E07
(1715866587.782198) can0 425#0000
(1715866587.782336) can0 080#2E07
(1715866587.792109) can0 425#0000
(1715866587.792238) can0 080#2E07
(1715866587.802199) can0 425#0000
(1715866587.802335) can0 080#2E07
(1715866587.812092) can0 425#0000
(1715866587.812238) can0 080#2E07
(1715866587.822198) can0 425#0000
(1715866587.822334) can0 080#2E07
(1715866587.832091) can0 425#0000
(1715866587.832237) can0 080#2E07
(1715866587.842213) can0 425#0000
(1715866587.842333) can0 080#2E07
(1715866587.852091) can0 425#0000
(1715866587.852236) can0 080#2E07
(1715866587.862199) can0 425#0000
(1715866587.862309) can0 080#2E07
(1715866587.872091) can0 425#0000
(1715866587.872237) can0 080#2E07
(1715866587.882196) can0 425#0000
(1715866587.882332) can0 080#2E07
(1715866587.892087) can0 425#0000
(1715866587.892237) can0 080#2E07
(1715866587.902214) can0 425#0000
(1715866587.902307) can0 080#2E07
(1715866587.912090) can0 425#0000
(1715866587.912236) can0 080#2E07
(1715866587.922195) can0 425#0000
(1715866587.922331) can0 080#2E07
(1715866587.932090) can0 425#0000
(1715866587.932275) can0 080#2E07
(1715866587.942196) can0 425#0000
(1715866587.942332) can0 080#2E07
(1715866587.952088) can0 425#0000
(1715866587.952236) can0 080#2E07
(1715866587.962193) can0 425#0000
(1715866587.962331) can0 080#2E07
(1715866587.972106) can0 425#0000
(1715866587.972235) can0 080#2E07
(1715866587.982194) can0 425#0000
(1715866587.982330) can0 080#2E07
(1715866587.992089) can0 425#0000
(1715866587.992210) can0 080#2E07
(1715866588.002212) can0 425#0000
(1715866588.002331) can0 080#2E07
(1715866588.012087) can0 425#0000
(1715866588.012234) can0 080#2E07
(1715866588.022192) can0 425#0000
(1715866588.022330) can0 080#2E07
(1715866588.032087) can0 425#0000
(1715866588.032209) can0 080#2E07
(1715866588.042213) can0 425#0000
(1715866588.042336) can0 080#2E07
(1715866588.052088) can0 425#0000
(1715866588.052209) can0 080#2E07
(1715866588.062220) can0 425#0000
(1715866588.062332) can0 080#2E07
(1715866588.072087) can0 425#0000
(1715866588.072233) can0 080#2E07
(1715866588.082193) can0 425#0000
(1715866588.082330) can0 080#2E07
(1715866588.092085) can0 425#0000
(1715866588.092233) can0 080#2E07
(1715866588.102210) can0 425#0000
(1715866588.102304) can0 080#2E07
(1715866588.112087) can0 425#0000
(1715866588.112252) can0 080#2E07
(1715866588.122215) can0 425#0000
(1715866588.122329) can0 080#2E07
(1715866588.132102) can0 425#0000
(1715866588.132207) can0 080#2E07
(1715866588.142192) can0 425#0000
(1715866588.142328) can0 080#2E07
(1715866588.152086) can0 425#0000
(1715866588.152231) can0 080#2E07
(1715866588.162190) can0 425#0000
(1715866588.162328) can0 080#2E07
(1715866588.172083) can0 425#0000
(1715866588.172231) can0 080#2E07
(1715866588.182189) can0 425#0000
(1715866588.182327) can0 080#2E07
(1715866588.192086) can0 425#0000
(1715866588.192230) can0 080#2E07
(1715866588.202866) can0 425#0000
(1715866588.203002) can0 080#2E07
(1715866588.212083) can0 425#0000
(1715866588.212205) can0 080#3007
(1715866588.222189) can0 425#0000
(1715866588.222327) can0 080#3007
(1715866588.232082) can0 425#0000
(1715866588.232230) can0 080#3007
(1715866588.242189) can0 425#0000
(1715866588.242326) can0 080#3007
(1715866588.252084) can0 425#0000
(1715866588.252230) can0 080#3007
(1715866588.262232) can0 425#0000
(1715866588.262352) can0 080#3007
(1715866588.272084) can0 425#0000
(1715866588.272207) can0 080#3007
(1715866588.282190) can0 425#0000
(1715866588.282327) can0 080#3007
(1715866588.292083) can0 425#0000
(1715866588.292204) can0 080#3007
(1715866588.302188) can0 425#0000
(1715866588.302301) can0 080#3007
(1715866588.312083) can0 425#0000
(1715866588.312204) can0 080#3007
(1715866588.322188) can0 425#0000
(1715866588.322325) can0 080#3007
(1715866588.332083) can0 425#0000
(1715866588.332204) can0 080#3007
(1715866588.342205) can0 425#0000
(1715866588.342325) can0 080#3007
(1715866588.352082) can0 425#0000
(1715866588.352229) can0 080#3007
(1715866588.362207) can0 425#0000
(1715866588.362324) can0 080#3007
(1715866588.372083) can0 425#0000
(1715866588.372227) can0 080#3007
(1715866588.382188) can0 425#0000
(1715866588.382299) can0 080#3007
(1715866588.392084) can0 425#0000
(1715866588.392202) can0 080#3007
(1715866588.402187) can0 425#0000
(1715866588.402299) can0 080#3007
(1715866588.412082) can0 425#0000
(1715866588.412227) can0 080#3007
(1715866588.422175) can0 425#0000
(1715866588.422312) can0 080#3007
(1715866588.432102) can0 425#0000
(1715866588.432226) can0 080#3007
(1715866588.442205) can0 425#0000
(1715866588.442335) can0 080#3007
(1715866588.452081) can0 425#0000
(1715866588.452226) can0 080#3007
(1715866588.462177) can0 425#0000
(1715866588.462334) can0 080#3007
(1715866588.472080) can0 425#0000
(1715866588.472226) can0 080#3007
(1715866588.482177) can0 425#0000
(1715866588.482309) can0 080#3007
(1715866588.492078) can0 425#0000
(1715866588.492226) can0 080#3007
(1715866588.502176) can0 425#0000
(1715866588.502333) can0 080#3007
(1715866588.512088) can0 425#0000
(1715866588.512225) can0 080#3007
(1715866588.522176) can0 425#0000
(1715866588.522333) can0 080#3007
(1715866588.532098) can0 425#0000
(1715866588.532201) can0 080#3007
(1715866588.542176) can0 425#0000
(1715866588.542333) can0 080#3007
(1715866588.552079) can0 425#0000
(1715866588.552259) can0 080#3007
(1715866588.562171) can0 425#0000
(1715866588.562332) can0 080#3007
(1715866588.572076) can0 425#0000
(1715866588.572199) can0 080#3007
(1715866588.582175) can0 425#0000
(1715866588.582332) can0 080#3007
(1715866588.592077) can0 425#0000
(1715866588.592229) can0 080#3007
(1715866588.602174) can0 425#0000
(1715866588.602307) can0 080#3007
(1715866588.612076) can0 425#0000
(1715866588.612200) can0 080#3007
(1715866588.622173) can0 425#0000
(1715866588.622306) can0 080#3007
(1715866588.632078) can0 425#0000
(1715866588.632199) can0 080#3007
(1715866588.642173) can0 425#0000
(1715866588.642331) can0 080#3007
(1715866588.652077) can0 425#0000
(1715866588.652223) can0 080#3007
(1715866588.662169) can0 425#0000
(1715866588.662332) can0 080#3007
(1715866588.672077) can0 425#0000
(1715866588.672222) can0 080#3007
(1715866588.682174) can0 425#0000
(1715866588.682305) can0 080#3007
(1715866588.692074) can0 425#0000
(1715866588.692223) can0 080#3007
(1715866588.702172) can0 425#0000
(1715866588.702305) can0 080#3007
(1715866588.712075) can0 425#0000
(1715866588.712196) can0 080#3007
(1715866588.722173) can0 425#0000
(1715866588.722304) can0 080#3007
(1715866588.732075) can0 425#0000
(1715866588.732197) can0 080#3007
(1715866588.742171) can0 425#0000
(1715866588.742329) can0 080#3007
(1715866588.752073) can0 425#0000
(1715866588.752221) can0 080#3007
(1715866588.762169) can0 425#0000
(1715866588.762329) can0 080#3007
(1715866588.772127) can0 425#0000
(1715866588.772221) can0 080#3007
(1715866588.782170) can0 425#0000
(1715866588.782303) can0 080#3007
(1715866588.792075) can0 425#0000
(1715866588.792195) can0 080#3007
(1715866588.802171) can0 425#0000
(1715866588.802330) can0 080#3007
(1715866588.812072) can0 425#0000
(1715866588.812194) can0 080#3007
(1715866588.822180) can0 425#0000
(1715866588.822303) can0 080#3007
(1715866588.832094) can0 425#0000
(1715866588.832199) can0 080#3007
(1715866588.842166) can0 425#0000
(1715866588.842303) can0 080#3007
(1715866588.852073) can0 425#0000
(1715866588.852194) can0 080#3007
(1715866588.862175) can0 425#0000
(1715866588.862327) can0 080#3007
(1715866588.872073) can0 425#0000
(1715866588.872194) can0 080#3007
(1715866588.882169) can0 425#0000
(1715866588.882301) can0 080#3007
(1715866588.892071) can0 425#0000
(1715866588.892218) can0 080#3007
(1715866588.902166) can0 425#0000
(1715866588.902301) can0 080#3007
(1715866588.912077) can0 425#0000
(1715866588.912194) can0 080#3007
(1715866588.922168) can0 425#0000
(1715866588.922300) can0 080#3007
(1715866588.932071) can0 425#0000
(1715866588.932218) can0 080#3007
(1715866588.942169) can0 425#0000
(1715866588.942301) can0 080#3007
(1715866588.952070) can0 425#0000
(1715866588.952193) can0 080#3007
(1715866588.962166) can0 425#0000
(1715866588.962301) can0 080#3007
(1715866588.972070) can0 425#0000
(1715866588.972217) can0 080#3007
(1715866588.982165) can0 425#0000
(1715866588.982299) can0 080#3007
(1715866588.992069) can0 425#0000
(1715866588.992196) can0 080#3007
(1715866589.002164) can0 425#0000
(1715866589.002300) can0 080#3007
(1715866589.012070) can0 425#0000
(1715866589.012192) can0 080#3007
(1715866589.022205) can0 425#0000
(1715866589.022343) can0 080#3007
(1715866589.032061) can0 425#0000
(1715866589.032191) can0 080#3007
(1715866589.042166) can0 425#0000
(1715866589.042299) can0 080#3007
(1715866589.052070) can0 425#0000
(1715866589.052190) can0 080#3007
(1715866589.062167) can0 425#0000
(1715866589.062301) can0 080#3007
(1715866589.072091) can0 425#0000
(1715866589.072196) can0 080#3007
(1715866589.082165) can0 425#0000
(1715866589.082298) can0 080#3007
(1715866589.092102) can0 425#0000
(1715866589.092189) can0 080#3007
(1715866589.102165) can0 425#0000
(1715866589.102298) can0 080#3007
(1715866589.112069) can0 425#0000
(1715866589.112190) can0 080#3007
(1715866589.122164) can0 425#0000
(1715866589.122298) can0 080#3007
(1715866589.132070) can0 425#0000
(1715866589.132209) can0 080#3007
(1715866589.142165) can0 425#0000
(1715866589.142297) can0 080#3007
(1715866589.152066) can0 425#0000
(1715866589.152188) can0 080#3007
(1715866589.162161) can0 425#0000
(1715866589.162298) can0 080#3007
(1715866589.172068) can0 425#0000
(1715866589.172188) can0 080#3007
(1715866589.182165) can0 425#0000
(1715866589.182322) can0 080#3007
(1715866589.192068) can0 425#0000
(1715866589.192188) can0 080#3007
(1715866589.202839) can0 425#0000
(1715866589.202996) can0 080#3007
(1715866589.212068) can0 425#0000
(1715866589.212189) can0 080#3007
(1715866589.222160) can0 425#0000
(1715866589.222320) can0 080#3007
(1715866589.232065) can0 425#0000
(1715866589.232188) can0 080#3007
(1715866589.242159) can0 425#0000
(1715866589.242296) can0 080#3007
(1715866589.252067) can0 425#0000
(1715866589.252188) can0 080#3007
(1715866589.262184) can0 425#0000
(1715866589.262320) can0 080#3007
(1715866589.272084) can0 425#0000
(1715866589.272187) can0 080#3007
(1715866589.282164) can0 425#0000
(1715866589.282330) can0 080#3007
(1715866589.292064) can0 425#0000
(1715866589.292188) can0 080#3007
(1715866589.302163) can0 425#0000
(1715866589.302295) can0 080#3007
(1715866589.312083) can0 425#0000
(1715866589.312186) can0 080#3007
(1715866589.322162) can0 425#0000
(1715866589.322294) can0 080#3007
(1715866589.332064) can0 425#0000
(1715866589.332186) can0 080#3007
(1715866589.342161) can0 425#0000
(1715866589.342294) can0 080#3007
(1715866589.352063) can0 425#0000
(1715866589.352185) can0 080#3007
(1715866589.362161) can0 425#0000
(1715866589.362293) can0 080#3007
(1715866589.372065) can0 425#0000
(1715866589.372184) can0 080#3007
(1715866589.382160) can0 425#0000
(1715866589.382293) can0 080#3007
(1715866589.392064) can0 425#0000
(1715866589.392210) can0 080#3007
(1715866589.402159) can0 425#0000
(1715866589.402292) can0 080#3007
(1715866589.412063) can0 425#0000
(1715866589.412184) can0 080#3007
(1715866589.422159) can0 425#0000
(1715866589.422292) can0 080#3007
(1715866589.432068) can0 425#0000
(1715866589.432183) can0 080#3007
(1715866589.442162) can0 425#0000
(1715866589.442291) can0 080#3007
(1715866589.452064) can0 425#0000
(1715866589.452184) can0 080#3007
(1715866589.462159) can0 425#0000
(1715866589.462291) can0 080#3007
(1715866589.472082) can0 425#0000
(1715866589.472182) can0 080#3007
(1715866589.482154) can0 425#0000
(1715866589.482292) can0 080#3007
(1715866589.492062) can0 425#0000
(1715866589.492183) can0 080#3007
(1715866589.502154) can0 425#0000
(1715866589.502290) can0 080#3007
(1715866589.512062) can0 425#0000
(1715866589.512182) can0 080#3007
(1715866589.522158) can0 425#0000
(1715866589.522290) can0 080#3007
(1715866589.532059) can0 425#0000
(1715866589.532183) can0 080#3007
(1715866589.542157) can0 425#0000
(1715866589.542290) can0 080#3007
(1715866589.552062) can0 425#0000
(1715866589.552182) can0 080#3007
(1715866589.562157) can0 425#0000
(1715866589.562289) can0 080#3007
(1715866589.572060) can0 425#0000
(1715866589.572181) can0 080#3007
(1715866589.582157) can0 425#0000
(1715866589.582289) can0 080#3007
(1715866589.592090) can0 425#0000
(1715866589.592170) can0 080#3007
(1715866589.602153) can0 425#0000
(1715866589.602290) can0 080#3007
(1715866589.612064) can0 425#0000
(1715866589.612180) can0 080#3007
(1715866589.622162) can0 425#0000
(1715866589.622289) can0 080#3007
(1715866589.632057) can0 425#0000
(1715866589.632180) can0 080#3007
(1715866589.642152) can0 425#0000
(1715866589.642300) can0 080#3007
(1715866589.652064) can0 425#0000
(1715866589.652180) can0 080#3007
(1715866589.662156) can0 425#0000
(1715866589.662288) can0 080#3007
(1715866589.672056) can0 425#0000
(1715866589.672179) can0 080#3007
(1715866589.682155) can0 425#0000
(1715866589.682287) can0 080#3007
(1715866589.692076) can0 425#0000
(1715866589.692167) can0 080#3007
(1715866589.702165) can0 425#0000
(1715866589.702289) can0 080#3007
(1715866589.712056) can0 425#0000
(1715866589.712179) can0 080#3007
(1715866589.722163) can0 425#0000
(1715866589.722287) can0 080#3007
(1715866589.732058) can0 425#0000
(1715866589.732167) can0 080#3007
(1715866589.742161) can0 425#0000
(1715866589.742286) can0 080#3007
(1715866589.752057) can0 425#0000
(1715866589.752166) can0 080#3007
(1715866589.762161) can0 425#0000
(1715866589.762285) can0 080#3007
(1715866589.772058) can0 425#0000
(1715866589.772168) can0 080#3007
(1715866589.782182) can0 425#0000
(1715866589.782294) can0 080#3007
(1715866589.792056) can0 425#0000
(1715866589.792165) can0 080#3007
(1715866589.802163) can0 425#0000
(1715866589.802285) can0 080#3007
(1715866589.812059) can0 425#0000
(1715866589.812167) can0 080#3007
(1715866589.822162) can0 425#0000
(1715866589.822285) can0 080#3007
(1715866589.832057) can0 425#0000
(1715866589.832164) can0 080#3007
(1715866589.842159) can0 425#0000
(1715866589.842284) can0 080#3007
(1715866589.852054) can0 425#0000
(1715866589.852165) can0 080#3007
(1715866589.862161) can0 425#0000
(1715866589.862284) can0 080#3007
(1715866589.872073) can0 425#0000
(1715866589.872163) can0 080#3007
(1715866589.882159) can0 425#0000
(1715866589.882283) can0 080#3007
(1715866589.892054) can0 425#0000
(1715866589.892163) can0 080#3007
(1715866589.902161) can0 425#0000
(1715866589.902284) can0 080#3007
(1715866589.912052) can0 425#0000
(1715866589.912163) can0 080#3007
(1715866589.922160) can0 425#0000
(1715866589.922283) can0 080#3007
(1715866589.932052) can0 425#0000
(1715866589.932164) can0 080#3007
(1715866589.942161) can0 425#0000
(1715866589.942282) can0 080#3007
(1715866589.952053) can0 425#0000
(1715866589.952165) can0 080#3007
(1715866589.962160) can0 425#0000
(1715866589.962284) can0 080#3007
(1715866589.972069) can0 425#0000
(1715866589.972163) can0 080#3007
(1715866589.982157) can0 425#0000
(1715866589.982282) can0 080#3007
(1715866589.992051) can0 425#0000
(1715866589.992164) can0 080#3007
(1715866590.002158) can0 425#0000
(1715866590.002283) can0 080#3007
(1715866590.012050) can0 425#0000
(1715866590.012161) can0 080#3007
(1715866590.022157) can0 425#0000
(1715866590.022285) can0 080#3007
(1715866590.032050) can0 425#0000
(1715866590.032163) can0 080#3007
(1715866590.042156) can0 425#0000
(1715866590.042281) can0 080#3007
(1715866590.052055) can0 425#0000
(1715866590.052161) can0 080#3007
(1715866590.062162) can0 425#0000
(1715866590.062281) can0 080#3007
(1715866590.072072) can0 425#0000
(1715866590.072164) can0 080#3007
(1715866590.082158) can0 425#0000
(1715866590.082281) can0 080#3007
(1715866590.092052) can0 425#0000
(1715866590.092160) can0 080#3007
(1715866590.102188) can0 425#0000
(1715866590.102279) can0 080#3007
(1715866590.112051) can0 425#0000
(1715866590.112159) can0 080#3007
(1715866590.122157) can0 425#0000
(1715866590.122280) can0 080#3007
(1715866590.132056) can0 425#0000
(1715866590.132161) can0 080#3007
(1715866590.142155) can0 425#0000
(1715866590.142279) can0 080#3007
(1715866590.152050) can0 425#0000
(1715866590.152158) can0 080#3007
(1715866590.162172) can0 425#0000
(1715866590.162279) can0 080#3007
(1715866590.172050) can0 425#0000
(1715866590.172159) can0 080#3007
(1715866590.182156) can0 425#0000
(1715866590.182278) can0 080#3007
(1715866590.192066) can0 425#0000
(1715866590.192158) can0 080#3007
(1715866590.202856) can0 425#0000
(1715866590.202980) can0 080#3007
(1715866590.212048) can0 425#0000
(1715866590.212158) can0 080#3007
(1715866590.222173) can0 425#0000
(1715866590.222277) can0 080#3007
(1715866590.232049) can0 425#0000
(1715866590.232157) can0 080#3007
(1715866590.242154) can0 425#0000
(1715866590.242277) can0 080#3007
(1715866590.252066) can0 425#0000
(1715866590.252160) can0 080#3007
(1715866590.262155) can0 425#0000
(1715866590.262302) can0 080#3007
(1715866590.272047) can0 425#0000
(1715866590.272157) can0 080#3007
(1715866590.282172) can0 425#0000
(1715866590.282276) can0 080#3007
(1715866590.292048) can0 425#0000
(1715866590.292163) can0 080#3007
(1715866590.302154) can0 425#0000
(1715866590.302276) can0 080#3007
(1715866590.312038) can0 425#0000
(1715866590.312156) can0 080#3007
(1715866590.322153) can0 425#0000
(1715866590.322276) can0 080#3007
(1715866590.332066) can0 425#0000
(1715866590.332158) can0 080#3007
(1715866590.342257) can0 425#0000
(1715866590.342294) can0 080#3007
(1715866590.352127) can0 425#0000
(1715866590.352166) can0 080#3007
(1715866590.362173) can0 425#0000
(1715866590.362278) can0 080#3007
(1715866590.372136) can0 425#0000
(1715866590.372139) can0 080#3007
(1715866590.382244) can0 425#0000
(1715866590.382277) can0 080#3007
(1715866590.392140) can0 425#0000
(1715866590.392143) can0 080#3007
(1715866590.402179) can0 425#0000
(1715866590.402295) can0 080#3007
(1715866590.412136) can0 425#0000
(1715866590.412168) can0 080#3007
(1715866590.422174) can0 425#0000
(1715866590.422280) can0 080#3007
(1715866590.432068) can0 425#0000
(1715866590.432156) can0 080#3007
(1715866590.442243) can0 425#0000
(1715866590.442275) can0 080#3007
(1715866590.452139) can0 425#0000
(1715866590.452175) can0 080#3007
(1715866590.462278) can0 425#0000
(1715866590.462310) can0 080#3007
(1715866590.472063) can0 425#0000
(1715866590.472157) can0 080#3007
(1715866590.482172) can0 425#0000
(1715866590.482278) can0 080#3007
(1715866590.492129) can0 425#0000
(1715866590.492162) can0 080#3007
(1715866590.502272) can0 425#0000
(1715866590.502304) can0 080#3007
(1715866590.512135) can0 425#0000
(1715866590.512168) can0 080#3007
(1715866590.522180) can0 425#0000
(1715866590.522273) can0 080#3007
(1715866590.532127) can0 425#0000
(1715866590.532130) can0 080#3007
(1715866590.542171) can0 425#0000
(1715866590.542279) can0 080#3007
(1715866590.552129) can0 425#0000
(1715866590.552132) can0 080#3007
(1715866590.562223) can0 425#0000
(1715866590.562238) can0 080#3007
(1715866590.572126) can0 425#0000
(1715866590.572128) can0 080#3007
(1715866590.582177) can0 425#0000
(1715866590.582271) can0 080#3007
(1715866590.592126) can0 425#0000
(1715866590.592160) can0 080#3007
(1715866590.602219) can0 425#0000
(1715866590.602257) can0 080#3007
(1715866590.612123) can0 425#0000
(1715866590.612130) can0 080#3007
(1715866590.622146) can0 425#0000
(1715866590.622272) can0 080#3007
(1715866590.632062) can0 425#0000
(1715866590.632149) can0 080#3007
(1715866590.642287) can0 425#0000
(1715866590.642320) can0 080#3007
(1715866590.652136) can0 425#0000
(1715866590.652169) can0 080#3007
(1715866590.662217) can0 425#0000
(1715866590.662259) can0 080#3007
(1715866590.672066) can0 425#0000
(1715866590.672152) can0 080#3007
(1715866590.682248) can0 425#0000
(1715866590.682280) can0 080#3007
(1715866590.692132) can0 425#0000
(1715866590.692165) can0 080#3007
(1715866590.702190) can0 425#0000
(1715866590.702246) can0 080#3007
(1715866590.712121) can0 425#0000
(1715866590.712125) can0 080#3007
(1715866590.722228) can0 425#0000
(1715866590.722270) can0 080#3007
(1715866590.732108) can0 425#0000
(1715866590.732118) can0 080#3007
(1715866590.742228) can0 425#0000
(1715866590.742265) can0 080#3007
(1715866590.752060) can0 425#0000
(1715866590.752152) can0 080#3007
(1715866590.762194) can0 425#0000
(1715866590.762237) can0 080#3007
(1715866590.772133) can0 425#0000
(1715866590.772170) can0 080#3007
(1715866590.782211) can0 425#0000
(1715866590.782251) can0 080#3007
(1715866590.792122) can0 425#0000
(1715866590.792134) can0 080#3007
(1715866590.802202) can0 425#0000
(1715866590.802245) can0 080#3007
(1715866590.812121) can0 425#0000
(1715866590.812153) can0 080#3007
(1715866590.822151) can0 425#0000
(1715866590.822268) can0 080#3007
(1715866590.832065) can0 425#0000
(1715866590.832152) can0 080#3007
(1715866590.842169) can0 425#0000
(1715866590.842268) can0 080#3007
(1715866590.852122) can0 425#0000
(1715866590.852154) can0 080#3007
(1715866590.862228) can0 425#0000
(1715866590.862260) can0 080#3007
(1715866590.872147) can0 425#0000
(1715866590.872179) can0 080#3007
(1715866590.882163) can0 425#0000
(1715866590.882268) can0 080#3007
(1715866590.892053) can0 425#0000
(1715866590.892145) can0 080#3007
(1715866590.902145) can0 425#0000
(1715866590.902267) can0 080#3007
(1715866590.912158) can0 425#0000
(1715866590.912161) can0 080#3007
(1715866590.922200) can0 425#0000
(1715866590.922262) can0 080#3007
(1715866590.932037) can0 425#0000
(1715866590.932146) can0 080#3007
(1715866590.942233) can0 425#0000
(1715866590.942265) can0 080#3007
(1715866590.952121) can0 425#0000
(1715866590.952124) can0 080#3007
(1715866590.962210) can0 425#0000
(1715866590.962254) can0 080#3007
(1715866590.972028) can0 425#0000
(1715866590.972156) can0 080#3007
(1715866590.982123) can0 425#0000
(1715866590.982266) can0 080#3007
(1715866590.992126) can0 425#0000
(1715866590.992158) can0 080#3007
(1715866591.002165) can0 425#0000
(1715866591.002270) can0 080#3007
(1715866591.012024) can0 425#0000
(1715866591.012156) can0 080#3007
(1715866591.022127) can0 425#0000
(1715866591.022264) can0 080#3007
(1715866591.032027) can0 425#0000
(1715866591.032177) can0 080#3007
(1715866591.042191) can0 425#0000
(1715866591.042269) can0 080#3007
(1715866591.052123) can0 425#0000
