(1716837988.138214) can0 425#0000
(1716837988.138339) can0 080#7207
(1716837988.148035) can0 425#0000
(1716837988.148154) can0 080#7207
(1716837988.158186) can0 425#0000
(1716837988.158326) can0 080#7207
(1716837988.168169) can0 425#0000
(1716837988.168243) can0 080#7207
(1716837988.178289) can0 425#0000
(1716837988.178402) can0 080#7207
(1716837988.188005) can0 425#0000
(1716837988.188156) can0 080#7207
(1716837988.198232) can0 425#0000
(1716837988.198327) can0 080#7207
(1716837988.208034) can0 425#0000
(1716837988.208155) can0 080#7207
(1716837988.218230) can0 425#0000
(1716837988.218327) can0 080#7207
(1716837988.228016) can0 425#0000
(1716837988.228156) can0 080#7207
(1716837988.238206) can0 425#0000
(1716837988.238326) can0 080#7207
(1716837988.248016) can0 425#0000
(1716837988.248156) can0 080#7207
(1716837988.258186) can0 425#0000
(1716837988.258327) can0 080#7207
(1716837988.268033) can0 425#0000
(1716837988.268156) can0 080#7207
(1716837988.278188) can0 425#0000
(1716837988.278327) can0 080#7207
(1716837988.288017) can0 425#0000
(1716837988.288156) can0 080#7207
(1716837988.298188) can0 425#0000
(1716837988.298327) can0 080#7207
(1716837988.308019) can0 425#0000
(1716837988.308156) can0 080#7207
(1716837988.318187) can0 425#0000
(1716837988.318327) can0 080#7207
(1716837988.328017) can0 425#0000
(1716837988.328156) can0 080#7207
(1716837988.338187) can0 425#0000
(1716837988.338327) can0 080#7207
(1716837988.348017) can0 425#0000
(1716837988.348157) can0 080#7207
(1716837988.358210) can0 425#0000
(1716837988.358327) can0 080#7207
(1716837988.368158) can0 425#0000
(1716837988.368255) can0 080#7207
(1716837988.378291) can0 425#0000
(1716837988.378403) can0 080#7207
(1716837988.388016) can0 425#0000
(1716837988.388157) can0 080#7207
(1716837988.398193) can0 425#0000
(1716837988.398327) can0 080#7207
(1716837988.408017) can0 425#0000
(1716837988.408157) can0 080#7207
(1716837988.418192) can0 425#0000
(1716837988.418328) can0 080#7207
(1716837988.428019) can0 425#0000
(1716837988.428157) can0 080#7207
(1716837988.438189) can0 425#0000
(1716837988.438328) can0 080#7207
(1716837988.448019) can0 425#0000
(1716837988.448157) can0 080#7207
(1716837988.458190) can0 425#0000
(1716837988.458328) can0 080#7207
(1716837988.468018) can0 425#0000
(1716837988.468156) can0 080#7207
(1716837988.478188) can0 425#0000
(1716837988.478328) can0 080#7207
(1716837988.488018) can0 425#0000
(1716837988.488157) can0 080#7207
(1716837988.498214) can0 425#0000
(1716837988.498329) can0 080#7207
(1716837988.508017) can0 425#0000
(1716837988.508157) can0 080#7207
(1716837988.518224) can0 425#0000
(1716837988.518328) can0 080#7207
(1716837988.528017) can0 425#0000
(1716837988.528157) can0 080#7207
(1716837988.538189) can0 425#0000
(1716837988.538328) can0 080#7207
(1716837988.548041) can0 425#0000
(1716837988.548159) can0 080#7207
(1716837988.558209) can0 425#0000
(1716837988.558328) can0 080#7207
(1716837988.568160) can0 425#0000
(1716837988.568256) can0 080#7207
(1716837988.578294) can0 425#0000
(1716837988.578404) can0 080#7207
(1716837988.588034) can0 425#0000
(1716837988.588158) can0 080#7207
(1716837988.598177) can0 425#0000
(1716837988.598304) can0 080#7207
(1716837988.608019) can0 425#0000
(1716837988.608157) can0 080#7207
(1716837988.618188) can0 425#0000
(1716837988.618328) can0 080#7207
(1716837988.628018) can0 425#0000
(1716837988.628157) can0 080#7207
(1716837988.638188) can0 425#0000
(1716837988.638304) can0 080#7207
(1716837988.648017) can0 425#0000
(1716837988.648158) can0 080#7207
(1716837988.658209) can0 425#0000
(1716837988.658329) can0 080#7207
(1716837988.668018) can0 425#0000
(1716837988.668159) can0 080#7207
(1716837988.678209) can0 425#0000
(1716837988.678329) can0 080#7207
(1716837988.688020) can0 425#0000
(1716837988.688158) can0 080#7207
(1716837988.698215) can0 425#0000
(1716837988.698329) can0 080#7207
(1716837988.708021) can0 425#0000
(1716837988.708158) can0 080#7207
(1716837988.718243) can0 425#0000
(1716837988.718329) can0 080#7207
(1716837988.728037) can0 425#0000
(1716837988.728158) can0 080#7207
(1716837988.738190) can0 425#0000
(1716837988.738305) can0 080#7207
(1716837988.748693) can0 425#0000
(1716837988.748866) can0 080#7207
(1716837988.758241) can0 425#0000
(1716837988.758380) can0 080#7107
(1716837988.768179) can0 425#0000
(1716837988.768257) can0 080#7107
(1716837988.778293) can0 425#0000
(1716837988.778404) can0 080#7107
(1716837988.788051) can0 425#0000
(1716837988.788158) can0 080#7107
(1716837988.798244) can0 425#0000
(1716837988.798330) can0 080#7107
(1716837988.808017) can0 425#0000
(1716837988.808158) can0 080#7107
(1716837988.818210) can0 425#0000
(1716837988.818329) can0 080#7107
(1716837988.828044) can0 425#0000
(1716837988.828159) can0 080#7107
(1716837988.838209) can0 425#0000
(1716837988.838330) can0 080#7107
(1716837988.848019) can0 425#0000
(1716837988.848159) can0 080#7107
(1716837988.858197) can0 425#0000
(1716837988.858330) can0 080#7107
(1716837988.868045) can0 425#0000
(1716837988.868189) can0 080#7107
(1716837988.878191) can0 425#0000
(1716837988.878330) can0 080#7107
(1716837988.888022) can0 425#0000
(1716837988.888160) can0 080#7107
(1716837988.898189) can0 425#0000
(1716837988.898306) can0 080#7107
(1716837988.908022) can0 425#0000
(1716837988.908159) can0 080#7107
(1716837988.918189) can0 425#0000
(1716837988.918306) can0 080#7107
(1716837988.928017) can0 425#0000
(1716837988.928159) can0 080#7107
(1716837988.938191) can0 425#0000
(1716837988.938306) can0 080#7107
(1716837988.948018) can0 425#0000
(1716837988.948158) can0 080#7107
(1716837988.958194) can0 425#0000
(1716837988.958330) can0 080#7107
(1716837988.968180) can0 425#0000
(1716837988.968190) can0 080#7107
(1716837988.978295) can0 425#0000
(1716837988.978405) can0 080#7107
(1716837988.988021) can0 425#0000
(1716837988.988159) can0 080#7107
(1716837988.998215) can0 425#0000
(1716837988.998306) can0 080#7107
(1716837989.008021) can0 425#0000
(1716837989.008160) can0 080#7107
(1716837989.018211) can0 425#0000
(1716837989.018331) can0 080#7107
(1716837989.028018) can0 425#0000
(1716837989.028159) can0 080#7107
(1716837989.038190) can0 425#0000
(1716837989.038306) can0 080#7107
(1716837989.048019) can0 425#0000
(1716837989.048159) can0 080#7107
(1716837989.058193) can0 425#0000
(1716837989.058306) can0 080#7107
(1716837989.068020) can0 425#0000
(1716837989.068160) can0 080#7107
(1716837989.078211) can0 425#0000
(1716837989.078331) can0 080#7107
(1716837989.088024) can0 425#0000
(1716837989.088160) can0 080#7107
(1716837989.098193) can0 425#0000
(1716837989.098306) can0 080#7107
(1716837989.108023) can0 425#0000
(1716837989.108160) can0 080#7107
(1716837989.118194) can0 425#0000
(1716837989.118306) can0 080#7107
(1716837989.128040) can0 425#0000
(1716837989.128160) can0 080#7107
(1716837989.138194) can0 425#0000
(1716837989.138306) can0 080#7107
(1716837989.148024) can0 425#0000
(1716837989.148160) can0 080#7107
(1716837989.158192) can0 425#0000
(1716837989.158332) can0 080#7107
(1716837989.168181) can0 425#0000
(1716837989.168191) can0 080#7107
(1716837989.178294) can0 425#0000
(1716837989.178406) can0 080#7107
(1716837989.188037) can0 425#0000
(1716837989.188160) can0 080#7107
(1716837989.198214) can0 425#0000
(1716837989.198320) can0 080#7107
(1716837989.208022) can0 425#0000
(1716837989.208161) can0 080#7107
(1716837989.218195) can0 425#0000
(1716837989.218332) can0 080#7107
(1716837989.228020) can0 425#0000
(1716837989.228160) can0 080#7107
(1716837989.238191) can0 425#0000
(1716837989.238308) can0 080#7107
(1716837989.248032) can0 425#0000
(1716837989.248160) can0 080#7107
(1716837989.258198) can0 425#0000
(1716837989.258331) can0 080#7107
(1716837989.268023) can0 425#0000
(1716837989.268161) can0 080#7107
(1716837989.278167) can0 425#0000
(1716837989.278308) can0 080#7107
(1716837989.288025) can0 425#0000
(1716837989.288161) can0 080#7107
(1716837989.298191) can0 425#0000
(1716837989.298306) can0 080#7107
(1716837989.308023) can0 425#0000
(1716837989.308161) can0 080#7107
(1716837989.318192) can0 425#0000
(1716837989.318308) can0 080#7107
(1716837989.328022) can0 425#0000
(1716837989.328161) can0 080#7107
(1716837989.338192) can0 425#0000
(1716837989.338307) can0 080#7107
(1716837989.348024) can0 425#0000
(1716837989.348161) can0 080#7107
(1716837989.358214) can0 425#0000
(1716837989.358307) can0 080#7107
(1716837989.368099) can0 425#0000
(1716837989.368244) can0 080#7107
(1716837989.378273) can0 425#0000
(1716837989.378407) can0 080#7107
(1716837989.388021) can0 425#0000
(1716837989.388161) can0 080#7107
(1716837989.398186) can0 425#0000
(1716837989.398320) can0 080#7107
(1716837989.408041) can0 425#0000
(1716837989.408161) can0 080#7107
(1716837989.418195) can0 425#0000
(1716837989.418321) can0 080#7107
(1716837989.428042) can0 425#0000
(1716837989.428161) can0 080#7107
(1716837989.438185) can0 425#0000
(1716837989.438320) can0 080#7107
(1716837989.448039) can0 425#0000
(1716837989.448162) can0 080#7107
(1716837989.458188) can0 425#0000
(1716837989.458321) can0 080#7107
(1716837989.468042) can0 425#0000
(1716837989.468162) can0 080#7107
(1716837989.478187) can0 425#0000
(1716837989.478320) can0 080#7107
(1716837989.488021) can0 425#0000
(1716837989.488162) can0 080#7107
(1716837989.498181) can0 425#0000
(1716837989.498346) can0 080#7107
(1716837989.508045) can0 425#0000
(1716837989.508162) can0 080#7107
(1716837989.518180) can0 425#0000
(1716837989.518321) can0 080#7107
(1716837989.528025) can0 425#0000
(1716837989.528162) can0 080#7107
(1716837989.538188) can0 425#0000
(1716837989.538321) can0 080#7107
(1716837989.548042) can0 425#0000
(1716837989.548163) can0 080#7107
(1716837989.558191) can0 425#0000
(1716837989.558321) can0 080#7107
(1716837989.568101) can0 425#0000
(1716837989.568245) can0 080#7107
(1716837989.578294) can0 425#0000
(1716837989.578421) can0 080#7107
(1716837989.588046) can0 425#0000
(1716837989.588162) can0 080#7107
(1716837989.598196) can0 425#0000
(1716837989.598325) can0 080#7107
(1716837989.608081) can0 425#0000
(1716837989.608163) can0 080#7107
(1716837989.618184) can0 425#0000
(1716837989.618309) can0 080#7107
(1716837989.628057) can0 425#0000
(1716837989.628166) can0 080#7107
(1716837989.638182) can0 425#0000
(1716837989.638323) can0 080#7107
(1716837989.648042) can0 425#0000
(1716837989.648163) can0 080#7107
(1716837989.658191) can0 425#0000
(1716837989.658321) can0 080#7107
(1716837989.668043) can0 425#0000
(1716837989.668163) can0 080#7107
(1716837989.678187) can0 425#0000
(1716837989.678322) can0 080#7107
(1716837989.688022) can0 425#0000
(1716837989.688164) can0 080#7107
(1716837989.698216) can0 425#0000
(1716837989.698321) can0 080#7107
(1716837989.708046) can0 425#0000
(1716837989.708163) can0 080#7107
(1716837989.718196) can0 425#0000
(1716837989.718322) can0 080#7107
(1716837989.728025) can0 425#0000
(1716837989.728196) can0 080#7107
(1716837989.738188) can0 425#0000
(1716837989.738322) can0 080#7107
(1716837989.748701) can0 425#0000
(1716837989.748822) can0 080#7107
(1716837989.758242) can0 425#0000
(1716837989.758372) can0 080#7107
(1716837989.768187) can0 425#0000
(1716837989.768194) can0 080#7107
(1716837989.778265) can0 425#0000
(1716837989.778423) can0 080#7107
(1716837989.788041) can0 425#0000
(1716837989.788164) can0 080#7107
(1716837989.798181) can0 425#0000
(1716837989.798322) can0 080#7107
(1716837989.808046) can0 425#0000
(1716837989.808164) can0 080#7107
(1716837989.818188) can0 425#0000
(1716837989.818323) can0 080#7107
(1716837989.828024) can0 425#0000
(1716837989.828164) can0 080#7107
(1716837989.838188) can0 425#0000
(1716837989.838322) can0 080#7107
(1716837989.848050) can0 425#0000
(1716837989.848165) can0 080#7107
(1716837989.858188) can0 425#0000
(1716837989.858323) can0 080#7107
(1716837989.868051) can0 425#0000
(1716837989.868194) can0 080#7107
(1716837989.878190) can0 425#0000
(1716837989.878323) can0 080#7107
(1716837989.888059) can0 425#0000
(1716837989.888163) can0 080#7107
(1716837989.898188) can0 425#0000
(1716837989.898322) can0 080#7107
(1716837989.908028) can0 425#0000
(1716837989.908164) can0 080#7107
(1716837989.918189) can0 425#0000
(1716837989.918324) can0 080#7107
(1716837989.928025) can0 425#0000
(1716837989.928164) can0 080#7107
(1716837989.938191) can0 425#0000
(1716837989.938324) can0 080#7107
(1716837989.948048) can0 425#0000
(1716837989.948165) can0 080#7107
(1716837989.958184) can0 425#0000
(1716837989.958323) can0 080#7107
(1716837989.968100) can0 425#0000
(1716837989.968248) can0 080#7107
(1716837989.978294) can0 425#0000
(1716837989.978423) can0 080#7107
(1716837989.988024) can0 425#0000
(1716837989.988165) can0 080#7107
(1716837989.998188) can0 425#0000
(1716837989.998322) can0 080#7107
(1716837990.008044) can0 425#0000
(1716837990.008165) can0 080#7107
(1716837990.018183) can0 425#0000
(1716837990.018324) can0 080#7107
(1716837990.028043) can0 425#0000
(1716837990.028164) can0 080#7107
(1716837990.038189) can0 425#0000
(1716837990.038294) can0 080#7107
(1716837990.048043) can0 425#0000
(1716837990.048165) can0 080#7107
(1716837990.058184) can0 425#0000
(1716837990.058323) can0 080#7107
(1716837990.068028) can0 425#0000
(1716837990.068165) can0 080#7107
(1716837990.078184) can0 425#0000
(1716837990.078357) can0 080#7107
(1716837990.088043) can0 425#0000
(1716837990.088165) can0 080#7107
(1716837990.098187) can0 425#0000
(1716837990.098324) can0 080#7107
(1716837990.108045) can0 425#0000
(1716837990.108165) can0 080#7107
(1716837990.118192) can0 425#0000
(1716837990.118323) can0 080#7107
(1716837990.128045) can0 425#0000
(1716837990.128166) can0 080#7107
(1716837990.138189) can0 425#0000
(1716837990.138324) can0 080#7107
(1716837990.148046) can0 425#0000
(1716837990.148166) can0 080#7107
(1716837990.158192) can0 425#0000
(1716837990.158324) can0 080#7107
(1716837990.168100) can0 425#0000
(1716837990.168249) can0 080#7107
(1716837990.178267) can0 425#0000
(1716837990.178424) can0 080#7107
(1716837990.188046) can0 425#0000
(1716837990.188165) can0 080#7107
(1716837990.198189) can0 425#0000
(1716837990.198324) can0 080#7107
(1716837990.208027) can0 425#0000
(1716837990.208165) can0 080#7107
(1716837990.218193) can0 425#0000
(1716837990.218325) can0 080#7107
(1716837990.228028) can0 425#0000
(1716837990.228166) can0 080#7107
(1716837990.238190) can0 425#0000
(1716837990.238325) can0 080#7107
(1716837990.248029) can0 425#0000
(1716837990.248166) can0 080#7107
(1716837990.258188) can0 425#0000
(1716837990.258328) can0 080#7107
(1716837990.268027) can0 425#0000
(1716837990.268167) can0 080#7107
(1716837990.278209) can0 425#0000
(1716837990.278324) can0 080#7107
(1716837990.288025) can0 425#0000
(1716837990.288166) can0 080#7107
(1716837990.298190) can0 425#0000
(1716837990.298325) can0 080#7107
(1716837990.308029) can0 425#0000
(1716837990.308166) can0 080#7107
(1716837990.318190) can0 425#0000
(1716837990.318325) can0 080#7107
(1716837990.328028) can0 425#0000
(1716837990.328172) can0 080#7107
(1716837990.338188) can0 425#0000
(1716837990.338325) can0 080#7107
(1716837990.348029) can0 425#0000
(1716837990.348167) can0 080#7107
(1716837990.358185) can0 425#0000
(1716837990.358324) can0 080#7107
(1716837990.368103) can0 425#0000
(1716837990.368250) can0 080#7107
(1716837990.378267) can0 425#0000
(1716837990.378426) can0 080#7107
(1716837990.388047) can0 425#0000
(1716837990.388167) can0 080#7107
(1716837990.398186) can0 425#0000
(1716837990.398325) can0 080#7107
(1716837990.408027) can0 425#0000
(1716837990.408167) can0 080#7107
(1716837990.418191) can0 425#0000
(1716837990.418326) can0 080#7107
(1716837990.428053) can0 425#0000
(1716837990.428168) can0 080#7107
(1716837990.438191) can0 425#0000
(1716837990.438325) can0 080#7107
(1716837990.448026) can0 425#0000
(1716837990.448167) can0 080#7107
(1716837990.458192) can0 425#0000
(1716837990.458326) can0 080#7107
(1716837990.468029) can0 425#0000
(1716837990.468169) can0 080#7107
(1716837990.478191) can0 425#0000
(1716837990.478325) can0 080#7107
(1716837990.488049) can0 425#0000
(1716837990.488167) can0 080#7107
(1716837990.498193) can0 425#0000
(1716837990.498326) can0 080#7107
(1716837990.508029) can0 425#0000
(1716837990.508168) can0 080#7107
(1716837990.518185) can0 425#0000
(1716837990.518327) can0 080#7107
(1716837990.528046) can0 425#0000
(1716837990.528168) can0 080#7107
(1716837990.538186) can0 425#0000
(1716837990.538326) can0 080#7107
(1716837990.548027) can0 425#0000
(1716837990.548167) can0 080#7107
(1716837990.558223) can0 425#0000
(1716837990.558326) can0 080#7107
(1716837990.568102) can0 425#0000
(1716837990.568225) can0 080#7107
(1716837990.578269) can0 425#0000
(1716837990.578426) can0 080#7107
(1716837990.588028) can0 425#0000
(1716837990.588168) can0 080#7107
(1716837990.598186) can0 425#0000
(1716837990.598325) can0 080#7107
(1716837990.608029) can0 425#0000
(1716837990.608168) can0 080#7107
(1716837990.618192) can0 425#0000
(1716837990.618326) can0 080#7107
(1716837990.628027) can0 425#0000
(1716837990.628168) can0 080#7107
(1716837990.638189) can0 425#0000
(1716837990.638327) can0 080#7107
(1716837990.648027) can0 425#0000
(1716837990.648168) can0 080#7107
(1716837990.658189) can0 425#0000
(1716837990.658327) can0 080#7107
(1716837990.668029) can0 425#0000
(1716837990.668201) can0 080#7107
(1716837990.678199) can0 425#0000
(1716837990.678327) can0 080#7107
(1716837990.688029) can0 425#0000
(1716837990.688168) can0 080#7107
(1716837990.698199) can0 425#0000
(1716837990.698327) can0 080#7107
(1716837990.708030) can0 425#0000
(1716837990.708156) can0 080#7107
(1716837990.718200) can0 425#0000
(1716837990.718327) can0 080#7107
(1716837990.728029) can0 425#0000
(1716837990.728157) can0 080#7107
(1716837990.738221) can0 425#0000
(1716837990.738328) can0 080#7107
(1716837990.748682) can0 425#0000
(1716837990.748815) can0 080#7107
(1716837990.758253) can0 425#0000
(1716837990.758377) can0 080#7207
(1716837990.768104) can0 425#0000
(1716837990.768239) can0 080#7207
(1716837990.778282) can0 425#0000
(1716837990.778428) can0 080#7207
(1716837990.788004) can0 425#0000
(1716837990.788157) can0 080#7207
(1716837990.798200) can0 425#0000
(1716837990.798328) can0 080#7207
(1716837990.808031) can0 425#0000
(1716837990.808157) can0 080#7207
(1716837990.818200) can0 425#0000
(1716837990.818327) can0 080#7207
(1716837990.828034) can0 425#0000
(1716837990.828157) can0 080#7207
(1716837990.838222) can0 425#0000
(1716837990.838328) can0 080#7207
(1716837990.848025) can0 425#0000
(1716837990.848157) can0 080#7207
(1716837990.858204) can0 425#0000
(1716837990.858328) can0 080#7207
(1716837990.868055) can0 425#0000
(1716837990.868157) can0 080#7207
(1716837990.878203) can0 425#0000
(1716837990.878328) can0 080#7207
(1716837990.888029) can0 425#0000
(1716837990.888157) can0 080#7207
(1716837990.898227) can0 425#0000
(1716837990.898334) can0 080#7207
(1716837990.908049) can0 425#0000
(1716837990.908157) can0 080#7207
(1716837990.918201) can0 425#0000
(1716837990.918328) can0 080#7207
(1716837990.928010) can0 425#0000
(1716837990.928157) can0 080#7207
(1716837990.938201) can0 425#0000
(1716837990.938328) can0 080#7207
(1716837990.948051) can0 425#0000
(1716837990.948157) can0 080#7207
(1716837990.958206) can0 425#0000
(1716837990.958328) can0 080#7207
(1716837990.968126) can0 425#0000
(1716837990.968214) can0 080#7207
(1716837990.978279) can0 425#0000
(1716837990.978403) can0 080#7207
(1716837990.988052) can0 425#0000
(1716837990.988157) can0 080#7207
(1716837990.998211) can0 425#0000
(1716837990.998329) can0 080#7207
(1716837991.008031) can0 425#0000
(1716837991.008157) can0 080#7207
(1716837991.018226) can0 425#0000
(1716837991.018329) can0 080#7207
(1716837991.028006) can0 425#0000
(1716837991.028159) can0 080#7207
(1716837991.038227) can0 425#0000
(1716837991.038333) can0 080#7207
(1716837991.048007) can0 425#0000
(1716837991.048158) can0 080#7207
(1716837991.058211) can0 425#0000
(1716837991.058329) can0 080#7207
(1716837991.068039) can0 425#0000
(1716837991.068159) can0 080#7207
(1716837991.078205) can0 425#0000
(1716837991.078328) can0 080#7207
(1716837991.088006) can0 425#0000
(1716837991.088158) can0 080#7207
(1716837991.098224) can0 425#0000
(1716837991.098329) can0 080#7207
(1716837991.108031) can0 425#0000
(1716837991.108158) can0 080#7207
(1716837991.118202) can0 425#0000
(1716837991.118329) can0 080#7207
(1716837991.128035) can0 425#0000
(1716837991.128158) can0 080#7207
(1716837991.138192) can0 425#0000
(1716837991.138330) can0 080#7207
(1716837991.148013) can0 425#0000
(1716837991.148158) can0 080#7207
(1716837991.158204) can0 425#0000
(1716837991.158329) can0 080#7207
(1716837991.168127) can0 425#0000
(1716837991.168241) can0 080#7207
(1716837991.178308) can0 425#2300
(1716837991.178429) can0 080#7207
(1716837991.188050) can0 425#2300
(1716837991.188159) can0 080#7207
(1716837991.198225) can0 425#2300
(1716837991.198329) can0 080#7207
(1716837991.208031) can0 425#2300
(1716837991.208159) can0 080#7207
(1716837991.218205) can0 425#2300
(1716837991.218329) can0 080#7207
(1716837991.228028) can0 425#2300
(1716837991.228160) can0 080#7207
(1716837991.238226) can0 425#2300
(1716837991.238332) can0 080#7207
(1716837991.248007) can0 425#2300
(1716837991.248159) can0 080#7207
(1716837991.258205) can0 425#2300
(1716837991.258330) can0 080#7207
(1716837991.268027) can0 425#2300
(1716837991.268159) can0 080#7207
(1716837991.278204) can0 425#2300
(1716837991.278329) can0 080#7207
(1716837991.288029) can0 425#2300
(1716837991.288160) can0 080#7207
(1716837991.298227) can0 425#2300
(1716837991.298331) can0 080#7207
(1716837991.308032) can0 425#2300
(1716837991.308160) can0 080#7207
(1716837991.318230) can0 425#2300
(1716837991.318331) can0 080#7207
(1716837991.328010) can0 425#2300
(1716837991.328160) can0 080#7207
(1716837991.338202) can0 425#2300
(1716837991.338330) can0 080#7207
(1716837991.348026) can0 425#2300
(1716837991.348159) can0 080#7207
(1716837991.358210) can0 425#2300
(1716837991.358330) can0 080#7207
(1716837991.368126) can0 425#2300
(1716837991.368242) can0 080#7207
(1716837991.378298) can0 425#5400
(1716837991.378431) can0 080#7207
(1716837991.388064) can0 425#5400
(1716837991.388160) can0 080#7207
(1716837991.398203) can0 425#5400
(1716837991.398331) can0 080#7207
(1716837991.408029) can0 425#5400
(1716837991.408161) can0 080#7207
(1716837991.418204) can0 425#5400
(1716837991.418330) can0 080#7207
(1716837991.428024) can0 425#5400
(1716837991.428159) can0 080#7207
(1716837991.438225) can0 425#5400
(1716837991.438343) can0 080#7207
(1716837991.448032) can0 425#5400
(1716837991.448160) can0 080#7207
(1716837991.458223) can0 425#5400
(1716837991.458330) can0 080#7207
(1716837991.468028) can0 425#5400
(1716837991.468160) can0 080#7207
(1716837991.478223) can0 425#5400
(1716837991.478331) can0 080#7207
(1716837991.488028) can0 425#5400
(1716837991.488159) can0 080#7207
(1716837991.498206) can0 425#5400
(1716837991.498331) can0 080#7207
(1716837991.508026) can0 425#5400
(1716837991.508161) can0 080#7207
(1716837991.518228) can0 425#5400
(1716837991.518331) can0 080#7207
(1716837991.528036) can0 425#5400
(1716837991.528160) can0 080#7207
(1716837991.538206) can0 425#5400
(1716837991.538332) can0 080#7207
(1716837991.548010) can0 425#5400
(1716837991.548160) can0 080#7207
(1716837991.558207) can0 425#5400
(1716837991.558330) can0 080#7207
(1716837991.568109) can0 425#5400
(1716837991.568217) can0 080#7207
(1716837991.578285) can0 425#6A00
(1716837991.578472) can0 080#7207
(1716837991.588026) can0 425#6A00
(1716837991.588161) can0 080#7207
(1716837991.598204) can0 425#6A00
(1716837991.598332) can0 080#7207
(1716837991.608055) can0 425#6A00
(1716837991.608161) can0 080#7207
(1716837991.618204) can0 425#6A00
(1716837991.618331) can0 080#7207
(1716837991.628051) can0 425#6A00
(1716837991.628161) can0 080#7207
(1716837991.638231) can0 425#6A00
(1716837991.638328) can0 080#7207
(1716837991.648027) can0 425#6A00
(1716837991.648162) can0 080#7207
(1716837991.658227) can0 425#6A00
(1716837991.658332) can0 080#7207
(1716837991.668004) can0 425#6A00
(1716837991.668161) can0 080#7207
(1716837991.678207) can0 425#6A00
(1716837991.678333) can0 080#7207
(1716837991.688027) can0 425#6A00
(1716837991.688162) can0 080#7207
(1716837991.698208) can0 425#6A00
(1716837991.698332) can0 080#7207
(1716837991.708019) can0 425#6A00
(1716837991.708161) can0 080#7207
(1716837991.718205) can0 425#6A00
(1716837991.718332) can0 080#7207
(1716837991.728066) can0 425#6A00
(1716837991.728161) can0 080#7207
(1716837991.738206) can0 425#6A00
(1716837991.738332) can0 080#7207
(1716837991.748684) can0 425#6A00
(1716837991.748795) can0 080#7207
(1716837991.758231) can0 425#6A00
(1716837991.758394) can0 080#7307
(1716837991.768128) can0 425#6A00
(1716837991.768244) can0 080#7307
(1716837991.778283) can0 425#5C00
(1716837991.778433) can0 080#7307
(1716837991.788011) can0 425#5C00
(1716837991.788161) can0 080#7307
(1716837991.798206) can0 425#5C00
(1716837991.798332) can0 080#7307
(1716837991.808029) can0 425#5C00
(1716837991.808162) can0 080#7307
(1716837991.818205) can0 425#5C00
(1716837991.818333) can0 080#7307
(1716837991.828009) can0 425#5C00
(1716837991.828162) can0 080#7307
(1716837991.838207) can0 425#5C00
(1716837991.838332) can0 080#7307
(1716837991.848008) can0 425#5C00
(1716837991.848162) can0 080#7307
(1716837991.858209) can0 425#5C00
(1716837991.858334) can0 080#7307
(1716837991.868034) can0 425#5C00
(1716837991.868163) can0 080#7307
(1716837991.878175) can0 425#5C00
(1716837991.878323) can0 080#7307
(1716837991.888029) can0 425#5C00
(1716837991.888162) can0 080#7307
(1716837991.898206) can0 425#5C00
(1716837991.898333) can0 080#7307
(1716837991.908028) can0 425#5C00
(1716837991.908163) can0 080#7307
(1716837991.918230) can0 425#5C00
(1716837991.918334) can0 080#7307
(1716837991.928010) can0 425#5C00
(1716837991.928163) can0 080#7307
(1716837991.938206) can0 425#5C00
(1716837991.938333) can0 080#7307
(1716837991.948005) can0 425#5C00
(1716837991.948174) can0 080#7307
(1716837991.958206) can0 425#5C00
(1716837991.958333) can0 080#7307
(1716837991.968088) can0 425#5C00
(1716837991.968231) can0 080#7307
(1716837991.978288) can0 425#5800
(1716837991.978434) can0 080#7307
(1716837991.988000) can0 425#5800
(1716837991.988175) can0 080#7307
(1716837991.998207) can0 425#5800
(1716837991.998334) can0 080#7307
(1716837992.008033) can0 425#5800
(1716837992.008175) can0 080#7307
(1716837992.018226) can0 425#5800
(1716837992.018334) can0 080#7307
(1716837992.028038) can0 425#5800
(1716837992.028175) can0 080#7307
(1716837992.038232) can0 425#5800
(1716837992.038336) can0 080#7307
(1716837992.048004) can0 425#5800
(1716837992.048175) can0 080#7307
(1716837992.058207) can0 425#5800
(1716837992.058333) can0 080#7307
(1716837992.068004) can0 425#5800
(1716837992.068176) can0 080#7307
(1716837992.078225) can0 425#5800
(1716837992.078334) can0 080#7307
(1716837992.087999) can0 425#5800
(1716837992.088177) can0 080#7307
(1716837992.098225) can0 425#5800
(1716837992.098334) can0 080#7307
(1716837992.108000) can0 425#5800
(1716837992.108175) can0 080#7307
(1716837992.118180) can0 425#5800
(1716837992.118324) can0 080#7307
(1716837992.127998) can0 425#5800
(1716837992.128176) can0 080#7307
(1716837992.138226) can0 425#5800
(1716837992.138334) can0 080#7307
(1716837992.148006) can0 425#5800
(1716837992.148176) can0 080#7307
(1716837992.158225) can0 425#5800
(1716837992.158335) can0 080#7307
(1716837992.168105) can0 425#5800
(1716837992.168233) can0 080#7307
(1716837992.178285) can0 425#5400
(1716837992.178435) can0 080#7307
(1716837992.188006) can0 425#5400
(1716837992.188177) can0 080#7307
(1716837992.198207) can0 425#5400
(1716837992.198334) can0 080#7307
(1716837992.208005) can0 425#5400
(1716837992.208176) can0 080#7307
(1716837992.218199) can0 425#5400
(1716837992.218325) can0 080#7307
(1716837992.228002) can0 425#5400
(1716837992.228177) can0 080#7307
(1716837992.238210) can0 425#5400
(1716837992.238335) can0 080#7307
(1716837992.248000) can0 425#5400
(1716837992.248177) can0 080#7307
(1716837992.258199) can0 425#5400
(1716837992.258325) can0 080#7307
(1716837992.268008) can0 425#5400
(1716837992.268176) can0 080#7307
(1716837992.278178) can0 425#5400
(1716837992.278326) can0 080#7307
(1716837992.288001) can0 425#5400
(1716837992.288177) can0 080#7307
(1716837992.298225) can0 425#5400
(1716837992.298335) can0 080#7307
(1716837992.308021) can0 425#5400
(1716837992.308177) can0 080#7307
(1716837992.318210) can0 425#5400
(1716837992.318335) can0 080#7307
(1716837992.328006) can0 425#5400
(1716837992.328177) can0 080#7307
(1716837992.338196) can0 425#5400
(1716837992.338326) can0 080#7307
(1716837992.348002) can0 425#5400
(1716837992.348177) can0 080#7307
(1716837992.358199) can0 425#5400
(1716837992.358325) can0 080#7307
(1716837992.368100) can0 425#5400
(1716837992.368234) can0 080#7307
(1716837992.378288) can0 425#3500
(1716837992.378411) can0 080#7307
(1716837992.388000) can0 425#3500
(1716837992.388177) can0 080#7307
(1716837992.398178) can0 425#3500
(1716837992.398326) can0 080#7307
(1716837992.408038) can0 425#3500
(1716837992.408177) can0 080#7307
(1716837992.418179) can0 425#3500
(1716837992.418326) can0 080#7307
(1716837992.428001) can0 425#3500
(1716837992.428179) can0 080#7307
(1716837992.438185) can0 425#3500
(1716837992.438328) can0 080#7307
(1716837992.448009) can0 425#3500
(1716837992.448177) can0 080#7307
(1716837992.458178) can0 425#3500
(1716837992.458326) can0 080#7307
(1716837992.468000) can0 425#3500
(1716837992.468177) can0 080#7307
(1716837992.478214) can0 425#3500
(1716837992.478317) can0 080#7307
(1716837992.488009) can0 425#3500
(1716837992.488177) can0 080#7307
(1716837992.498231) can0 425#3500
(1716837992.498326) can0 080#7307
(1716837992.508003) can0 425#3500
(1716837992.508178) can0 080#7307
(1716837992.518197) can0 425#3500
(1716837992.518326) can0 080#7307
(1716837992.528008) can0 425#3500
(1716837992.528178) can0 080#7307
(1716837992.538202) can0 425#3500
(1716837992.538327) can0 080#7307
(1716837992.548034) can0 425#3500
(1716837992.548178) can0 080#7307
(1716837992.558178) can0 425#3500
(1716837992.558326) can0 080#7307
(1716837992.568077) can0 425#3500
(1716837992.568234) can0 080#7307
(1716837992.578306) can0 425#4100
(1716837992.578411) can0 080#7307
(1716837992.588007) can0 425#4100
(1716837992.588179) can0 080#7307
(1716837992.598211) can0 425#4100
(1716837992.598312) can0 080#7307
(1716837992.608005) can0 425#4100
(1716837992.608179) can0 080#7307
(1716837992.618197) can0 425#4100
(1716837992.618327) can0 080#7307
(1716837992.628003) can0 425#4100
(1716837992.628178) can0 080#7307
(1716837992.638241) can0 425#4100
(1716837992.638327) can0 080#7307
(1716837992.648008) can0 425#4100
(1716837992.648179) can0 080#7307
(1716837992.658185) can0 425#4100
(1716837992.658327) can0 080#7307
(1716837992.668002) can0 425#4100
(1716837992.668179) can0 080#7307
(1716837992.678179) can0 425#4100
(1716837992.678328) can0 080#7307
(1716837992.688006) can0 425#4100
(1716837992.688166) can0 080#7307
(1716837992.698180) can0 425#4100
(1716837992.698356) can0 080#7307
(1716837992.708007) can0 425#4100
(1716837992.708179) can0 080#7307
(1716837992.718182) can0 425#4100
(1716837992.718327) can0 080#7307
(1716837992.728008) can0 425#4100
(1716837992.728179) can0 080#7307
(1716837992.738179) can0 425#4100
(1716837992.738328) can0 080#7307
(1716837992.748681) can0 425#4100
(1716837992.748813) can0 080#7307
(1716837992.758237) can0 425#4100
(1716837992.758387) can0 080#7307
(1716837992.768100) can0 425#4100
(1716837992.768236) can0 080#7307
(1716837992.778310) can0 425#7700
(1716837992.778412) can0 080#7307
(1716837992.788001) can0 425#7700
(1716837992.788181) can0 080#7307
(1716837992.798183) can0 425#7700
(1716837992.798327) can0 080#7307
(1716837992.808003) can0 425#7700
(1716837992.808180) can0 080#7307
(1716837992.818179) can0 425#7700
(1716837992.818328) can0 080#7307
(1716837992.828002) can0 425#7700
(1716837992.828179) can0 080#7307
(1716837992.838183) can0 425#7700
(1716837992.838328) can0 080#7307
(1716837992.848006) can0 425#7700
(1716837992.848179) can0 080#7307
(1716837992.858183) can0 425#7700
(1716837992.858328) can0 080#7307
(1716837992.868027) can0 425#7700
(1716837992.868180) can0 080#7307
(1716837992.878198) can0 425#7700
(1716837992.878328) can0 080#7307
(1716837992.888044) can0 425#7700
(1716837992.888180) can0 080#7307
(1716837992.898227) can0 425#7700
(1716837992.898329) can0 080#7307
(1716837992.908004) can0 425#7700
(1716837992.908180) can0 080#7307
(1716837992.918183) can0 425#7700
(1716837992.918328) can0 080#7307
(1716837992.928002) can0 425#7700
(1716837992.928180) can0 080#7307
(1716837992.938219) can0 425#7700
(1716837992.938329) can0 080#7307
(1716837992.948002) can0 425#7700
(1716837992.948180) can0 080#7307
(1716837992.958181) can0 425#7700
(1716837992.958331) can0 080#7307
(1716837992.968079) can0 425#7700
(1716837992.968237) can0 080#7307
(1716837992.978291) can0 425#C500
(1716837992.978414) can0 080#7307
(1716837992.988007) can0 425#C500
(1716837992.988180) can0 080#7307
(1716837992.998202) can0 425#C500
(1716837992.998329) can0 080#7307
(1716837993.008006) can0 425#C500
(1716837993.008181) can0 080#7307
(1716837993.018201) can0 425#C500
(1716837993.018329) can0 080#7307
(1716837993.028027) can0 425#C500
(1716837993.028181) can0 080#7307
(1716837993.038181) can0 425#C500
(1716837993.038329) can0 080#7307
(1716837993.048007) can0 425#C500
(1716837993.048181) can0 080#7307
(1716837993.058185) can0 425#C500
(1716837993.058330) can0 080#7307
(1716837993.068002) can0 425#C500
(1716837993.068181) can0 080#7307
(1716837993.078214) can0 425#C500
(1716837993.078320) can0 080#7307
(1716837993.088002) can0 425#C500
(1716837993.088181) can0 080#7307
(1716837993.098184) can0 425#C500
(1716837993.098330) can0 080#7307
(1716837993.108016) can0 425#C500
(1716837993.108182) can0 080#7307
(1716837993.118183) can0 425#C500
(1716837993.118330) can0 080#7307
(1716837993.128038) can0 425#C500
(1716837993.128181) can0 080#7307
(1716837993.138187) can0 425#C500
(1716837993.138330) can0 080#7307
(1716837993.148038) can0 425#C500
(1716837993.148181) can0 080#7307
(1716837993.158186) can0 425#C500
(1716837993.158330) can0 080#7307
(1716837993.168079) can0 425#C500
(1716837993.168238) can0 080#7307
(1716837993.178310) can0 425#DA00
(1716837993.178415) can0 080#7307
(1716837993.188004) can0 425#DA00
(1716837993.188181) can0 080#7307
(1716837993.198184) can0 425#DA00
(1716837993.198330) can0 080#7307
(1716837993.208003) can0 425#DA00
(1716837993.208181) can0 080#7307
(1716837993.218184) can0 425#DA00
(1716837993.218317) can0 080#7307
(1716837993.228015) can0 425#DA00
(1716837993.228182) can0 080#7307
(1716837993.238187) can0 425#DA00
(1716837993.238330) can0 080#7307
(1716837993.248016) can0 425#DA00
(1716837993.248182) can0 080#7307
(1716837993.258184) can0 425#DA00
(1716837993.258318) can0 080#7307
(1716837993.268072) can0 425#DA00
(1716837993.268184) can0 080#7307
(1716837993.278183) can0 425#DA00
(1716837993.278318) can0 080#7307
(1716837993.288017) can0 425#DA00
(1716837993.288181) can0 080#7307
(1716837993.298186) can0 425#DA00
(1716837993.298318) can0 080#7307
(1716837993.308019) can0 425#DA00
(1716837993.308182) can0 080#7307
(1716837993.318182) can0 425#DA00
(1716837993.318318) can0 080#7307
(1716837993.328021) can0 425#DA00
(1716837993.328183) can0 080#7307
(1716837993.338209) can0 425#DA00
(1716837993.338318) can0 080#7307
(1716837993.347983) can0 425#DA00
(1716837993.348182) can0 080#7307
(1716837993.358185) can0 425#DA00
(1716837993.358318) can0 080#7307
(1716837993.368092) can0 425#DA00
(1716837993.368239) can0 080#7307
(1716837993.378295) can0 425#BC00
(1716837993.378404) can0 080#7307
(1716837993.388020) can0 425#BC00
(1716837993.388182) can0 080#7307
(1716837993.398185) can0 425#BC00
(1716837993.398319) can0 080#7307
(1716837993.408019) can0 425#BC00
(1716837993.408183) can0 080#7307
(1716837993.418202) can0 425#BC00
(1716837993.418319) can0 080#7307
(1716837993.428022) can0 425#BC00
(1716837993.428183) can0 080#7307
(1716837993.438206) can0 425#BC00
(1716837993.438319) can0 080#7307
(1716837993.448036) can0 425#BC00
(1716837993.448183) can0 080#7307
(1716837993.458248) can0 425#BC00
(1716837993.458298) can0 080#7307
(1716837993.468021) can0 425#BC00
(1716837993.468184) can0 080#7307
(1716837993.478184) can0 425#BC00
(1716837993.478319) can0 080#7307
(1716837993.488018) can0 425#BC00
(1716837993.488183) can0 080#7307
(1716837993.498186) can0 425#BC00
(1716837993.498319) can0 080#7307
(1716837993.508017) can0 425#BC00
(1716837993.508183) can0 080#7307
(1716837993.518184) can0 425#BC00
(1716837993.518319) can0 080#7307
(1716837993.528018) can0 425#BC00
(1716837993.528183) can0 080#7307
(1716837993.538205) can0 425#BC00
(1716837993.538320) can0 080#7307
(1716837993.548018) can0 425#BC00
(1716837993.548184) can0 080#7307
(1716837993.558211) can0 425#BC00
(1716837993.558319) can0 080#7307
(1716837993.568113) can0 425#BC00
(1716837993.568240) can0 080#7307
(1716837993.578295) can0 425#9400
(1716837993.578405) can0 080#7307
(1716837993.588072) can0 425#9400
(1716837993.588183) can0 080#7307
(1716837993.598186) can0 425#9400
(1716837993.598319) can0 080#7307
(1716837993.608017) can0 425#9400
(1716837993.608223) can0 080#7307
(1716837993.618188) can0 425#9400
(1716837993.618353) can0 080#7307
(1716837993.628020) can0 425#9400
(1716837993.628184) can0 080#7307
(1716837993.638184) can0 425#9400
(1716837993.638320) can0 080#7307
(1716837993.648019) can0 425#9400
(1716837993.648202) can0 080#7307
(1716837993.658203) can0 425#9400
(1716837993.658320) can0 080#7307
(1716837993.668021) can0 425#9400
(1716837993.668184) can0 080#7307
(1716837993.678237) can0 425#9400
(1716837993.678320) can0 080#7307
(1716837993.688017) can0 425#9400
(1716837993.688184) can0 080#7307
(1716837993.698184) can0 425#9400
(1716837993.698320) can0 080#7307
(1716837993.708020) can0 425#9400
(1716837993.708184) can0 080#7307
(1716837993.718178) can0 425#9400
(1716837993.718321) can0 080#7307
(1716837993.728020) can0 425#9400
(1716837993.728184) can0 080#7307
(1716837993.738187) can0 425#9400
(1716837993.738321) can0 080#7307
(1716837993.748672) can0 425#9400
(1716837993.748818) can0 080#7307
(1716837993.758244) can0 425#9400
(1716837993.758356) can0 080#7307
(1716837993.768117) can0 425#9400
(1716837993.768241) can0 080#7307
(1716837993.778293) can0 425#7B00
(1716837993.778406) can0 080#7307
(1716837993.788021) can0 425#7B00
(1716837993.788185) can0 080#7307
(1716837993.798237) can0 425#7B00
(1716837993.798320) can0 080#7307
(1716837993.808021) can0 425#7B00
(1716837993.808185) can0 080#7307
(1716837993.818187) can0 425#7B00
(1716837993.818321) can0 080#7307
(1716837993.827993) can0 425#7B00
(1716837993.828184) can0 080#7307
(1716837993.838203) can0 425#7B00
(1716837993.838321) can0 080#7307
(1716837993.848188) can0 425#7B00
(1716837993.848334) can0 080#7307
(1716837993.858189) can0 425#7B00
(1716837993.858321) can0 080#7307
(1716837993.868064) can0 425#7B00
(1716837993.868184) can0 080#7307
(1716837993.878244) can0 425#7B00
(1716837993.878294) can0 080#7307
(1716837993.887996) can0 425#7B00
(1716837993.888185) can0 080#7307
(1716837993.898185) can0 425#7B00
(1716837993.898321) can0 080#7307
(1716837993.908021) can0 425#7B00
(1716837993.908185) can0 080#7307
(1716837993.918205) can0 425#7B00
(1716837993.918296) can0 080#7307
(1716837993.928023) can0 425#7B00
(1716837993.928185) can0 080#7307
(1716837993.938187) can0 425#7B00
(1716837993.938322) can0 080#7307
(1716837993.948039) can0 425#7B00
(1716837993.948186) can0 080#7307
(1716837993.958187) can0 425#7B00
(1716837993.958296) can0 080#7307
(1716837993.968097) can0 425#7B00
(1716837993.968242) can0 080#7307
(1716837993.978311) can0 425#7100
(1716837993.978407) can0 080#7307
(1716837993.988021) can0 425#7100
(1716837993.988186) can0 080#7307
(1716837993.998189) can0 425#7100
(1716837993.998322) can0 080#7307
(1716837994.007996) can0 425#7100
(1716837994.008186) can0 080#7307
(1716837994.018204) can0 425#7100
(1716837994.018322) can0 080#7307
(1716837994.027997) can0 425#7100
(1716837994.028187) can0 080#7307
(1716837994.038205) can0 425#7100
(1716837994.038322) can0 080#7307
(1716837994.048015) can0 425#7100
(1716837994.048186) can0 080#7307
(1716837994.058189) can0 425#7100
(1716837994.058322) can0 080#7307
(1716837994.067998) can0 425#7100
(1716837994.068186) can0 080#7307
(1716837994.078192) can0 425#7100
(1716837994.078297) can0 080#7307
(1716837994.088020) can0 425#7100
(1716837994.088187) can0 080#7307
(1716837994.098186) can0 425#7100
(1716837994.098323) can0 080#7307
(1716837994.108017) can0 425#7100
(1716837994.108187) can0 080#7307
(1716837994.118190) can0 425#7100
(1716837994.118322) can0 080#7307
(1716837994.127995) can0 425#7100
(1716837994.128186) can0 080#7307
(1716837994.138216) can0 425#7100
(1716837994.138322) can0 080#7307
(1716837994.147996) can0 425#7100
(1716837994.148187) can0 080#7307
(1716837994.158205) can0 425#7100
(1716837994.158323) can0 080#7307
(1716837994.168097) can0 425#7100
(1716837994.168243) can0 080#7307
(1716837994.178273) can0 425#5D00
(1716837994.178408) can0 080#7307
(1716837994.187996) can0 425#5D00
(1716837994.188187) can0 080#7307
(1716837994.198190) can0 425#5D00
(1716837994.198323) can0 080#7307
(1716837994.208020) can0 425#5D00
(1716837994.208187) can0 080#7307
(1716837994.218187) can0 425#5D00
(1716837994.218323) can0 080#7307
(1716837994.227999) can0 425#5D00
(1716837994.228186) can0 080#7307
(1716837994.238188) can0 425#5D00
(1716837994.238323) can0 080#7307
(1716837994.248022) can0 425#5D00
(1716837994.248186) can0 080#7307
(1716837994.258190) can0 425#5D00
(1716837994.258323) can0 080#7307
(1716837994.268022) can0 425#5D00
(1716837994.268187) can0 080#7307
(1716837994.278191) can0 425#5D00
(1716837994.278324) can0 080#7307
(1716837994.288022) can0 425#5D00
(1716837994.288187) can0 080#7307
(1716837994.298187) can0 425#5D00
(1716837994.298298) can0 080#7307
(1716837994.307998) can0 425#5D00
(1716837994.308187) can0 080#7307
(1716837994.318206) can0 425#5D00
(1716837994.318323) can0 080#7307
(1716837994.328041) can0 425#5D00
(1716837994.328187) can0 080#7307
(1716837994.338190) can0 425#5D00
(1716837994.338298) can0 080#7307
(1716837994.348022) can0 425#5D00
(1716837994.348187) can0 080#7307
(1716837994.358188) can0 425#5D00
(1716837994.358324) can0 080#7307
(1716837994.368097) can0 425#5D00
(1716837994.368244) can0 080#7307
(1716837994.378271) can0 425#5800
(1716837994.378409) can0 080#7307
(1716837994.388023) can0 425#5800
(1716837994.388187) can0 080#7307
(1716837994.398207) can0 425#5800
(1716837994.398298) can0 080#7307
(1716837994.407996) can0 425#5800
(1716837994.408188) can0 080#7307
(1716837994.418192) can0 425#5800
(1716837994.418324) can0 080#7307
(1716837994.427997) can0 425#5800
(1716837994.428188) can0 080#7307
(1716837994.438189) can0 425#5800
(1716837994.438325) can0 080#7307
(1716837994.447998) can0 425#5800
(1716837994.448189) can0 080#7307
(1716837994.458191) can0 425#5800
(1716837994.458324) can0 080#7307
(1716837994.468014) can0 425#5800
(1716837994.468187) can0 080#7307
(1716837994.478207) can0 425#5800
(1716837994.478324) can0 080#7307
(1716837994.487998) can0 425#5800
(1716837994.488188) can0 080#7307
(1716837994.498182) can0 425#5800
(1716837994.498312) can0 080#7307
(1716837994.507997) can0 425#5800
(1716837994.508188) can0 080#7307
(1716837994.518249) can0 425#5800
(1716837994.518336) can0 080#7307
(1716837994.528000) can0 425#5800
(1716837994.528188) can0 080#7307
(1716837994.538176) can0 425#5800
(1716837994.538337) can0 080#7307
(1716837994.548016) can0 425#5800
(1716837994.548188) can0 080#7307
(1716837994.558176) can0 425#5800
(1716837994.558313) can0 080#7307
(1716837994.568101) can0 425#5800
(1716837994.568220) can0 080#7307
(1716837994.578266) can0 425#7C00
(1716837994.578422) can0 080#7307
(1716837994.588023) can0 425#7C00
(1716837994.588189) can0 080#7307
(1716837994.598183) can0 425#7C00
(1716837994.598337) can0 080#7307
(1716837994.608001) can0 425#7C00
(1716837994.608189) can0 080#7307
(1716837994.618183) can0 425#7C00
(1716837994.618312) can0 080#7307
(1716837994.628042) can0 425#7C00
(1716837994.628189) can0 080#7307
(1716837994.638177) can0 425#7C00
(1716837994.638312) can0 080#7307
(1716837994.648017) can0 425#7C00
(1716837994.648190) can0 080#7307
(1716837994.658177) can0 425#7C00
(1716837994.658340) can0 080#7307
(1716837994.668046) can0 425#7C00
(1716837994.668189) can0 080#7307
(1716837994.678178) can0 425#7C00
(1716837994.678338) can0 080#7307
(1716837994.688016) can0 425#7C00
(1716837994.688194) can0 080#7307
(1716837994.698211) can0 425#7C00
(1716837994.698337) can0 080#7307
(1716837994.707998) can0 425#7C00
(1716837994.708190) can0 080#7307
(1716837994.718183) can0 425#7C00
(1716837994.718313) can0 080#7307
(1716837994.728024) can0 425#7C00
(1716837994.728189) can0 080#7307
(1716837994.738190) can0 425#7C00
(1716837994.738339) can0 080#7307
(1716837994.748693) can0 425#7C00
(1716837994.748848) can0 080#7307
(1716837994.758268) can0 425#7C00
(1716837994.758373) can0 080#7207
(1716837994.768116) can0 425#7C00
(1716837994.768246) can0 080#7207
(1716837994.778286) can0 425#6400
(1716837994.778423) can0 080#7207
(1716837994.787999) can0 425#6400
(1716837994.788190) can0 080#7207
(1716837994.798183) can0 425#6400
(1716837994.798339) can0 080#7207
(1716837994.807999) can0 425#6400
(1716837994.808190) can0 080#7207
(1716837994.818180) can0 425#6400
(1716837994.818314) can0 080#7207
(1716837994.828001) can0 425#6400
(1716837994.828189) can0 080#7207
(1716837994.838185) can0 425#6400
(1716837994.838339) can0 080#7207
(1716837994.847999) can0 425#6400
(1716837994.848190) can0 080#7207
(1716837994.858179) can0 425#6400
(1716837994.858313) can0 080#7207
(1716837994.868026) can0 425#6400
(1716837994.868190) can0 080#7207
(1716837994.878184) can0 425#6400
(1716837994.878314) can0 080#7207
(1716837994.888024) can0 425#6400
(1716837994.888190) can0 080#7207
(1716837994.898182) can0 425#6400
(1716837994.898339) can0 080#7207
(1716837994.908001) can0 425#6400
(1716837994.908190) can0 080#7207
(1716837994.918184) can0 425#6400
(1716837994.918341) can0 080#7207
(1716837994.928003) can0 425#6400
(1716837994.928191) can0 080#7207
(1716837994.938185) can0 425#6400
(1716837994.938313) can0 080#7207
(1716837994.948019) can0 425#6400
(1716837994.948191) can0 080#7207
(1716837994.958185) can0 425#6400
(1716837994.958315) can0 080#7207
(1716837994.968102) can0 425#6400
(1716837994.968221) can0 080#7207
(1716837994.978290) can0 425#5400
(1716837994.978424) can0 080#7207
(1716837994.988002) can0 425#5400
(1716837994.988191) can0 080#7207
(1716837994.998179) can0 425#5400
(1716837994.998314) can0 080#7207
(1716837995.008021) can0 425#5400
(1716837995.008190) can0 080#7207
(1716837995.018216) can0 425#5400
(1716837995.018314) can0 080#7207
(1716837995.028000) can0 425#5400
(1716837995.028191) can0 080#7207
(1716837995.038183) can0 425#5400
(1716837995.038315) can0 080#7207
(1716837995.048020) can0 425#5400
(1716837995.048191) can0 080#7207
(1716837995.058185) can0 425#5400
(1716837995.058315) can0 080#7207
(1716837995.068002) can0 425#5400
(1716837995.068192) can0 080#7207
(1716837995.078185) can0 425#5400
(1716837995.078315) can0 080#7207
(1716837995.088018) can0 425#5400
(1716837995.088202) can0 080#7207
(1716837995.098187) can0 425#5400
(1716837995.098315) can0 080#7207
(1716837995.108019) can0 425#5400
(1716837995.108192) can0 080#7207
(1716837995.118179) can0 425#5400
(1716837995.118315) can0 080#7207
(1716837995.128003) can0 425#5400
(1716837995.128191) can0 080#7207
(1716837995.138187) can0 425#5400
(1716837995.138315) can0 080#7207
(1716837995.148002) can0 425#5400
(1716837995.148192) can0 080#7207
(1716837995.158205) can0 425#5400
(1716837995.158315) can0 080#7207
(1716837995.168101) can0 425#5400
(1716837995.168222) can0 080#7207
(1716837995.178264) can0 425#3E00
(1716837995.178426) can0 080#7207
(1716837995.188002) can0 425#3E00
(1716837995.188192) can0 080#7207
(1716837995.198186) can0 425#3E00
(1716837995.198315) can0 080#7207
(1716837995.208004) can0 425#3E00
(1716837995.208192) can0 080#7207
(1716837995.218180) can0 425#3E00
(1716837995.218338) can0 080#7207
(1716837995.228004) can0 425#3E00
(1716837995.228192) can0 080#7207
(1716837995.238186) can0 425#3E00
(1716837995.238316) can0 080#7207
(1716837995.248021) can0 425#3E00
(1716837995.248192) can0 080#7207
(1716837995.258186) can0 425#3E00
(1716837995.258315) can0 080#7207
(1716837995.268004) can0 425#3E00
(1716837995.268192) can0 080#7207
(1716837995.278214) can0 425#3E00
(1716837995.278316) can0 080#7207
(1716837995.288023) can0 425#3E00
(1716837995.288193) can0 080#7207
(1716837995.298186) can0 425#3E00
(1716837995.298315) can0 080#7207
(1716837995.308004) can0 425#3E00
(1716837995.308192) can0 080#7207
(1716837995.318186) can0 425#3E00
(1716837995.318316) can0 080#7207
(1716837995.328027) can0 425#3E00
(1716837995.328193) can0 080#7207
(1716837995.338186) can0 425#3E00
(1716837995.338316) can0 080#7207
(1716837995.348022) can0 425#3E00
(1716837995.348192) can0 080#7207
(1716837995.358186) can0 425#3E00
(1716837995.358317) can0 080#7207
(1716837995.368103) can0 425#3E00
(1716837995.368223) can0 080#7207
(1716837995.378296) can0 425#0800
(1716837995.378426) can0 080#7207
(1716837995.388005) can0 425#0800
(1716837995.388193) can0 080#7207
(1716837995.398188) can0 425#0800
(1716837995.398342) can0 080#7207
(1716837995.408022) can0 425#0800
(1716837995.408193) can0 080#7207
(1716837995.418186) can0 425#0800
(1716837995.418316) can0 080#7207
(1716837995.428048) can0 425#0800
(1716837995.428193) can0 080#7207
(1716837995.438188) can0 425#0800
(1716837995.438342) can0 080#7207
(1716837995.448042) can0 425#0800
(1716837995.448192) can0 080#7207
(1716837995.458187) can0 425#0800
(1716837995.458317) can0 080#7207
(1716837995.468025) can0 425#0800
(1716837995.468193) can0 080#7207
(1716837995.478186) can0 425#0800
(1716837995.478316) can0 080#7207
(1716837995.488006) can0 425#0800
(1716837995.488194) can0 080#7207
(1716837995.498183) can0 425#0800
(1716837995.498317) can0 080#7207
(1716837995.508005) can0 425#0800
(1716837995.508194) can0 080#7207
(1716837995.518187) can0 425#0800
(1716837995.518343) can0 080#7207
(1716837995.528025) can0 425#0800
(1716837995.528196) can0 080#7207
(1716837995.538187) can0 425#0800
(1716837995.538342) can0 080#7207
(1716837995.548021) can0 425#0800
(1716837995.548193) can0 080#7207
(1716837995.558186) can0 425#0800
(1716837995.558317) can0 080#7207
(1716837995.568133) can0 425#0800
(1716837995.568250) can0 080#7207
(1716837995.578264) can0 425#0000
(1716837995.578402) can0 080#7207
(1716837995.588002) can0 425#0000
(1716837995.588194) can0 080#7207
(1716837995.598187) can0 425#0000
(1716837995.598318) can0 080#7207
(1716837995.608004) can0 425#0000
(1716837995.608195) can0 080#7207
(1716837995.618183) can0 425#0000
(1716837995.618317) can0 080#7207
(1716837995.628006) can0 425#0000
(1716837995.628194) can0 080#7207
(1716837995.638188) can0 425#0000
(1716837995.638318) can0 080#7207
(1716837995.648025) can0 425#0000
(1716837995.648194) can0 080#7207
(1716837995.658188) can0 425#0000
(1716837995.658317) can0 080#7207
(1716837995.668004) can0 425#0000
(1716837995.668194) can0 080#7207
(1716837995.678188) can0 425#0000
(1716837995.678318) can0 080#7207
(1716837995.688003) can0 425#0000
(1716837995.688194) can0 080#7207
(1716837995.698186) can0 425#0000
(1716837995.698318) can0 080#7207
(1716837995.708003) can0 425#0000
(1716837995.708194) can0 080#7207
(1716837995.718189) can0 425#0000
(1716837995.718319) can0 080#7207
(1716837995.728022) can0 425#0000
(1716837995.728195) can0 080#7207
(1716837995.738206) can0 425#0000
(1716837995.738318) can0 080#7207
(1716837995.748698) can0 425#0000
(1716837995.748803) can0 080#7207
(1716837995.758219) can0 425#0000
(1716837995.758365) can0 080#7307
(1716837995.768104) can0 425#0000
(1716837995.768212) can0 080#7307
(1716837995.778298) can0 425#0000
(1716837995.778403) can0 080#7307
(1716837995.788021) can0 425#0000
(1716837995.788129) can0 080#7307
(1716837995.798200) can0 425#0000
(1716837995.798318) can0 080#7307
(1716837995.808000) can0 425#0000
(1716837995.808182) can0 080#7307
(1716837995.818195) can0 425#0000
(1716837995.818371) can0 080#7307
(1716837995.822454) can0 100#00000000
(1716837995.823973) can0 100#00000000
(1716837995.825533) can0 100#05000000
(1716837995.827073) can0 100#0A000000
(1716837995.828008) can0 425#0000
(1716837995.828183) can0 080#7307
(1716837995.828608) can0 100#0F000000
(1716837995.830196) can0 100#14000000
(1716837995.831693) can0 100#19000000
(1716837995.833213) can0 100#1E000000
(1716837995.834768) can0 100#23000000
(1716837995.836303) can0 100#28000000
(1716837995.837859) can0 100#2D000000
(1716837995.838189) can0 425#0000
(1716837995.838319) can0 080#7307
(1716837995.839378) can0 100#32000000
(1716837995.840933) can0 100#37000000
(1716837995.842456) can0 100#3C000000
(1716837995.844021) can0 100#41000000
(1716837995.845543) can0 100#46000000
(1716837995.847083) can0 100#4B000000
(1716837995.847997) can0 425#0000
(1716837995.848129) can0 080#7307
(1716837995.848623) can0 100#50000000
(1716837995.850101) can0 100#55000000
(1716837995.851686) can0 100#5A000000
(1716837995.853251) can0 100#5F000000
(1716837995.854784) can0 100#64000000
(1716837995.856328) can0 100#69000000
(1716837995.857845) can0 100#6E000000
(1716837995.858034) can0 425#0000
(1716837995.858195) can0 080#7307
(1716837995.859404) can0 100#73000000
(1716837995.860930) can0 100#78000000
(1716837995.862479) can0 100#7D000000
(1716837995.864019) can0 100#82000000
(1716837995.865548) can0 100#87000000
(1716837995.867081) can0 100#8C000000
(1716837995.868035) can0 425#0000
(1716837995.868197) can0 080#7307
(1716837995.868634) can0 100#91000000
(1716837995.870183) can0 100#96000000
(1716837995.871719) can0 100#9B000000
(1716837995.873252) can0 100#A0000000
(1716837995.874798) can0 100#A5000000
(1716837995.876316) can0 100#AA000000
(1716837995.877879) can0 100#AF000000
(1716837995.878079) can0 425#0000
(1716837995.878196) can0 080#7307
(1716837995.879441) can0 100#B4000000
(1716837995.880968) can0 100#B9000000
(1716837995.882504) can0 100#BE000000
(1716837995.884019) can0 100#C3000000
(1716837995.885546) can0 100#C8000000
(1716837995.887094) can0 100#CD000000
(1716837995.887961) can0 425#0000
(1716837995.888129) can0 080#7307
(1716837995.888612) can0 100#D2000000
(1716837995.890195) can0 100#D7000000
(1716837995.891693) can0 100#DC000000
(1716837995.893226) can0 100#E1000000
(1716837995.894757) can0 100#E6000000
(1716837995.896303) can0 100#E6000000
(1716837995.897859) can0 100#EB000000
(1716837995.898034) can0 425#0000
(1716837995.898186) can0 080#7307
(1716837995.899444) can0 100#F0000000
(1716837995.900949) can0 100#F5000000
(1716837995.902478) can0 100#FA000000
(1716837995.903982) can0 100#FF000000
(1716837995.905534) can0 100#04010000
(1716837995.907067) can0 100#09010000
(1716837995.908005) can0 425#0000
(1716837995.908183) can0 080#7307
(1716837995.908604) can0 100#0E010000
(1716837995.910144) can0 100#13010000
(1716837995.911684) can0 100#18010000
(1716837995.913213) can0 100#1D010000
(1716837995.914768) can0 100#22010000
(1716837995.916304) can0 100#27010000
(1716837995.917844) can0 100#2C010000
(1716837995.918032) can0 425#0000
(1716837995.918196) can0 080#7307
(1716837995.919354) can0 100#31010000
(1716837995.920909) can0 100#36010000
(1716837995.922442) can0 100#3B010000
(1716837995.923970) can0 100#40010000
(1716837995.925504) can0 100#45010000
(1716837995.927043) can0 100#4A010000
(1716837995.927999) can0 425#0000
(1716837995.928196) can0 080#7307
(1716837995.928586) can0 100#4F010000
(1716837995.930130) can0 100#54010000
(1716837995.931647) can0 100#59010000
(1716837995.933195) can0 100#5E010000
(1716837995.934734) can0 100#63010000
(1716837995.936278) can0 100#68010000
(1716837995.937807) can0 100#6D010000
(1716837995.938231) can0 425#0000
(1716837995.938354) can0 080#7307
(1716837995.939354) can0 100#72010000
(1716837995.940882) can0 100#77010000
(1716837995.942454) can0 100#7C010000
(1716837995.943958) can0 100#81010000
(1716837995.945493) can0 100#86010000
(1716837995.947021) can0 100#8B010000
(1716837995.948005) can0 425#0000
(1716837995.948195) can0 080#7307
(1716837995.948574) can0 100#90010000
(1716837995.950097) can0 100#95010000
(1716837995.951644) can0 100#9A010000
(1716837995.953196) can0 100#9F010000
(1716837995.954719) can0 100#9F010000
(1716837995.956240) can0 100#A4010000
(1716837995.957794) can0 100#A9010000
(1716837995.958226) can0 425#0000
(1716837995.958329) can0 080#7307
(1716837995.959320) can0 100#AE010000
(1716837995.960894) can0 100#B3010000
(1716837995.962392) can0 100#B8010000
(1716837995.963931) can0 100#BD010000
(1716837995.965457) can0 100#C2010000
(1716837995.967009) can0 100#C7010000
(1716837995.968079) can0 425#0000
(1716837995.968227) can0 080#7307
(1716837995.968507) can0 100#CC010000
(1716837995.970084) can0 100#D1010000
(1716837995.971633) can0 100#D6010000
(1716837995.973195) can0 100#DB010000
(1716837995.974706) can0 100#E0010000
(1716837995.976252) can0 100#E5010000
(1716837995.977804) can0 100#EA010000
(1716837995.978303) can0 425#0000
(1716837995.978418) can0 080#7307
(1716837995.979356) can0 100#EF010000
(1716837995.980919) can0 100#F4010000
(1716837995.982460) can0 100#F9010000
(1716837995.983981) can0 100#FE010000
(1716837995.985534) can0 100#03020000
(1716837995.987069) can0 100#08020000
(1716837995.988007) can0 425#0000
(1716837995.988184) can0 080#7307
(1716837995.988610) can0 100#0D020000
(1716837995.990196) can0 100#12020000
(1716837995.991694) can0 100#17020000
(1716837995.993214) can0 100#1C020000
(1716837995.994769) can0 100#21020000
(1716837995.996304) can0 100#26020000
(1716837995.997858) can0 100#2B020000
(1716837995.998022) can0 425#0000
(1716837995.998197) can0 080#7307
(1716837995.999405) can0 100#30020000
(1716837996.000944) can0 100#35020000
(1716837996.002472) can0 100#3A020000
(1716837996.003999) can0 100#3F020000
(1716837996.005534) can0 100#44020000
(1716837996.007069) can0 100#49020000
(1716837996.007997) can0 425#0000
(1716837996.008130) can0 080#7307
(1716837996.008604) can0 100#4E020000
(1716837996.010144) can0 100#53020000
(1716837996.011662) can0 100#58020000
(1716837996.013195) can0 100#5D020000
(1716837996.014744) can0 100#5D020000
(1716837996.016278) can0 100#62020000
(1716837996.017812) can0 100#67020000
(1716837996.018228) can0 425#0000
(1716837996.018355) can0 080#7307
(1716837996.019379) can0 100#6C020000
(1716837996.020908) can0 100#71020000
(1716837996.022444) can0 100#76020000
(1716837996.023985) can0 100#7B020000
(1716837996.025529) can0 100#80020000
(1716837996.027047) can0 100#85020000
(1716837996.028005) can0 425#0000
(1716837996.028130) can0 080#7307
(1716837996.028609) can0 100#8A020000
(1716837996.030132) can0 100#8F020000
(1716837996.031685) can0 100#94020000
(1716837996.033226) can0 100#99020000
(1716837996.034759) can0 100#9E020000
(1716837996.036292) can0 100#A3020000
(1716837996.037844) can0 100#A8020000
(1716837996.038199) can0 425#0000
(1716837996.038346) can0 080#7307
(1716837996.039367) can0 100#AD020000
(1716837996.040919) can0 100#B2020000
(1716837996.042459) can0 100#B7020000
(1716837996.043994) can0 100#BC020000
(1716837996.045522) can0 100#C1020000
(1716837996.047070) can0 100#C6020000
(1716837996.048007) can0 425#0000
(1716837996.048196) can0 080#7307
(1716837996.048588) can0 100#CB020000
(1716837996.050145) can0 100#D0020000
(1716837996.051685) can0 100#D5020000
(1716837996.053226) can0 100#DA020000
(1716837996.054757) can0 100#DF020000
(1716837996.056304) can0 100#E4020000
(1716837996.057844) can0 100#E9020000
(1716837996.058198) can0 425#0000
(1716837996.058333) can0 080#7307
(1716837996.059380) can0 100#EE020000
(1716837996.060935) can0 100#F3020000
(1716837996.062470) can0 100#F8020000
(1716837996.063967) can0 100#FD020000
(1716837996.065510) can0 100#02030000
(1716837996.067050) can0 100#07030000
(1716837996.068005) can0 425#0000
(1716837996.068117) can0 080#7307
(1716837996.068595) can0 100#0C030000
(1716837996.070136) can0 100#11030000
(1716837996.071670) can0 100#16030000
(1716837996.073214) can0 100#1B030000
(1716837996.074745) can0 100#20030000
(1716837996.076305) can0 100#20030000
(1716837996.077820) can0 100#25030000
(1716837996.078220) can0 425#0000
(1716837996.078355) can0 080#7307
(1716837996.079355) can0 100#2A030000
(1716837996.080901) can0 100#2F030000
(1716837996.082442) can0 100#34030000
(1716837996.083981) can0 100#39030000
(1716837996.085524) can0 100#3E030000
(1716837996.087070) can0 100#43030000
(1716837996.087993) can0 425#0000
(1716837996.088197) can0 080#7307
(1716837996.088605) can0 100#48030000
(1716837996.090144) can0 100#4D030000
(1716837996.091673) can0 100#52030000
(1716837996.093227) can0 100#57030000
(1716837996.094770) can0 100#5C030000
(1716837996.096304) can0 100#61030000
(1716837996.097847) can0 100#66030000
(1716837996.098035) can0 425#0000
(1716837996.098197) can0 080#7307
(1716837996.099405) can0 100#6B030000
(1716837996.100923) can0 100#70030000
(1716837996.102445) can0 100#75030000
(1716837996.104022) can0 100#7A030000
(1716837996.105560) can0 100#7F030000
(1716837996.107087) can0 100#84030000
(1716837996.108006) can0 425#0000
(1716837996.108197) can0 080#7307
(1716837996.108622) can0 100#89030000
(1716837996.110197) can0 100#8E030000
(1716837996.111694) can0 100#93030000
(1716837996.113252) can0 100#98030000
(1716837996.114799) can0 100#9D030000
(1716837996.116330) can0 100#A2030000
(1716837996.117885) can0 100#A7030000
(1716837996.118061) can0 425#0000
(1716837996.118215) can0 080#7307
(1716837996.119455) can0 100#AC030000
(1716837996.120970) can0 100#B1030000
(1716837996.122504) can0 100#B6030000
(1716837996.124032) can0 100#BB030000
(1716837996.125575) can0 100#C0030000
(1716837996.127110) can0 100#C5030000
(1716837996.128007) can0 425#0000
(1716837996.128119) can0 080#7307
(1716837996.128645) can0 100#CA030000
(1716837996.130197) can0 100#CF030000
(1716837996.131720) can0 100#CF030000
(1716837996.133241) can0 100#D4030000
(1716837996.134800) can0 100#D9030000
(1716837996.136330) can0 100#DE030000
(1716837996.137880) can0 100#E3030000
(1716837996.138122) can0 425#0000
(1716837996.138253) can0 080#7307
(1716837996.139455) can0 100#E8030000
(1716837996.140959) can0 100#ED030000
(1716837996.142498) can0 100#F2030000
(1716837996.144056) can0 100#F7030000
(1716837996.145595) can0 100#FC030000
(1716837996.147134) can0 100#01040000
(1716837996.147995) can0 425#0000
(1716837996.148131) can0 080#7307
(1716837996.148670) can0 100#06040000
(1716837996.150227) can0 100#0B040000
(1716837996.151737) can0 100#10040000
(1716837996.153278) can0 100#15040000
(1716837996.154832) can0 100#1A040000
(1716837996.156380) can0 100#1F040000
(1716837996.157888) can0 100#24040000
(1716837996.158100) can0 425#0000
(1716837996.158227) can0 080#7307
(1716837996.159455) can0 100#29040000
(1716837996.160962) can0 100#2E040000
(1716837996.162510) can0 100#33040000
(1716837996.164055) can0 100#38040000
(1716837996.165595) can0 100#3D040000
(1716837996.167123) can0 100#42040000
(1716837996.168081) can0 425#0000
(1716837996.168228) can0 080#7307
(1716837996.168670) can0 100#47040000
(1716837996.170185) can0 100#4C040000
(1716837996.171745) can0 100#51040000
(1716837996.173279) can0 100#56040000
(1716837996.174835) can0 100#5B040000
(1716837996.176368) can0 100#60040000
(1716837996.177910) can0 100#65040000
(1716837996.178136) can0 425#0000
(1716837996.178253) can0 080#7307
(1716837996.179442) can0 100#6A040000
(1716837996.180985) can0 100#6F040000
(1716837996.182526) can0 100#74040000
(1716837996.184060) can0 100#79040000
(1716837996.185583) can0 100#7E040000
(1716837996.187135) can0 100#83040000
(1716837996.188005) can0 425#0000
(1716837996.188197) can0 080#7307
(1716837996.188663) can0 100#88040000
(1716837996.190227) can0 100#8D040000
(1716837996.191760) can0 100#92040000
(1716837996.193279) can0 100#97040000
(1716837996.194823) can0 100#9C040000
(1716837996.196355) can0 100#A1040000
(1716837996.197901) can0 100#A1040000
(1716837996.198076) can0 425#0000
(1716837996.198215) can0 080#7307
(1716837996.199431) can0 100#A6040000
(1716837996.200981) can0 100#AB040000
(1716837996.202521) can0 100#B0040000
(1716837996.204048) can0 100#B5040000
(1716837996.205595) can0 100#BA040000
(1716837996.207145) can0 100#BF040000
(1716837996.208010) can0 425#0000
(1716837996.208118) can0 080#7307
(1716837996.208680) can0 100#C4040000
(1716837996.210197) can0 100#C9040000
(1716837996.211750) can0 100#CE040000
(1716837996.213293) can0 100#D3040000
(1716837996.214825) can0 100#D8040000
(1716837996.216355) can0 100#DD040000
(1716837996.217906) can0 100#E2040000
(1716837996.218068) can0 425#0000
(1716837996.218228) can0 080#7307
(1716837996.219455) can0 100#E7040000
(1716837996.220987) can0 100#EC040000
(1716837996.222514) can0 100#F1040000
(1716837996.224069) can0 100#F6040000
(1716837996.225596) can0 100#FB040000
(1716837996.227136) can0 100#00050000
(1716837996.227993) can0 425#0000
(1716837996.228131) can0 080#7307
(1716837996.228671) can0 100#05050000
(1716837996.230197) can0 100#0A050000
(1716837996.231724) can0 100#0F050000
(1716837996.233279) can0 100#14050000
(1716837996.234810) can0 100#19050000
(1716837996.236355) can0 100#1E050000
(1716837996.237898) can0 100#23050000
(1716837996.238086) can0 425#0000
(1716837996.238228) can0 080#7307
(1716837996.239456) can0 100#28050000
(1716837996.240973) can0 100#2D050000
(1716837996.242520) can0 100#32050000
(1716837996.244061) can0 100#37050000
(1716837996.245601) can0 100#3C050000
(1716837996.247124) can0 100#41050000
(1716837996.248009) can0 425#0000
(1716837996.248132) can0 080#7307
(1716837996.248671) can0 100#46050000
(1716837996.250215) can0 100#4B050000
(1716837996.251745) can0 100#50050000
(1716837996.253279) can0 100#55050000
(1716837996.254811) can0 100#5A050000
(1716837996.256343) can0 100#5A050000
(1716837996.257897) can0 100#5F050000
(1716837996.258071) can0 425#0000
(1716837996.258228) can0 080#7307
(1716837996.259443) can0 100#64050000
(1716837996.260971) can0 100#69050000
(1716837996.262520) can0 100#6E050000
(1716837996.264057) can0 100#73050000
(1716837996.265582) can0 100#78050000
(1716837996.267137) can0 100#7D050000
(1716837996.268011) can0 425#0000
(1716837996.268131) can0 080#7307
(1716837996.268658) can0 100#82050000
(1716837996.270227) can0 100#87050000
(1716837996.271745) can0 100#8C050000
(1716837996.273280) can0 100#91050000
(1716837996.274823) can0 100#96050000
(1716837996.276355) can0 100#9B050000
(1716837996.277910) can0 100#A0050000
(1716837996.278086) can0 425#0000
(1716837996.278215) can0 080#7307
(1716837996.279455) can0 100#A5050000
(1716837996.280996) can0 100#AA050000
(1716837996.282536) can0 100#AF050000
(1716837996.284059) can0 100#B4050000
(1716837996.285596) can0 100#B9050000
(1716837996.287146) can0 100#BE050000
(1716837996.288009) can0 425#0000
(1716837996.288185) can0 080#7307
(1716837996.288686) can0 100#C3050000
(1716837996.290227) can0 100#C8050000
(1716837996.291771) can0 100#CD050000
(1716837996.293293) can0 100#D2050000
(1716837996.294846) can0 100#D7050000
(1716837996.296382) can0 100#DC050000
(1716837996.297921) can0 100#E1050000
(1716837996.298084) can0 425#0000
(1716837996.298229) can0 080#7307
(1716837996.299456) can0 100#E6050000
(1716837996.301010) can0 100#EB050000
(1716837996.302543) can0 100#F0050000
(1716837996.304098) can0 100#F5050000
(1716837996.305636) can0 100#FA050000
(1716837996.307185) can0 100#FF050000
(1716837996.307984) can0 425#0000
(1716837996.308147) can0 080#7307
(1716837996.308711) can0 100#04060000
(1716837996.310254) can0 100#09060000
(1716837996.311776) can0 100#0E060000
(1716837996.313331) can0 100#13060000
(1716837996.314860) can0 100#18060000
(1716837996.316406) can0 100#1D060000
(1716837996.317933) can0 100#22060000
(1716837996.318121) can0 425#0000
(1716837996.318254) can0 080#7307
(1716837996.319481) can0 100#27060000
(1716837996.321008) can0 100#27060000
(1716837996.322562) can0 100#2C060000
(1716837996.324093) can0 100#31060000
(1716837996.325636) can0 100#36060000
(1716837996.327185) can0 100#3B060000
(1716837996.328022) can0 425#0000
(1716837996.328146) can0 080#7307
(1716837996.328727) can0 100#40060000
(1716837996.330242) can0 100#45060000
(1716837996.331807) can0 100#4A060000
(1716837996.333332) can0 100#4F060000
(1716837996.334861) can0 100#54060000
(1716837996.336394) can0 100#59060000
(1716837996.337945) can0 100#5E060000
(1716837996.338122) can0 425#0000
(1716837996.338253) can0 080#7307
(1716837996.339458) can0 100#63060000
(1716837996.341011) can0 100#68060000
(1716837996.342546) can0 100#6D060000
(1716837996.344084) can0 100#72060000
(1716837996.345608) can0 100#77060000
(1716837996.347197) can0 100#7C060000
(1716837996.347998) can0 425#0000
(1716837996.348147) can0 080#7307
(1716837996.348687) can0 100#81060000
(1716837996.350228) can0 100#86060000
(1716837996.351762) can0 100#8B060000
(1716837996.353305) can0 100#90060000
(1716837996.354833) can0 100#95060000
(1716837996.356381) can0 100#9A060000
(1716837996.357921) can0 100#9F060000
(1716837996.358097) can0 425#0000
(1716837996.358242) can0 080#7307
(1716837996.359450) can0 100#A4060000
(1716837996.361001) can0 100#A9060000
(1716837996.362535) can0 100#AE060000
(1716837996.364070) can0 100#B3060000
(1716837996.365620) can0 100#B8060000
(1716837996.367197) can0 100#BD060000
(1716837996.368096) can0 425#0000
(1716837996.368216) can0 080#7307
(1716837996.368686) can0 100#C2060000
(1716837996.370228) can0 100#C7060000
(1716837996.371762) can0 100#CC060000
(1716837996.373268) can0 100#D1060000
(1716837996.374831) can0 100#D1060000
(1716837996.376356) can0 100#D6060000
(1716837996.377911) can0 100#DB060000
(1716837996.378099) can0 425#0000
(1716837996.378256) can0 080#7307
(1716837996.379456) can0 100#E0060000
(1716837996.380995) can0 100#E5060000
(1716837996.382514) can0 100#EA060000
(1716837996.384071) can0 100#EF060000
(1716837996.385601) can0 100#F4060000
(1716837996.387146) can0 100#F9060000
(1716837996.388002) can0 425#0000
(1716837996.388198) can0 080#7307
(1716837996.388680) can0 100#FE060000
(1716837996.390228) can0 100#03070000
(1716837996.391769) can0 100#08070000
(1716837996.393331) can0 100#0D070000
(1716837996.394861) can0 100#12070000
(1716837996.396456) can0 100#17070000
(1716837996.397935) can0 100#1C070000
(1716837996.398122) can0 425#0000
(1716837996.398255) can0 080#7307
(1716837996.399481) can0 100#21070000
(1716837996.401013) can0 100#26070000
(1716837996.402562) can0 100#2B070000
(1716837996.404100) can0 100#30070000
(1716837996.405642) can0 100#35070000
(1716837996.407186) can0 100#3A070000
(1716837996.407997) can0 425#0000
(1716837996.408147) can0 080#7307
(1716837996.408709) can0 100#3F070000
(1716837996.410255) can0 100#44070000
(1716837996.411801) can0 100#49070000
(1716837996.413331) can0 100#4E070000
(1716837996.414877) can0 100#53070000
(1716837996.416457) can0 100#58070000
(1716837996.417956) can0 100#5D070000
(1716837996.418132) can0 425#0000
(1716837996.418268) can0 080#7307
(1716837996.419487) can0 100#62070000
(1716837996.421026) can0 100#67070000
(1716837996.422572) can0 100#6C070000
(1716837996.424092) can0 100#71070000
(1716837996.425646) can0 100#76070000
(1716837996.427198) can0 100#7B070000
(1716837996.427999) can0 425#0000
(1716837996.428134) can0 080#7307
(1716837996.428731) can0 100#80070000
(1716837996.430280) can0 100#85070000
(1716837996.431811) can0 100#8A070000
(1716837996.433319) can0 100#8F070000
(1716837996.434896) can0 100#94070000
(1716837996.436456) can0 100#99070000
(1716837996.437962) can0 100#9E070000
(1716837996.438125) can0 425#0000
(1716837996.438281) can0 080#7307
(1716837996.439496) can0 100#A3070000
(1716837996.441036) can0 100#A3070000
(1716837996.442559) can0 100#A8070000
(1716837996.444119) can0 100#AD070000
(1716837996.445646) can0 100#B2070000
(1716837996.447198) can0 100#B7070000
(1716837996.447988) can0 425#0000
(1716837996.448147) can0 080#7307
(1716837996.448732) can0 100#BC070000
(1716837996.450281) can0 100#C1070000
(1716837996.451799) can0 100#C6070000
(1716837996.453359) can0 100#CB070000
(1716837996.454897) can0 100#D0070000
(1716837996.456456) can0 100#D5070000
(1716837996.457974) can0 100#DA070000
(1716837996.458198) can0 425#0000
(1716837996.458297) can0 080#7307
(1716837996.459521) can0 100#DF070000
(1716837996.461044) can0 100#E4070000
(1716837996.462597) can0 100#E9070000
(1716837996.464132) can0 100#EE070000
(1716837996.465676) can0 100#F3070000
(1716837996.467217) can0 100#F8070000
(1716837996.468009) can0 425#0000
(1716837996.468132) can0 080#7307
(1716837996.468757) can0 100#FD070000
(1716837996.470269) can0 100#02080000
(1716837996.471815) can0 100#07080000
(1716837996.473356) can0 100#0C080000
(1716837996.474902) can0 100#11080000
(1716837996.476445) can0 100#16080000
(1716837996.477962) can0 100#1B080000
(1716837996.478199) can0 425#0000
(1716837996.478297) can0 080#7307
(1716837996.479512) can0 100#20080000
(1716837996.481063) can0 100#25080000
(1716837996.482602) can0 100#2A080000
(1716837996.484147) can0 100#2F080000
(1716837996.485674) can0 100#34080000
(1716837996.487229) can0 100#39080000
(1716837996.488008) can0 425#0000
(1716837996.488131) can0 080#7307
(1716837996.488759) can0 100#3E080000
(1716837996.490307) can0 100#43080000
(1716837996.491847) can0 100#48080000
(1716837996.493381) can0 100#4D080000
(1716837996.494909) can0 100#52080000
(1716837996.496457) can0 100#57080000
(1716837996.497987) can0 100#5C080000
(1716837996.498199) can0 425#0000
(1716837996.498285) can0 080#7307
(1716837996.499521) can0 100#61080000
(1716837996.501061) can0 100#61080000
(1716837996.502602) can0 100#66080000
(1716837996.504092) can0 100#6B080000
(1716837996.505676) can0 100#70080000
(1716837996.507229) can0 100#75080000
(1716837996.508008) can0 425#0000
(1716837996.508121) can0 080#7307
(1716837996.508762) can0 100#7A080000
(1716837996.510281) can0 100#7F080000
(1716837996.511837) can0 100#84080000
(1716837996.513369) can0 100#89080000
(1716837996.514936) can0 100#8E080000
(1716837996.516482) can0 100#93080000
(1716837996.518022) can0 100#98080000
(1716837996.518187) can0 425#0000
(1716837996.518347) can0 080#7307
(1716837996.519562) can0 100#9D080000
(1716837996.521103) can0 100#A2080000
(1716837996.522635) can0 100#A7080000
(1716837996.524198) can0 100#AC080000
(1716837996.525712) can0 100#B1080000
(1716837996.527255) can0 100#B6080000
(1716837996.527995) can0 425#0000
(1716837996.528132) can0 080#7307
(1716837996.528797) can0 100#BB080000
(1716837996.530332) can0 100#C0080000
(1716837996.531870) can0 100#C5080000
(1716837996.533457) can0 100#CA080000
(1716837996.534972) can0 100#CF080000
(1716837996.536507) can0 100#D4080000
(1716837996.538025) can0 100#D9080000
(1716837996.538229) can0 425#0000
(1716837996.538357) can0 080#7307
(1716837996.539587) can0 100#DE080000
(1716837996.541109) can0 100#E3080000
(1716837996.542653) can0 100#E8080000
(1716837996.544198) can0 100#ED080000
(1716837996.545749) can0 100#F2080000
(1716837996.547269) can0 100#F7080000
(1716837996.548008) can0 425#0000
(1716837996.548133) can0 080#7307
(1716837996.548837) can0 100#FC080000
(1716837996.550370) can0 100#01090000
(1716837996.551922) can0 100#06090000
(1716837996.553471) can0 100#0B090000
(1716837996.555002) can0 100#10090000
(1716837996.556525) can0 100#15090000
(1716837996.558072) can0 100#1A090000
(1716837996.558229) can0 425#0000
(1716837996.558358) can0 080#7307
(1716837996.559600) can0 100#1F090000
(1716837996.561147) can0 100#24090000
(1716837996.562687) can0 100#29090000
(1716837996.564235) can0 100#29090000
(1716837996.565750) can0 100#2E090000
(1716837996.567280) can0 100#33090000
(1716837996.568085) can0 425#0000
(1716837996.568230) can0 080#7307
(1716837996.568795) can0 100#38090000
(1716837996.570383) can0 100#3D090000
(1716837996.571912) can0 100#42090000
(1716837996.573463) can0 100#47090000
(1716837996.574990) can0 100#4C090000
(1716837996.576562) can0 100#51090000
(1716837996.578107) can0 100#56090000
(1716837996.578281) can0 425#0000
(1716837996.578420) can0 080#7307
(1716837996.579652) can0 100#5B090000
(1716837996.581199) can0 100#60090000
(1716837996.582737) can0 100#65090000
(1716837996.584279) can0 100#6A090000
(1716837996.585828) can0 100#6F090000
(1716837996.587357) can0 100#74090000
(1716837996.588009) can0 425#0000
(1716837996.588120) can0 080#7307
(1716837996.588903) can0 100#79090000
(1716837996.590457) can0 100#7E090000
(1716837996.591984) can0 100#83090000
(1716837996.593511) can0 100#88090000
(1716837996.595062) can0 100#8D090000
(1716837996.596598) can0 100#92090000
(1716837996.598147) can0 100#97090000
(1716837996.598270) can0 425#0000
(1716837996.598408) can0 080#7307
(1716837996.599688) can0 100#9C090000
(1716837996.601229) can0 100#A1090000
(1716837996.602760) can0 100#A6090000
(1716837996.604307) can0 100#AB090000
(1716837996.605862) can0 100#B0090000
(1716837996.607407) can0 100#B5090000
(1716837996.608004) can0 425#0000
(1716837996.608134) can0 080#7307
(1716837996.608947) can0 100#BA090000
(1716837996.610487) can0 100#BF090000
(1716837996.612015) can0 100#C4090000
(1716837996.613572) can0 100#C9090000
(1716837996.615107) can0 100#CE090000
(1716837996.616647) can0 100#D3090000
(1716837996.618186) can0 100#D8090000
(1716837996.618325) can0 425#0000
(1716837996.618448) can0 080#7307
(1716837996.619723) can0 100#DD090000
(1716837996.621243) can0 100#E2090000
(1716837996.622797) can0 100#E7090000
(1716837996.624339) can0 100#EC090000
(1716837996.625873) can0 100#F1090000
(1716837996.627395) can0 100#F6090000
(1716837996.628010) can0 425#0000
(1716837996.628133) can0 080#7307
(1716837996.628937) can0 100#FB090000
(1716837996.630470) can0 100#FB090000
(1716837996.632021) can0 100#000A0000
(1716837996.633553) can0 100#050A0000
(1716837996.635088) can0 100#0A0A0000
(1716837996.636619) can0 100#0F0A0000
(1716837996.638191) can0 100#140A0000
(1716837996.638323) can0 425#0000
(1716837996.638447) can0 080#7307
(1716837996.639700) can0 100#190A0000
(1716837996.641255) can0 100#1E0A0000
(1716837996.642797) can0 100#230A0000
(1716837996.644338) can0 100#280A0000
(1716837996.645860) can0 100#2D0A0000
(1716837996.647458) can0 100#320A0000
(1716837996.648010) can0 425#0000
(1716837996.648132) can0 080#7307
(1716837996.648935) can0 100#370A0000
(1716837996.650488) can0 100#3C0A0000
(1716837996.652022) can0 100#410A0000
(1716837996.653563) can0 100#460A0000
(1716837996.655061) can0 100#4B0A0000
(1716837996.656637) can0 100#500A0000
(1716837996.658199) can0 100#550A0000
(1716837996.658297) can0 425#0000
(1716837996.658436) can0 080#7307
(1716837996.659713) can0 100#5A0A0000
(1716837996.661255) can0 100#5F0A0000
(1716837996.662777) can0 100#640A0000
(1716837996.664300) can0 100#690A0000
(1716837996.665847) can0 100#6E0A0000
(1716837996.667408) can0 100#730A0000
(1716837996.668009) can0 425#0000
(1716837996.668121) can0 080#7307
(1716837996.668948) can0 100#780A0000
(1716837996.670487) can0 100#7D0A0000
(1716837996.672022) can0 100#820A0000
(1716837996.673551) can0 100#870A0000
(1716837996.675097) can0 100#8C0A0000
(1716837996.676632) can0 100#910A0000
(1716837996.678200) can0 100#960A0000
(1716837996.678286) can0 425#0000
(1716837996.678447) can0 080#7307
(1716837996.679713) can0 100#9B0A0000
(1716837996.681255) can0 100#A00A0000
(1716837996.682775) can0 100#A50A0000
(1716837996.684313) can0 100#AA0A0000
(1716837996.685853) can0 100#AF0A0000
(1716837996.687382) can0 100#AF0A0000
(1716837996.688002) can0 425#0000
(1716837996.688133) can0 080#7307
(1716837996.688937) can0 100#B40A0000
(1716837996.690495) can0 100#B90A0000
(1716837996.692020) can0 100#BE0A0000
(1716837996.693563) can0 100#C30A0000
(1716837996.695107) can0 100#C80A0000
(1716837996.696648) can0 100#CD0A0000
(1716837996.698187) can0 100#D20A0000
(1716837996.698324) can0 425#0000
(1716837996.698448) can0 080#7307
(1716837996.699727) can0 100#D70A0000
(1716837996.701244) can0 100#DC0A0000
(1716837996.702802) can0 100#E10A0000
(1716837996.704333) can0 100#E60A0000
(1716837996.705878) can0 100#EB0A0000
(1716837996.707446) can0 100#F00A0000
(1716837996.708008) can0 425#0000
(1716837996.708133) can0 080#7307
(1716837996.708950) can0 100#F50A0000
(1716837996.710502) can0 100#FA0A0000
(1716837996.712038) can0 100#FF0A0000
(1716837996.713572) can0 100#040B0000
(1716837996.715097) can0 100#090B0000
(1716837996.716653) can0 100#0E0B0000
(1716837996.718200) can0 100#130B0000
(1716837996.718323) can0 425#0000
(1716837996.718461) can0 080#7307
(1716837996.719724) can0 100#180B0000
(1716837996.721256) can0 100#1D0B0000
(1716837996.722803) can0 100#220B0000
(1716837996.724321) can0 100#270B0000
(1716837996.725888) can0 100#2C0B0000
(1716837996.727458) can0 100#310B0000
(1716837996.728008) can0 425#0000
(1716837996.728120) can0 080#7307
(1716837996.728963) can0 100#360B0000
(1716837996.730509) can0 100#3B0B0000
(1716837996.732038) can0 100#400B0000
(1716837996.733560) can0 100#450B0000
(1716837996.735114) can0 100#4A0B0000
(1716837996.736648) can0 100#4F0B0000
(1716837996.738199) can0 100#540B0000
(1716837996.738312) can0 425#0000
(1716837996.738473) can0 080#7307
(1716837996.739738) can0 100#590B0000
(1716837996.741281) can0 100#5E0B0000
(1716837996.742801) can0 100#630B0000
(1716837996.744360) can0 100#680B0000
(1716837996.745888) can0 100#6D0B0000
(1716837996.747458) can0 100#720B0000
(1716837996.748631) can0 425#0000
(1716837996.748825) can0 080#7307
(1716837996.748998) can0 100#770B0000
(1716837996.750483) can0 100#770B0000
(1716837996.752010) can0 100#7C0B0000
(1716837996.753573) can0 100#810B0000
(1716837996.755114) can0 100#860B0000
(1716837996.756648) can0 100#8B0B0000
(1716837996.758187) can0 100#900B0000
(1716837996.758324) can0 425#0000
(1716837996.758449) can0 080#7207
(1716837996.759728) can0 100#950B0000
(1716837996.761244) can0 100#9A0B0000
(1716837996.762808) can0 100#9F0B0000
(1716837996.764348) can0 100#A40B0000
(1716837996.765888) can0 100#A90B0000
(1716837996.767446) can0 100#AE0B0000
(1716837996.768087) can0 425#0000
(1716837996.768230) can0 080#7207
(1716837996.768963) can0 100#B30B0000
(1716837996.770491) can0 100#B80B0000
(1716837996.772048) can0 100#BD0B0000
(1716837996.773578) can0 100#C20B0000
(1716837996.775125) can0 100#C70B0000
(1716837996.776651) can0 100#CC0B0000
(1716837996.778200) can0 100#D10B0000
(1716837996.778323) can0 425#0000
(1716837996.778474) can0 080#7207
(1716837996.779726) can0 100#D60B0000
(1716837996.781282) can0 100#DB0B0000
(1716837996.782803) can0 100#E00B0000
(1716837996.784322) can0 100#E50B0000
(1716837996.785876) can0 100#EA0B0000
(1716837996.787458) can0 100#EF0B0000
(1716837996.788015) can0 425#0000
(1716837996.788134) can0 080#7207
(1716837996.788951) can0 100#F40B0000
(1716837996.790508) can0 100#F90B0000
(1716837996.792049) can0 100#FE0B0000
(1716837996.793588) can0 100#030C0000
(1716837996.795126) can0 100#080C0000
(1716837996.796673) can0 100#0D0C0000
(1716837996.798200) can0 100#120C0000
(1716837996.798349) can0 425#0000
(1716837996.798486) can0 080#7207
(1716837996.799753) can0 100#170C0000
(1716837996.801283) can0 100#1C0C0000
(1716837996.802812) can0 100#210C0000
(1716837996.804346) can0 100#260C0000
(1716837996.805892) can0 100#2B0C0000
(1716837996.807459) can0 100#300C0000
(1716837996.808011) can0 425#0000
(1716837996.808122) can0 080#7207
(1716837996.808963) can0 100#350C0000
(1716837996.810503) can0 100#350C0000
(1716837996.812023) can0 100#3A0C0000
(1716837996.813566) can0 100#3F0C0000
(1716837996.815124) can0 100#440C0000
(1716837996.816663) can0 100#490C0000
(1716837996.818199) can0 100#4E0C0000
(1716837996.818336) can0 425#0000
(1716837996.818473) can0 080#7207
(1716837996.819722) can0 100#530C0000
(1716837996.821310) can0 100#580C0000
(1716837996.822811) can0 100#5D0C0000
(1716837996.824359) can0 100#620C0000
(1716837996.825903) can0 100#670C0000
(1716837996.827459) can0 100#6C0C0000
(1716837996.828004) can0 425#0000
(1716837996.828133) can0 080#7207
(1716837996.828988) can0 100#710C0000
(1716837996.830529) can0 100#760C0000
(1716837996.832026) can0 100#7B0C0000
(1716837996.833574) can0 100#800C0000
(1716837996.835113) can0 100#850C0000
(1716837996.836648) can0 100#8A0C0000
(1716837996.838188) can0 100#8F0C0000
(1716837996.838351) can0 425#0000
(1716837996.838474) can0 080#7207
(1716837996.839738) can0 100#940C0000
(1716837996.841373) can0 100#990C0000
(1716837996.842792) can0 100#9E0C0000
(1716837996.844358) can0 100#A30C0000
(1716837996.845898) can0 100#A80C0000
(1716837996.847447) can0 100#AD0C0000
(1716837996.848011) can0 425#0000
(1716837996.848134) can0 080#7207
(1716837996.848964) can0 100#B20C0000
(1716837996.850497) can0 100#B70C0000
(1716837996.852024) can0 100#BC0C0000
(1716837996.853579) can0 100#C10C0000
(1716837996.855123) can0 100#C60C0000
(1716837996.856656) can0 100#CB0C0000
(1716837996.858231) can0 100#D00C0000
(1716837996.858359) can0 425#0000
(1716837996.858484) can0 080#7207
(1716837996.859736) can0 100#D50C0000
(1716837996.861283) can0 100#DA0C0000
(1716837996.862829) can0 100#DF0C0000
(1716837996.864359) can0 100#E40C0000
(1716837996.865892) can0 100#E90C0000
(1716837996.867458) can0 100#EE0C0000
(1716837996.868037) can0 425#0000
(1716837996.868200) can0 080#7207
(1716837996.868966) can0 100#F30C0000
(1716837996.870508) can0 100#F80C0000
(1716837996.872039) can0 100#FD0C0000
(1716837996.873574) can0 100#020D0000
(1716837996.875111) can0 100#070D0000
(1716837996.876664) can0 100#070D0000
(1716837996.878200) can0 100#0C0D0000
(1716837996.878352) can0 425#0000
(1716837996.878462) can0 080#7207
(1716837996.879754) can0 100#110D0000
(1716837996.881308) can0 100#160D0000
(1716837996.882839) can0 100#1B0D0000
(1716837996.884376) can0 100#200D0000
(1716837996.885924) can0 100#250D0000
(1716837996.887474) can0 100#2A0D0000
(1716837996.888003) can0 425#0000
(1716837996.888144) can0 080#7207
(1716837996.889014) can0 100#2F0D0000
(1716837996.890554) can0 100#340D0000
(1716837996.892114) can0 100#390D0000
(1716837996.893626) can0 100#3E0D0000
(1716837996.895200) can0 100#430D0000
(1716837996.896724) can0 100#480D0000
(1716837996.898200) can0 425#0000
(1716837996.898361) can0 100#4D0D0000
(1716837996.898500) can0 080#7207
(1716837996.899799) can0 100#520D0000
(1716837996.901355) can0 100#570D0000
(1716837996.902871) can0 100#5C0D0000
(1716837996.904389) can0 100#610D0000
(1716837996.905949) can0 100#660D0000
(1716837996.907488) can0 100#6B0D0000
(1716837996.908007) can0 425#0000
(1716837996.908139) can0 080#7207
(1716837996.909029) can0 100#700D0000
(1716837996.910574) can0 100#750D0000
(1716837996.912112) can0 100#7A0D0000
(1716837996.913654) can0 100#7F0D0000
(1716837996.915228) can0 100#840D0000
(1716837996.916739) can0 100#890D0000
(1716837996.918189) can0 425#0000
(1716837996.918375) can0 100#8E0D0000
(1716837996.918500) can0 080#7207
(1716837996.919814) can0 100#930D0000
(1716837996.921346) can0 100#980D0000
(1716837996.922875) can0 100#9D0D0000
(1716837996.924440) can0 100#A20D0000
(1716837996.925979) can0 100#A70D0000
(1716837996.927511) can0 100#AC0D0000
(1716837996.928000) can0 425#0000
(1716837996.928149) can0 080#7207
(1716837996.929064) can0 100#B10D0000
(1716837996.930571) can0 100#B60D0000
(1716837996.932149) can0 100#BB0D0000
(1716837996.933679) can0 100#C00D0000
(1716837996.935201) can0 100#C50D0000
(1716837996.936742) can0 100#CA0D0000
(1716837996.938200) can0 425#0000
(1716837996.938374) can0 100#CF0D0000
(1716837996.938499) can0 080#7207
(1716837996.939827) can0 100#D40D0000
(1716837996.941384) can0 100#D40D0000
(1716837996.942914) can0 100#D90D0000
(1716837996.944458) can0 100#DE0D0000
(1716837996.945987) can0 100#E30D0000
(1716837996.947530) can0 100#E80D0000
(1716837996.948005) can0 425#0000
(1716837996.948129) can0 080#7207
(1716837996.949036) can0 100#ED0D0000
(1716837996.950604) can0 100#F20D0000
(1716837996.952149) can0 100#F70D0000
(1716837996.953674) can0 100#FC0D0000
(1716837996.955188) can0 100#010E0000
(1716837996.956794) can0 100#060E0000
(1716837996.958201) can0 425#0000
(1716837996.958375) can0 100#0B0E0000
(1716837996.958487) can0 080#7207
(1716837996.959848) can0 100#100E0000
(1716837996.961383) can0 100#150E0000
(1716837996.962930) can0 100#1A0E0000
(1716837996.964461) can0 100#1F0E0000
(1716837996.966004) can0 100#240E0000
(1716837996.967540) can0 100#290E0000
(1716837996.968085) can0 425#0000
(1716837996.968219) can0 080#7207
(1716837996.969089) can0 100#2E0E0000
(1716837996.970624) can0 100#330E0000
(1716837996.972202) can0 100#380E0000
(1716837996.973685) can0 100#3D0E0000
(1716837996.975231) can0 100#420E0000
(1716837996.976789) can0 100#470E0000
(1716837996.978284) can0 425#0000
(1716837996.978447) can0 100#4C0E0000
(1716837996.978584) can0 080#7207
(1716837996.979889) can0 100#510E0000
(1716837996.981459) can0 100#560E0000
(1716837996.982960) can0 100#5B0E0000
(1716837996.984501) can0 100#600E0000
(1716837996.986041) can0 100#650E0000
(1716837996.987585) can0 100#6A0E0000
(1716837996.988001) can0 425#0000
(1716837996.988134) can0 080#7207
(1716837996.989123) can0 100#6F0E0000
(1716837996.990654) can0 100#740E0000
(1716837996.992189) can0 100#790E0000
(1716837996.993724) can0 100#7E0E0000
(1716837996.995257) can0 100#830E0000
(1716837996.996799) can0 100#830E0000
(1716837996.998189) can0 425#0000
(1716837996.998375) can0 100#880E0000
(1716837996.998500) can0 080#7207
(1716837996.999875) can0 100#8D0E0000
(1716837997.001447) can0 100#920E0000
(1716837997.002973) can0 100#970E0000
(1716837997.004515) can0 100#9C0E0000
(1716837997.006054) can0 100#A10E0000
(1716837997.007587) can0 100#A60E0000
(1716837997.008001) can0 425#0000
(1716837997.008152) can0 080#7207
(1716837997.009128) can0 100#AB0E0000
(1716837997.010674) can0 100#B00E0000
(1716837997.012200) can0 100#B50E0000
(1716837997.013750) can0 100#BA0E0000
(1716837997.015292) can0 100#BF0E0000
(1716837997.016830) can0 100#C40E0000
(1716837997.018232) can0 425#0000
(1716837997.018335) can0 080#7207
(1716837997.018472) can0 100#C90E0000
(1716837997.019905) can0 100#CE0E0000
(1716837997.021459) can0 100#D30E0000
(1716837997.023000) can0 100#D80E0000
(1716837997.024522) can0 100#DD0E0000
(1716837997.026075) can0 100#E20E0000
(1716837997.027615) can0 100#E70E0000
(1716837997.027993) can0 425#0000
(1716837997.028127) can0 080#7207
(1716837997.029150) can0 100#EC0E0000
(1716837997.030690) can0 100#F10E0000
(1716837997.032232) can0 100#F60E0000
(1716837997.033737) can0 100#FB0E0000
(1716837997.035310) can0 100#000F0000
(1716837997.036849) can0 100#050F0000
(1716837997.038194) can0 425#0000
(1716837997.038314) can0 080#7207
(1716837997.038500) can0 100#0A0F0000
(1716837997.039965) can0 100#0F0F0000
(1716837997.041505) can0 100#140F0000
(1716837997.043037) can0 100#190F0000
(1716837997.044580) can0 100#1E0F0000
(1716837997.046114) can0 100#230F0000
(1716837997.047660) can0 100#280F0000
(1716837997.047998) can0 425#0000
(1716837997.048135) can0 080#7207
(1716837997.049201) can0 100#2D0F0000
(1716837997.050725) can0 100#320F0000
(1716837997.052245) can0 100#370F0000
(1716837997.053800) can0 100#3C0F0000
(1716837997.055334) can0 100#410F0000
(1716837997.056875) can0 100#410F0000
(1716837997.058190) can0 425#0000
(1716837997.058349) can0 080#7207
(1716837997.058499) can0 100#460F0000
(1716837997.059965) can0 100#4B0F0000
(1716837997.061488) can0 100#500F0000
(1716837997.063029) can0 100#550F0000
(1716837997.064565) can0 100#5A0F0000
(1716837997.066100) can0 100#5F0F0000
(1716837997.067627) can0 100#640F0000
(1716837997.068019) can0 425#0000
(1716837997.068141) can0 080#7207
(1716837997.069201) can0 100#690F0000
(1716837997.070728) can0 100#6E0F0000
(1716837997.072283) can0 100#730F0000
(1716837997.073825) can0 100#780F0000
(1716837997.075359) can0 100#7D0F0000
(1716837997.076887) can0 100#820F0000
(1716837997.078192) can0 425#0000
(1716837997.078323) can0 080#7207
(1716837997.078500) can0 100#870F0000
(1716837997.079953) can0 100#8C0F0000
(1716837997.081499) can0 100#910F0000
(1716837997.083040) can0 100#960F0000
(1716837997.084580) can0 100#9B0F0000
(1716837997.086106) can0 100#A00F0000
(1716837997.087659) can0 100#A50F0000
(1716837997.088010) can0 425#0000
(1716837997.088135) can0 080#7207
(1716837997.089189) can0 100#AA0F0000
(1716837997.090740) can0 100#AF0F0000
(1716837997.092284) can0 100#B40F0000
(1716837997.093822) can0 100#B90F0000
(1716837997.095348) can0 100#BE0F0000
(1716837997.096900) can0 100#C30F0000
(1716837997.098192) can0 425#0000
(1716837997.098325) can0 080#7207
(1716837997.098488) can0 100#C80F0000
(1716837997.099975) can0 100#CD0F0000
(1716837997.101516) can0 100#D20F0000
(1716837997.103050) can0 100#D70F0000
(1716837997.104567) can0 100#DC0F0000
(1716837997.106130) can0 100#E10F0000
(1716837997.107675) can0 100#E60F0000
(1716837997.108001) can0 425#0000
(1716837997.108113) can0 080#7207
(1716837997.109232) can0 100#EB0F0000
(1716837997.110750) can0 100#F00F0000
(1716837997.112284) can0 100#F50F0000
(1716837997.113813) can0 100#FA0F0000
(1716837997.115360) can0 100#FA0F0000
(1716837997.116934) can0 100#FF0F0000
(1716837997.118197) can0 425#0000
(1716837997.118311) can0 080#7207
(1716837997.118500) can0 100#04100000
(1716837997.119975) can0 100#09100000
(1716837997.121505) can0 100#0E100000
(1716837997.123038) can0 100#13100000
(1716837997.124585) can0 100#18100000
(1716837997.126130) can0 100#1D100000
(1716837997.127676) can0 100#22100000
(1716837997.127988) can0 425#0000
(1716837997.128150) can0 080#7207
(1716837997.129201) can0 100#27100000
(1716837997.130785) can0 100#2C100000
(1716837997.132272) can0 100#31100000
(1716837997.133840) can0 100#36100000
(1716837997.135386) can0 100#3B100000
(1716837997.136916) can0 100#40100000
(1716837997.138195) can0 425#0000
(1716837997.138323) can0 080#7207
(1716837997.138500) can0 100#45100000
(1716837997.140000) can0 100#4A100000
(1716837997.141518) can0 100#4F100000
(1716837997.143076) can0 100#54100000
(1716837997.144616) can0 100#59100000
(1716837997.146151) can0 100#5E100000
(1716837997.147673) can0 100#63100000
(1716837997.148030) can0 425#0000
(1716837997.148135) can0 080#7207
(1716837997.149233) can0 100#68100000
(1716837997.150743) can0 100#6D100000
(1716837997.152284) can0 100#72100000
(1716837997.153832) can0 100#77100000
(1716837997.155388) can0 100#7C100000
(1716837997.156888) can0 100#81100000
(1716837997.158195) can0 425#0000
(1716837997.158324) can0 080#7207
(1716837997.158501) can0 100#86100000
(1716837997.159968) can0 100#8B100000
(1716837997.161515) can0 100#90100000
(1716837997.163061) can0 100#95100000
(1716837997.164599) can0 100#9A100000
(1716837997.166128) can0 100#9F100000
(1716837997.167676) can0 100#A4100000
(1716837997.168075) can0 425#0000
(1716837997.168233) can0 080#7207
(1716837997.169189) can0 100#A9100000
(1716837997.170725) can0 100#AE100000
(1716837997.172284) can0 100#B3100000
(1716837997.173825) can0 100#B3100000
(1716837997.175348) can0 100#B8100000
(1716837997.176905) can0 100#BD100000
(1716837997.178311) can0 425#0E00
(1716837997.178461) can0 100#C2100000
(1716837997.178574) can0 080#7207
(1716837997.179986) can0 100#C7100000
(1716837997.181542) can0 100#CC100000
(1716837997.183075) can0 100#D1100000
(1716837997.184598) can0 100#D6100000
(1716837997.186125) can0 100#DB100000
(1716837997.187680) can0 100#E0100000
(1716837997.188008) can0 425#0E00
(1716837997.188118) can0 080#7207
(1716837997.189232) can0 100#E5100000
(1716837997.190766) can0 100#EA100000
(1716837997.192285) can0 100#EF100000
(1716837997.193814) can0 100#F4100000
(1716837997.195361) can0 100#F9100000
(1716837997.196915) can0 100#FE100000
(1716837997.198197) can0 425#0E00
(1716837997.198311) can0 080#7207
(1716837997.198500) can0 100#03110000
(1716837997.199985) can0 100#08110000
(1716837997.201515) can0 100#0D110000
(1716837997.203049) can0 100#12110000
(1716837997.204590) can0 100#17110000
(1716837997.206141) can0 100#1C110000
(1716837997.207676) can0 100#21110000
(1716837997.207992) can0 425#0E00
(1716837997.208150) can0 080#7207
(1716837997.209201) can0 100#26110000
(1716837997.210751) can0 100#2B110000
(1716837997.212299) can0 100#30110000
(1716837997.213862) can0 100#35110000
(1716837997.215385) can0 100#3A110000
(1716837997.216941) can0 100#3F110000
(1716837997.218160) can0 425#0E00
(1716837997.218351) can0 080#7207
(1716837997.218501) can0 100#44110000
(1716837997.220026) can0 100#49110000
(1716837997.221543) can0 100#4E110000
(1716837997.223091) can0 100#53110000
(1716837997.224626) can0 100#58110000
(1716837997.226203) can0 100#5D110000
(1716837997.227693) can0 100#5D110000
(1716837997.228008) can0 425#0E00
(1716837997.228203) can0 080#7207
(1716837997.229233) can0 100#62110000
(1716837997.230768) can0 100#67110000
(1716837997.232311) can0 100#6C110000
(1716837997.233875) can0 100#71110000
(1716837997.235461) can0 100#76110000
(1716837997.236938) can0 100#7B110000
(1716837997.238167) can0 425#0E00
(1716837997.238331) can0 080#7207
(1716837997.238505) can0 100#80110000
(1716837997.240013) can0 100#85110000
(1716837997.241556) can0 100#8A110000
(1716837997.243065) can0 100#8F110000
(1716837997.244601) can0 100#94110000
(1716837997.246114) can0 100#99110000
(1716837997.247691) can0 100#9E110000
(1716837997.248019) can0 425#0E00
(1716837997.248141) can0 080#7207
(1716837997.249203) can0 100#A3110000
(1716837997.250776) can0 100#A8110000
(1716837997.252311) can0 100#AD110000
(1716837997.253852) can0 100#B2110000
(1716837997.255377) can0 100#B7110000
(1716837997.256931) can0 100#BC110000
(1716837997.258195) can0 425#0E00
(1716837997.258324) can0 080#7207
(1716837997.258489) can0 100#C1110000
(1716837997.260001) can0 100#C6110000
(1716837997.261541) can0 100#CB110000
(1716837997.263076) can0 100#D0110000
(1716837997.264594) can0 100#D5110000
(1716837997.266141) can0 100#DA110000
(1716837997.267690) can0 100#DF110000
(1716837997.268016) can0 425#0E00
(1716837997.268129) can0 080#7207
(1716837997.269232) can0 100#E4110000
(1716837997.270766) can0 100#E9110000
(1716837997.272287) can0 100#EE110000
(1716837997.273838) can0 100#F3110000
(1716837997.275386) can0 100#F8110000
(1716837997.276925) can0 100#FD110000
(1716837997.278164) can0 425#0E00
(1716837997.278338) can0 080#7207
(1716837997.278501) can0 100#02120000
(1716837997.280006) can0 100#07120000
(1716837997.281551) can0 100#0C120000
(1716837997.283069) can0 100#11120000
(1716837997.284626) can0 100#16120000
(1716837997.286204) can0 100#1B120000
(1716837997.287701) can0 100#1B120000
(1716837997.287990) can0 425#0E00
(1716837997.288152) can0 080#7207
(1716837997.289232) can0 100#20120000
(1716837997.290776) can0 100#25120000
(1716837997.292298) can0 100#2A120000
(1716837997.293866) can0 100#2F120000
(1716837997.295411) can0 100#34120000
(1716837997.296941) can0 100#39120000
(1716837997.298198) can0 425#0E00
(1716837997.298316) can0 080#7207
(1716837997.298505) can0 100#3E120000
(1716837997.300016) can0 100#43120000
(1716837997.301539) can0 100#48120000
(1716837997.303086) can0 100#4D120000
(1716837997.304626) can0 100#52120000
(1716837997.306141) can0 100#57120000
(1716837997.307679) can0 100#5C120000
(1716837997.308016) can0 425#0E00
(1716837997.308141) can0 080#7207
(1716837997.309220) can0 100#61120000
(1716837997.310776) can0 100#66120000
(1716837997.312311) can0 100#6B120000
(1716837997.313856) can0 100#70120000
(1716837997.315386) can0 100#75120000
(1716837997.316931) can0 100#7A120000
(1716837997.318173) can0 425#0E00
(1716837997.318330) can0 080#7207
(1716837997.318494) can0 100#7F120000
(1716837997.320016) can0 100#84120000
(1716837997.321550) can0 100#89120000
(1716837997.323100) can0 100#8E120000
(1716837997.324614) can0 100#93120000
(1716837997.326204) can0 100#98120000
(1716837997.327735) can0 100#9D120000
(1716837997.328001) can0 425#0E00
(1716837997.328139) can0 080#7207
(1716837997.329233) can0 100#A2120000
(1716837997.330781) can0 100#A7120000
(1716837997.332311) can0 100#AC120000
(1716837997.333844) can0 100#B1120000
(1716837997.335411) can0 100#B6120000
(1716837997.336931) can0 100#BB120000
