(1716921569.583409) can0 425#0000
(1716921569.583462) can0 080#7007
(1716921569.593252) can0 425#0000
(1716921569.593297) can0 080#7007
(1716921569.603394) can0 425#0000
(1716921569.603530) can0 080#7007
(1716921569.613281) can0 425#0000
(1716921569.613320) can0 080#7007
(1716921569.623395) can0 425#0000
(1716921569.623494) can0 080#7007
(1716921569.633311) can0 425#0000
(1716921569.633348) can0 080#7007
(1716921569.643557) can0 425#0000
(1716921569.643596) can0 080#7007
(1716921569.653163) can0 425#0000
(1716921569.653277) can0 080#7007
(1716921569.663587) can0 425#0000
(1716921569.663631) can0 080#7007
(1716921569.673255) can0 425#0000
(1716921569.673294) can0 080#7007
(1716921569.683520) can0 425#0000
(1716921569.683556) can0 080#7007
(1716921569.693993) can0 425#0000
(1716921569.694029) can0 080#7007
(1716921569.703506) can0 425#0000
(1716921569.703542) can0 080#7107
(1716921569.713237) can0 425#0000
(1716921569.713307) can0 080#7107
(1716921569.723537) can0 425#0000
(1716921569.723573) can0 080#7107
(1716921569.733164) can0 425#0000
(1716921569.733414) can0 080#7107
(1716921569.743406) can0 425#0000
(1716921569.743510) can0 080#7107
(1716921569.753301) can0 425#0000
(1716921569.753350) can0 080#7107
(1716921569.763377) can0 425#0000
(1716921569.763495) can0 080#7107
(1716921569.773199) can0 425#0000
(1716921569.773322) can0 080#7107
(1716921569.783431) can0 425#0000
(1716921569.783504) can0 080#7107
(1716921569.793333) can0 425#0000
(1716921569.793448) can0 080#7107
(1716921569.803414) can0 425#0000
(1716921569.803469) can0 080#7107
(1716921569.813226) can0 425#0000
(1716921569.813347) can0 080#7107
(1716921569.823521) can0 425#0000
(1716921569.823559) can0 080#7107
(1716921569.833201) can0 425#0000
(1716921569.833323) can0 080#7107
(1716921569.843409) can0 425#0000
(1716921569.843457) can0 080#7107
(1716921569.853208) can0 425#0000
(1716921569.853326) can0 080#7107
(1716921569.863502) can0 425#0000
(1716921569.863539) can0 080#7107
(1716921569.873187) can0 425#0000
(1716921569.873327) can0 080#7107
(1716921569.883408) can0 425#0000
(1716921569.883476) can0 080#7107
(1716921569.893179) can0 425#0000
(1716921569.893324) can0 080#7107
(1716921569.903415) can0 425#0000
(1716921569.903513) can0 080#7107
(1716921569.913178) can0 425#0000
(1716921569.913324) can0 080#7107
(1716921569.923379) can0 425#0000
(1716921569.923595) can0 080#7107
(1716921569.933295) can0 425#0000
(1716921569.933327) can0 080#7107
(1716921569.943430) can0 425#0000
(1716921569.943478) can0 080#7107
(1716921569.953200) can0 425#0000
(1716921569.953325) can0 080#7107
(1716921569.963443) can0 425#0000
(1716921569.963489) can0 080#7107
(1716921569.973292) can0 425#0000
(1716921569.973324) can0 080#7107
(1716921569.983531) can0 425#0000
(1716921569.983567) can0 080#7107
(1716921569.993234) can0 425#0000
(1716921569.993326) can0 080#7107
(1716921570.003406) can0 425#0000
(1716921570.003489) can0 080#7107
(1716921570.013235) can0 425#0000
(1716921570.013294) can0 080#7107
(1716921570.023428) can0 425#0000
(1716921570.023477) can0 080#7107
(1716921570.033215) can0 425#0000
(1716921570.033328) can0 080#7107
(1716921570.043453) can0 425#0000
(1716921570.043510) can0 080#7107
(1716921570.053204) can0 425#0000
(1716921570.053329) can0 080#7107
(1716921570.063491) can0 425#0000
(1716921570.063526) can0 080#7107
(1716921570.073276) can0 425#0000
(1716921570.073327) can0 080#7107
(1716921570.083413) can0 425#0000
(1716921570.083515) can0 080#7107
(1716921570.093288) can0 425#0000
(1716921570.093321) can0 080#7107
(1716921570.103438) can0 425#0000
(1716921570.103484) can0 080#7107
(1716921570.113288) can0 425#0000
(1716921570.113326) can0 080#7107
(1716921570.123408) can0 425#0000
(1716921570.123497) can0 080#7107
(1716921570.133213) can0 425#0000
(1716921570.133329) can0 080#7107
(1716921570.143401) can0 425#0000
(1716921570.143499) can0 080#7107
(1716921570.153207) can0 425#0000
(1716921570.153328) can0 080#7107
(1716921570.163386) can0 425#0000
(1716921570.163496) can0 080#7107
(1716921570.173256) can0 425#0000
(1716921570.173363) can0 080#7107
(1716921570.183385) can0 425#0000
(1716921570.183493) can0 080#7107
(1716921570.193204) can0 425#0000
(1716921570.193331) can0 080#7107
(1716921570.203382) can0 425#0000
(1716921570.203497) can0 080#7107
(1716921570.213208) can0 425#0000
(1716921570.213332) can0 080#7107
(1716921570.223438) can0 425#0000
(1716921570.223480) can0 080#7107
(1716921570.233210) can0 425#0000
(1716921570.233331) can0 080#7107
(1716921570.243386) can0 425#0000
(1716921570.243493) can0 080#7107
(1716921570.253201) can0 425#0000
(1716921570.253331) can0 080#7107
(1716921570.263389) can0 425#0000
(1716921570.263493) can0 080#7107
(1716921570.273206) can0 425#0000
(1716921570.273332) can0 080#7107
(1716921570.283386) can0 425#0000
(1716921570.283495) can0 080#7107
(1716921570.293205) can0 425#0000
(1716921570.293331) can0 080#7107
(1716921570.303389) can0 425#0000
(1716921570.303496) can0 080#7107
(1716921570.313208) can0 425#0000
(1716921570.313333) can0 080#7107
(1716921570.323406) can0 425#0000
(1716921570.323494) can0 080#7107
(1716921570.333207) can0 425#0000
(1716921570.333333) can0 080#7107
(1716921570.343419) can0 425#0000
(1716921570.343477) can0 080#7107
(1716921570.353208) can0 425#0000
(1716921570.353314) can0 080#7107
(1716921570.363438) can0 425#0000
(1716921570.363507) can0 080#7107
(1716921570.373244) can0 425#0000
(1716921570.373333) can0 080#7107
(1716921570.383389) can0 425#0000
(1716921570.383495) can0 080#7107
(1716921570.393187) can0 425#0000
(1716921570.393310) can0 080#7107
(1716921570.403388) can0 425#0000
(1716921570.403501) can0 080#7107
(1716921570.413191) can0 425#0000
(1716921570.413336) can0 080#7107
(1716921570.423390) can0 425#0000
(1716921570.423503) can0 080#7107
(1716921570.433186) can0 425#0000
(1716921570.433334) can0 080#7107
(1716921570.443390) can0 425#0000
(1716921570.443497) can0 080#7107
(1716921570.453214) can0 425#0000
(1716921570.453312) can0 080#7107
(1716921570.463385) can0 425#0000
(1716921570.463503) can0 080#7107
(1716921570.473209) can0 425#0000
(1716921570.473336) can0 080#7107
(1716921570.483460) can0 425#0000
(1716921570.483495) can0 080#7107
(1716921570.493188) can0 425#0000
(1716921570.493336) can0 080#7107
(1716921570.503389) can0 425#0000
(1716921570.503499) can0 080#7107
(1716921570.513189) can0 425#0000
(1716921570.513311) can0 080#7107
(1716921570.523389) can0 425#0000
(1716921570.523499) can0 080#7107
(1716921570.533191) can0 425#0000
(1716921570.533337) can0 080#7107
(1716921570.543415) can0 425#0000
(1716921570.543503) can0 080#7107
(1716921570.553189) can0 425#0000
(1716921570.553337) can0 080#7107
(1716921570.563412) can0 425#0000
(1716921570.563505) can0 080#7107
(1716921570.573189) can0 425#0000
(1716921570.573313) can0 080#7107
(1716921570.583389) can0 425#0000
(1716921570.583503) can0 080#7107
(1716921570.593190) can0 425#0000
(1716921570.593342) can0 080#7107
(1716921570.603390) can0 425#0000
(1716921570.603501) can0 080#7107
(1716921570.613189) can0 425#0000
(1716921570.613313) can0 080#7107
(1716921570.623420) can0 425#0000
(1716921570.623503) can0 080#7107
(1716921570.633213) can0 425#0000
(1716921570.633338) can0 080#7107
(1716921570.643389) can0 425#0000
(1716921570.643507) can0 080#7107
(1716921570.653193) can0 425#0000
(1716921570.653340) can0 080#7107
(1716921570.663365) can0 425#0000
(1716921570.663508) can0 080#7107
(1716921570.673217) can0 425#0000
(1716921570.673339) can0 080#7107
(1716921570.683409) can0 425#0000
(1716921570.683502) can0 080#7107
(1716921570.693841) can0 425#0000
(1716921570.694014) can0 080#7107
(1716921570.703458) can0 425#0000
(1716921570.703543) can0 080#7007
(1716921570.713199) can0 425#0000
(1716921570.713344) can0 080#7007
(1716921570.723392) can0 425#0000
(1716921570.723507) can0 080#7007
(1716921570.733190) can0 425#0000
(1716921570.733317) can0 080#7007
(1716921570.743410) can0 425#0000
(1716921570.743503) can0 080#7007
(1716921570.753196) can0 425#0000
(1716921570.753341) can0 080#7007
(1716921570.763392) can0 425#0000
(1716921570.763503) can0 080#7007
(1716921570.773216) can0 425#0000
(1716921570.773312) can0 080#7007
(1716921570.783393) can0 425#0000
(1716921570.783504) can0 080#7007
(1716921570.793219) can0 425#0000
(1716921570.793341) can0 080#7007
(1716921570.803421) can0 425#0000
(1716921570.803510) can0 080#7007
(1716921570.813241) can0 425#0000
(1716921570.813346) can0 080#7007
(1716921570.823389) can0 425#0000
(1716921570.823506) can0 080#7007
(1716921570.833196) can0 425#0000
(1716921570.833342) can0 080#7007
(1716921570.843371) can0 425#0000
(1716921570.843506) can0 080#7007
(1716921570.853198) can0 425#0000
(1716921570.853276) can0 080#7007
(1716921570.863411) can0 425#0000
(1716921570.863552) can0 080#7007
(1716921570.873197) can0 425#0000
(1716921570.873344) can0 080#7007
(1716921570.883396) can0 425#0000
(1716921570.883505) can0 080#7007
(1716921570.893220) can0 425#0000
(1716921570.893317) can0 080#7007
(1716921570.903396) can0 425#0000
(1716921570.903506) can0 080#7007
(1716921570.913199) can0 425#0000
(1716921570.913292) can0 080#7007
(1716921570.923372) can0 425#0000
(1716921570.923507) can0 080#7007
(1716921570.933198) can0 425#0000
(1716921570.933344) can0 080#7007
(1716921570.943395) can0 425#0000
(1716921570.943506) can0 080#7007
(1716921570.953199) can0 425#0000
(1716921570.953319) can0 080#7007
(1716921570.963442) can0 425#0000
(1716921570.963493) can0 080#7007
(1716921570.973220) can0 425#0000
(1716921570.973345) can0 080#7007
(1716921570.983398) can0 425#0000
(1716921570.983514) can0 080#7007
(1716921570.993219) can0 425#0000
(1716921570.993324) can0 080#7007
(1716921571.003417) can0 425#0000
(1716921571.003508) can0 080#7007
(1716921571.013199) can0 425#0000
(1716921571.013346) can0 080#7007
(1716921571.023390) can0 425#0000
(1716921571.023523) can0 080#7007
(1716921571.033201) can0 425#0000
(1716921571.033346) can0 080#7007
(1716921571.043393) can0 425#0000
(1716921571.043522) can0 080#7007
(1716921571.053224) can0 425#0000
(1716921571.053323) can0 080#7007
(1716921571.063363) can0 425#0000
(1716921571.063522) can0 080#7007
(1716921571.073200) can0 425#0000
(1716921571.073323) can0 080#7007
(1716921571.083366) can0 425#0000
(1716921571.083524) can0 080#7007
(1716921571.093201) can0 425#0000
(1716921571.093312) can0 080#7007
(1716921571.103388) can0 425#0000
(1716921571.103522) can0 080#7007
(1716921571.113219) can0 425#0000
(1716921571.113323) can0 080#7007
(1716921571.123367) can0 425#0000
(1716921571.123524) can0 080#7007
(1716921571.133202) can0 425#0000
(1716921571.133322) can0 080#7007
(1716921571.143361) can0 425#0000
(1716921571.143523) can0 080#7007
(1716921571.153202) can0 425#0000
(1716921571.153325) can0 080#7007
(1716921571.163477) can0 425#0000
(1716921571.163542) can0 080#7007
(1716921571.173223) can0 425#0000
(1716921571.173328) can0 080#7007
(1716921571.183402) can0 425#0000
(1716921571.183527) can0 080#7007
(1716921571.193233) can0 425#0000
(1716921571.193315) can0 080#7007
(1716921571.203405) can0 425#0000
(1716921571.203525) can0 080#7007
(1716921571.213245) can0 425#0000
(1716921571.213341) can0 080#7007
(1716921571.223395) can0 425#0000
(1716921571.223526) can0 080#7007
(1716921571.233222) can0 425#0000
(1716921571.233348) can0 080#7007
(1716921571.243401) can0 425#0000
(1716921571.243526) can0 080#7007
(1716921571.253229) can0 425#0000
(1716921571.253325) can0 080#7007
(1716921571.263369) can0 425#0000
(1716921571.263525) can0 080#7007
(1716921571.273228) can0 425#0000
(1716921571.273322) can0 080#7007
(1716921571.283429) can0 425#0000
(1716921571.283528) can0 080#7007
(1716921571.293230) can0 425#0000
(1716921571.293327) can0 080#7007
(1716921571.303390) can0 425#0000
(1716921571.303528) can0 080#7007
(1716921571.313227) can0 425#0000
(1716921571.313332) can0 080#7007
(1716921571.323392) can0 425#0000
(1716921571.323525) can0 080#7007
(1716921571.333213) can0 425#0000
(1716921571.333327) can0 080#7007
(1716921571.343403) can0 425#0000
(1716921571.343529) can0 080#7007
(1716921571.353212) can0 425#0000
(1716921571.353327) can0 080#7007
(1716921571.363375) can0 425#0000
(1716921571.363528) can0 080#7007
(1716921571.373272) can0 425#0000
(1716921571.373337) can0 080#7007
(1716921571.383430) can0 425#0000
(1716921571.383524) can0 080#7007
(1716921571.393224) can0 425#0000
(1716921571.393328) can0 080#7007
(1716921571.403430) can0 425#0000
(1716921571.403524) can0 080#7007
(1716921571.413207) can0 425#0000
(1716921571.413329) can0 080#7007
(1716921571.423377) can0 425#0000
(1716921571.423528) can0 080#7007
(1716921571.433208) can0 425#0000
(1716921571.433329) can0 080#7007
(1716921571.443401) can0 425#0000
(1716921571.443571) can0 080#7007
(1716921571.453226) can0 425#0000
(1716921571.453332) can0 080#7007
(1716921571.463460) can0 425#0000
(1716921571.463526) can0 080#7007
(1716921571.473210) can0 425#0000
(1716921571.473331) can0 080#7007
(1716921571.483374) can0 425#0000
(1716921571.483530) can0 080#7007
(1716921571.493231) can0 425#0000
(1716921571.493335) can0 080#7007
(1716921571.503402) can0 425#0000
(1716921571.503531) can0 080#7007
(1716921571.513230) can0 425#0000
(1716921571.513336) can0 080#7007
(1716921571.523439) can0 425#0000
(1716921571.523541) can0 080#7007
(1716921571.533229) can0 425#0000
(1716921571.533337) can0 080#7007
(1716921571.543377) can0 425#0000
(1716921571.543531) can0 080#7007
(1716921571.553209) can0 425#0000
(1716921571.553332) can0 080#7007
(1716921571.563409) can0 425#0000
(1716921571.563532) can0 080#7007
(1716921571.573209) can0 425#0000
(1716921571.573331) can0 080#7007
(1716921571.583376) can0 425#0000
(1716921571.583531) can0 080#7007
(1716921571.593232) can0 425#0000
(1716921571.593333) can0 080#7007
(1716921571.603409) can0 425#0000
(1716921571.603533) can0 080#7007
(1716921571.613211) can0 425#0000
(1716921571.613332) can0 080#7007
(1716921571.623441) can0 425#0000
(1716921571.623536) can0 080#7007
(1716921571.633211) can0 425#0000
(1716921571.633337) can0 080#7007
(1716921571.643399) can0 425#0000
(1716921571.643533) can0 080#7007
(1716921571.653203) can0 425#0000
(1716921571.653335) can0 080#7007
(1716921571.663372) can0 425#0000
(1716921571.663532) can0 080#7007
(1716921571.673230) can0 425#0000
(1716921571.673340) can0 080#7007
(1716921571.683411) can0 425#0000
(1716921571.683534) can0 080#7007
(1716921571.693864) can0 425#0000
(1716921571.694009) can0 080#7007
(1716921571.703475) can0 425#0000
(1716921571.703528) can0 080#7107
(1716921571.713212) can0 425#0000
(1716921571.713360) can0 080#7107
(1716921571.723411) can0 425#0000
(1716921571.723535) can0 080#7107
(1716921571.733214) can0 425#0000
(1716921571.733335) can0 080#7107
(1716921571.743400) can0 425#0000
(1716921571.743534) can0 080#7107
(1716921571.753214) can0 425#0000
(1716921571.753335) can0 080#7107
(1716921571.763378) can0 425#0000
(1716921571.763535) can0 080#7107
(1716921571.773213) can0 425#0000
(1716921571.773336) can0 080#7107
(1716921571.783379) can0 425#0000
(1716921571.783536) can0 080#7107
(1716921571.793237) can0 425#0000
(1716921571.793334) can0 080#7107
(1716921571.803379) can0 425#0000
(1716921571.803537) can0 080#7107
(1716921571.813262) can0 425#0000
(1716921571.813367) can0 080#7107
(1716921571.823382) can0 425#0000
(1716921571.823541) can0 080#7107
(1716921571.833215) can0 425#0000
(1716921571.833336) can0 080#7107
(1716921571.843379) can0 425#0000
(1716921571.843537) can0 080#7107
(1716921571.853216) can0 425#0000
(1716921571.853337) can0 080#7107
(1716921571.863453) can0 425#0000
(1716921571.863496) can0 080#7107
(1716921571.873217) can0 425#0000
(1716921571.873337) can0 080#7107
(1716921571.883395) can0 425#0000
(1716921571.883542) can0 080#7107
(1716921571.893214) can0 425#0000
(1716921571.893337) can0 080#7107
(1716921571.903386) can0 425#0000
(1716921571.903539) can0 080#7107
(1716921571.913216) can0 425#0000
(1716921571.913338) can0 080#7107
(1716921571.923400) can0 425#0000
(1716921571.923539) can0 080#7107
(1716921571.933224) can0 425#0000
(1716921571.933339) can0 080#7107
(1716921571.943461) can0 425#0000
(1716921571.943554) can0 080#7107
(1716921571.953235) can0 425#0000
(1716921571.953340) can0 080#7107
(1716921571.963372) can0 425#0000
(1716921571.963540) can0 080#7107
(1716921571.973218) can0 425#0000
(1716921571.973339) can0 080#7107
(1716921571.983541) can0 425#0000
(1716921571.983578) can0 080#7107
(1716921571.993239) can0 425#0000
(1716921571.993343) can0 080#7107
(1716921572.003382) can0 425#0000
(1716921572.003541) can0 080#7107
(1716921572.013220) can0 425#0000
(1716921572.013341) can0 080#7107
(1716921572.023417) can0 425#0000
(1716921572.023541) can0 080#7107
(1716921572.033220) can0 425#0000
(1716921572.033341) can0 080#7107
(1716921572.043419) can0 425#0000
(1716921572.043542) can0 080#7107
(1716921572.053253) can0 425#0000
(1716921572.053315) can0 080#7107
(1716921572.063407) can0 425#0000
(1716921572.063542) can0 080#7107
(1716921572.073220) can0 425#0000
(1716921572.073341) can0 080#7107
(1716921572.083385) can0 425#0000
(1716921572.083542) can0 080#7107
(1716921572.093220) can0 425#0000
(1716921572.093342) can0 080#7107
(1716921572.103420) can0 425#0000
(1716921572.103542) can0 080#7107
(1716921572.113219) can0 425#0000
(1716921572.113342) can0 080#7107
(1716921572.123386) can0 425#0000
(1716921572.123543) can0 080#7107
(1716921572.133220) can0 425#0000
(1716921572.133343) can0 080#7107
(1716921572.143388) can0 425#0000
(1716921572.143548) can0 080#7107
(1716921572.153247) can0 425#0000
(1716921572.153371) can0 080#7107
(1716921572.163382) can0 425#0000
(1716921572.163546) can0 080#7107
(1716921572.173196) can0 425#0000
(1716921572.173363) can0 080#7107
(1716921572.183387) can0 425#0000
(1716921572.183545) can0 080#7107
(1716921572.193200) can0 425#0000
(1716921572.193348) can0 080#7107
(1716921572.203383) can0 425#0000
(1716921572.203519) can0 080#7107
(1716921572.213221) can0 425#0000
(1716921572.213344) can0 080#7107
(1716921572.223383) can0 425#0000
(1716921572.223520) can0 080#7107
(1716921572.233215) can0 425#0000
(1716921572.233344) can0 080#7107
(1716921572.243385) can0 425#0000
(1716921572.243545) can0 080#7107
(1716921572.253198) can0 425#0000
(1716921572.253344) can0 080#7107
(1716921572.263386) can0 425#0000
(1716921572.263545) can0 080#7107
(1716921572.273226) can0 425#0000
(1716921572.273345) can0 080#7107
(1716921572.283397) can0 425#0000
(1716921572.283525) can0 080#7107
(1716921572.293224) can0 425#0000
(1716921572.293335) can0 080#7107
(1716921572.303458) can0 425#0000
(1716921572.303512) can0 080#7107
(1716921572.313199) can0 425#0000
(1716921572.313373) can0 080#7107
(1716921572.323398) can0 425#0000
(1716921572.323550) can0 080#7107
(1716921572.333223) can0 425#0000
(1716921572.333337) can0 080#7107
(1716921572.343399) can0 425#0000
(1716921572.343524) can0 080#7107
(1716921572.353220) can0 425#0000
(1716921572.353336) can0 080#7107
(1716921572.363402) can0 425#0000
(1716921572.363526) can0 080#7107
(1716921572.373199) can0 425#0000
(1716921572.373337) can0 080#7107
(1716921572.383423) can0 425#0000
(1716921572.383548) can0 080#7107
(1716921572.393224) can0 425#0000
(1716921572.393355) can0 080#7107
(1716921572.403401) can0 425#0000
(1716921572.403551) can0 080#7107
(1716921572.413204) can0 425#0000
(1716921572.413337) can0 080#7107
(1716921572.423403) can0 425#0000
(1716921572.423548) can0 080#7107
(1716921572.433246) can0 425#0000
(1716921572.433339) can0 080#7107
(1716921572.443407) can0 425#0000
(1716921572.443523) can0 080#7107
(1716921572.453245) can0 425#0000
(1716921572.453337) can0 080#7107
(1716921572.463401) can0 425#0000
(1716921572.463549) can0 080#7107
(1716921572.473202) can0 425#0000
(1716921572.473338) can0 080#7107
(1716921572.483403) can0 425#0000
(1716921572.483527) can0 080#7107
(1716921572.493227) can0 425#0000
(1716921572.493338) can0 080#7107
(1716921572.503422) can0 425#0000
(1716921572.503527) can0 080#7107
(1716921572.513227) can0 425#0000
(1716921572.513345) can0 080#7107
(1716921572.523423) can0 425#0000
(1716921572.523531) can0 080#7107
(1716921572.533246) can0 425#0000
(1716921572.533340) can0 080#7107
(1716921572.543462) can0 425#0000
(1716921572.543539) can0 080#7107
(1716921572.553207) can0 425#0000
(1716921572.553343) can0 080#7107
(1716921572.563429) can0 425#0000
(1716921572.563527) can0 080#7107
(1716921572.573230) can0 425#0000
(1716921572.573339) can0 080#7107
(1716921572.583427) can0 425#0000
(1716921572.583546) can0 080#7107
(1716921572.593228) can0 425#0000
(1716921572.593339) can0 080#7107
(1716921572.603404) can0 425#0000
(1716921572.603552) can0 080#7107
(1716921572.613209) can0 425#0000
(1716921572.613340) can0 080#7107
(1716921572.623428) can0 425#0000
(1716921572.623553) can0 080#7107
(1716921572.633227) can0 425#0000
(1716921572.633341) can0 080#7107
(1716921572.643405) can0 425#0000
(1716921572.643553) can0 080#7107
(1716921572.653250) can0 425#0000
(1716921572.653340) can0 080#7107
(1716921572.663439) can0 425#0000
(1716921572.663516) can0 080#7107
(1716921572.673233) can0 425#0000
(1716921572.673342) can0 080#7107
(1716921572.683425) can0 425#0000
(1716921572.683554) can0 080#7107
(1716921572.693902) can0 425#0000
(1716921572.694018) can0 080#7107
(1716921572.703461) can0 425#0000
(1716921572.703577) can0 080#7107
(1716921572.713252) can0 425#0000
(1716921572.713346) can0 080#7107
(1716921572.723408) can0 425#0000
(1716921572.723529) can0 080#7107
(1716921572.733250) can0 425#0000
(1716921572.733343) can0 080#7107
(1716921572.743409) can0 425#0000
(1716921572.743530) can0 080#7107
(1716921572.753230) can0 425#0000
(1716921572.753344) can0 080#7107
(1716921572.763400) can0 425#0000
(1716921572.763556) can0 080#7107
(1716921572.773209) can0 425#0000
(1716921572.773344) can0 080#7107
(1716921572.783454) can0 425#0000
(1716921572.783507) can0 080#7107
(1716921572.793261) can0 425#0000
(1716921572.793347) can0 080#7107
(1716921572.803409) can0 425#0000
(1716921572.803557) can0 080#7107
(1716921572.813247) can0 425#0000
(1716921572.813370) can0 080#7107
(1716921572.823410) can0 425#0000
(1716921572.823557) can0 080#7107
(1716921572.833213) can0 425#0000
(1716921572.833345) can0 080#7107
(1716921572.843409) can0 425#0000
(1716921572.843556) can0 080#7107
(1716921572.853234) can0 425#0000
(1716921572.853359) can0 080#7107
(1716921572.863407) can0 425#0000
(1716921572.863557) can0 080#7107
(1716921572.873240) can0 425#0000
(1716921572.873348) can0 080#7107
(1716921572.883410) can0 425#0000
(1716921572.883532) can0 080#7107
(1716921572.893211) can0 425#0000
(1716921572.893347) can0 080#7107
(1716921572.903414) can0 425#0000
(1716921572.903534) can0 080#7107
(1716921572.913211) can0 425#0000
(1716921572.913346) can0 080#7107
(1716921572.923435) can0 425#0000
(1716921572.923534) can0 080#7107
(1716921572.933217) can0 425#0000
(1716921572.933347) can0 080#7107
(1716921572.943412) can0 425#0000
(1716921572.943559) can0 080#7107
(1716921572.953225) can0 425#0000
(1716921572.953346) can0 080#7107
(1716921572.963450) can0 425#0000
(1716921572.963561) can0 080#7107
(1716921572.973213) can0 425#0000
(1716921572.973347) can0 080#7107
(1716921572.983421) can0 425#0000
(1716921572.983535) can0 080#7107
(1716921572.993211) can0 425#0000
(1716921572.993348) can0 080#7107
(1716921573.003413) can0 425#0000
(1716921573.003535) can0 080#7107
(1716921573.013215) can0 425#0000
(1716921573.013348) can0 080#7107
(1716921573.023416) can0 425#0000
(1716921573.023536) can0 080#7107
(1716921573.033213) can0 425#0000
(1716921573.033367) can0 080#7107
(1716921573.043454) can0 425#0000
(1716921573.043535) can0 080#7107
(1716921573.053214) can0 425#0000
(1716921573.053349) can0 080#7107
(1716921573.063414) can0 425#0000
(1716921573.063537) can0 080#7107
(1716921573.073212) can0 425#0000
(1716921573.073349) can0 080#7107
(1716921573.083417) can0 425#0000
(1716921573.083537) can0 080#7107
(1716921573.093216) can0 425#0000
(1716921573.093349) can0 080#7107
(1716921573.103411) can0 425#0000
(1716921573.103537) can0 080#7107
(1716921573.113215) can0 425#0000
(1716921573.113351) can0 080#7107
(1716921573.123415) can0 425#0000
(1716921573.123540) can0 080#7107
(1716921573.133219) can0 425#0000
(1716921573.133350) can0 080#7107
(1716921573.143453) can0 425#0000
(1716921573.143517) can0 080#7107
(1716921573.153235) can0 425#0000
(1716921573.153351) can0 080#7107
(1716921573.163442) can0 425#0000
(1716921573.163530) can0 080#7107
(1716921573.173216) can0 425#0000
(1716921573.173354) can0 080#7107
(1716921573.183416) can0 425#0000
(1716921573.183538) can0 080#7107
(1716921573.193215) can0 425#0000
(1716921573.193353) can0 080#7107
(1716921573.203472) can0 425#0000
(1716921573.203520) can0 080#7107
(1716921573.213218) can0 425#0000
(1716921573.213352) can0 080#7107
(1716921573.223419) can0 425#0000
(1716921573.223540) can0 080#7107
(1716921573.233217) can0 425#0000
(1716921573.233354) can0 080#7107
(1716921573.243417) can0 425#0000
(1716921573.243539) can0 080#7107
(1716921573.253243) can0 425#0000
(1716921573.253353) can0 080#7107
(1716921573.263439) can0 425#0000
(1716921573.263545) can0 080#7107
(1716921573.273220) can0 425#0000
(1716921573.273354) can0 080#7107
(1716921573.283420) can0 425#0000
(1716921573.283540) can0 080#7107
(1716921573.293219) can0 425#0000
(1716921573.293355) can0 080#7107
(1716921573.303442) can0 425#0000
(1716921573.303539) can0 080#7107
(1716921573.313276) can0 425#0000
(1716921573.313341) can0 080#7107
(1716921573.323419) can0 425#0000
(1716921573.323542) can0 080#7107
(1716921573.333242) can0 425#0000
(1716921573.333355) can0 080#7107
(1716921573.343421) can0 425#0000
(1716921573.343542) can0 080#7107
(1716921573.353223) can0 425#0000
(1716921573.353356) can0 080#7107
(1716921573.363439) can0 425#0000
(1716921573.363548) can0 080#7107
(1716921573.373223) can0 425#0000
(1716921573.373393) can0 080#7107
(1716921573.383468) can0 425#0000
(1716921573.383532) can0 080#7107
(1716921573.393222) can0 425#0000
(1716921573.393359) can0 080#7107
(1716921573.403441) can0 425#0000
(1716921573.403542) can0 080#7107
(1716921573.413198) can0 425#0000
(1716921573.413427) can0 080#7107
(1716921573.423421) can0 425#0000
(1716921573.423543) can0 080#7107
(1716921573.433242) can0 425#0000
(1716921573.433358) can0 080#7107
(1716921573.443443) can0 425#0000
(1716921573.443540) can0 080#7107
(1716921573.453243) can0 425#0000
(1716921573.453356) can0 080#7107
(1716921573.463422) can0 425#0000
(1716921573.463546) can0 080#7107
(1716921573.473250) can0 425#0000
(1716921573.473357) can0 080#7107
(1716921573.483478) can0 425#0000
(1716921573.483533) can0 080#7107
(1716921573.493244) can0 425#0000
(1716921573.493358) can0 080#7107
(1716921573.503424) can0 425#0000
(1716921573.503544) can0 080#7107
(1716921573.513246) can0 425#0000
(1716921573.513369) can0 080#7107
(1716921573.523424) can0 425#0000
(1716921573.523545) can0 080#7107
(1716921573.533257) can0 425#0000
(1716921573.533359) can0 080#7107
(1716921573.543414) can0 425#0000
(1716921573.543545) can0 080#7107
(1716921573.553223) can0 425#0000
(1716921573.553334) can0 080#7107
(1716921573.563424) can0 425#0000
(1716921573.563546) can0 080#7107
(1716921573.573215) can0 425#0000
(1716921573.573371) can0 080#7107
(1716921573.583426) can0 425#0000
(1716921573.583547) can0 080#7107
(1716921573.593224) can0 425#0000
(1716921573.593371) can0 080#7107
(1716921573.603479) can0 425#0000
(1716921573.603521) can0 080#7107
(1716921573.613243) can0 425#0000
(1716921573.613371) can0 080#7107
(1716921573.623426) can0 425#0000
(1716921573.623547) can0 080#7107
(1716921573.633220) can0 425#0000
(1716921573.633373) can0 080#7107
(1716921573.643447) can0 425#0000
(1716921573.643549) can0 080#7107
(1716921573.653213) can0 425#0000
(1716921573.653372) can0 080#7107
(1716921573.663426) can0 425#0000
(1716921573.663548) can0 080#7107
(1716921573.673215) can0 425#0000
(1716921573.673373) can0 080#7107
(1716921573.683499) can0 425#0000
(1716921573.683555) can0 080#7107
(1716921573.693889) can0 425#0000
(1716921573.694048) can0 080#7107
(1716921573.703451) can0 425#0000
(1716921573.703573) can0 080#7007
(1716921573.713218) can0 425#0000
(1716921573.713378) can0 080#7007
(1716921573.723426) can0 425#0000
(1716921573.723550) can0 080#7007
(1716921573.733220) can0 425#0000
(1716921573.733375) can0 080#7007
(1716921573.743468) can0 425#0000
(1716921573.743511) can0 080#7007
(1716921573.753221) can0 425#0000
(1716921573.753351) can0 080#7007
(1716921573.763455) can0 425#0000
(1716921573.763548) can0 080#7007
(1716921573.773225) can0 425#0000
(1716921573.773377) can0 080#7007
(1716921573.783432) can0 425#0000
(1716921573.783551) can0 080#7007
(1716921573.793252) can0 425#0000
(1716921573.793376) can0 080#7007
(1716921573.803427) can0 425#0000
(1716921573.803551) can0 080#7007
(1716921573.813237) can0 425#0000
(1716921573.813376) can0 080#7007
(1716921573.823485) can0 425#0000
(1716921573.823531) can0 080#7007
(1716921573.833222) can0 425#0000
(1716921573.833376) can0 080#7007
(1716921573.843468) can0 425#0000
(1716921573.843551) can0 080#7007
(1716921573.853218) can0 425#0000
(1716921573.853352) can0 080#7007
(1716921573.863449) can0 425#0000
(1716921573.863552) can0 080#7007
(1716921573.873219) can0 425#0000
(1716921573.873352) can0 080#7007
(1716921573.883469) can0 425#0000
(1716921573.883554) can0 080#7007
(1716921573.893222) can0 425#0000
(1716921573.893355) can0 080#7007
(1716921573.903452) can0 425#0000
(1716921573.903558) can0 080#7007
(1716921573.913222) can0 425#0000
(1716921573.913352) can0 080#7007
(1716921573.923465) can0 425#0000
(1716921573.923524) can0 080#7007
(1716921573.933240) can0 425#0000
(1716921573.933353) can0 080#7007
(1716921573.943431) can0 425#0000
(1716921573.943553) can0 080#7007
(1716921573.953224) can0 425#0000
(1716921573.953353) can0 080#7007
(1716921573.963428) can0 425#0000
(1716921573.963554) can0 080#7007
(1716921573.973242) can0 425#0000
(1716921573.973378) can0 080#7007
(1716921573.983453) can0 425#0000
(1716921573.983558) can0 080#7007
(1716921573.993221) can0 425#0000
(1716921573.993354) can0 080#7007
(1716921574.003432) can0 425#0000
(1716921574.003554) can0 080#7007
(1716921574.013254) can0 425#0000
(1716921574.013359) can0 080#7007
(1716921574.023436) can0 425#0000
(1716921574.023555) can0 080#7007
(1716921574.033222) can0 425#0000
(1716921574.033381) can0 080#7007
(1716921574.043438) can0 425#0000
(1716921574.043514) can0 080#7007
(1716921574.053228) can0 425#0000
(1716921574.053356) can0 080#7007
(1716921574.063435) can0 425#0000
(1716921574.063556) can0 080#7007
(1716921574.073253) can0 425#0000
(1716921574.073355) can0 080#7007
(1716921574.083434) can0 425#0000
(1716921574.083556) can0 080#7007
(1716921574.093223) can0 425#0000
(1716921574.093356) can0 080#7007
(1716921574.103438) can0 425#0000
(1716921574.103557) can0 080#7007
(1716921574.113256) can0 425#0000
(1716921574.113358) can0 080#7007
(1716921574.123458) can0 425#0000
(1716921574.123563) can0 080#7007
(1716921574.133229) can0 425#0000
(1716921574.133383) can0 080#7007
(1716921574.143411) can0 425#0000
(1716921574.143561) can0 080#7007
(1716921574.153258) can0 425#0000
(1716921574.153355) can0 080#7007
(1716921574.163410) can0 425#0000
(1716921574.163557) can0 080#7007
(1716921574.173230) can0 425#0000
(1716921574.173383) can0 080#7007
(1716921574.183436) can0 425#0000
(1716921574.183559) can0 080#7007
(1716921574.193235) can0 425#0000
(1716921574.193358) can0 080#7007
(1716921574.203434) can0 425#0000
(1716921574.203558) can0 080#7007
(1716921574.213226) can0 425#0000
(1716921574.213358) can0 080#7007
(1716921574.223432) can0 425#0000
(1716921574.223551) can0 080#7007
(1716921574.233230) can0 425#0000
(1716921574.233359) can0 080#7007
(1716921574.243438) can0 425#0000
(1716921574.243559) can0 080#7007
(1716921574.253227) can0 425#0000
(1716921574.253359) can0 080#7007
(1716921574.263444) can0 425#0000
(1716921574.263559) can0 080#7007
(1716921574.273260) can0 425#0000
(1716921574.273365) can0 080#7007
(1716921574.283461) can0 425#0000
(1716921574.283559) can0 080#7007
(1716921574.293233) can0 425#0000
(1716921574.293359) can0 080#7007
(1716921574.303475) can0 425#0000
(1716921574.303540) can0 080#7007
(1716921574.313262) can0 425#0000
(1716921574.313357) can0 080#7007
(1716921574.323531) can0 425#0000
(1716921574.323592) can0 080#7007
(1716921574.333260) can0 425#0000
(1716921574.333363) can0 080#7007
(1716921574.343435) can0 425#0000
(1716921574.343562) can0 080#7007
(1716921574.353263) can0 425#0000
(1716921574.353362) can0 080#7007
(1716921574.363416) can0 425#0000
(1716921574.363562) can0 080#7007
(1716921574.373230) can0 425#0000
(1716921574.373361) can0 080#7007
(1716921574.383416) can0 425#0000
(1716921574.383564) can0 080#7007
(1716921574.393233) can0 425#0000
(1716921574.393363) can0 080#7007
(1716921574.403421) can0 425#0000
(1716921574.403540) can0 080#7007
(1716921574.413233) can0 425#0000
(1716921574.413362) can0 080#7007
(1716921574.423442) can0 425#0000
(1716921574.423563) can0 080#7007
(1716921574.433236) can0 425#0000
(1716921574.433396) can0 080#7007
(1716921574.443439) can0 425#0000
(1716921574.443551) can0 080#7007
(1716921574.453263) can0 425#0000
(1716921574.453370) can0 080#7007
(1716921574.463443) can0 425#0000
(1716921574.463565) can0 080#7007
(1716921574.473262) can0 425#0000
(1716921574.473368) can0 080#7007
(1716921574.483441) can0 425#0000
(1716921574.483564) can0 080#7007
(1716921574.493239) can0 425#0000
(1716921574.493365) can0 080#7007
(1716921574.503469) can0 425#0000
(1716921574.503562) can0 080#7007
(1716921574.513230) can0 425#0000
(1716921574.513365) can0 080#7007
(1716921574.523442) can0 425#0000
(1716921574.523566) can0 080#7007
(1716921574.533273) can0 425#0000
(1716921574.533366) can0 080#7007
(1716921574.543417) can0 425#0000
(1716921574.543565) can0 080#7007
(1716921574.553234) can0 425#0000
(1716921574.553364) can0 080#7007
(1716921574.563421) can0 425#0000
(1716921574.563565) can0 080#7007
(1716921574.573235) can0 425#0000
(1716921574.573370) can0 080#7007
(1716921574.583447) can0 425#0000
(1716921574.583566) can0 080#7007
(1716921574.593235) can0 425#0000
(1716921574.593394) can0 080#7007
(1716921574.603419) can0 425#0000
(1716921574.603566) can0 080#7007
(1716921574.613236) can0 425#0000
(1716921574.613367) can0 080#7007
(1716921574.623422) can0 425#0000
(1716921574.623567) can0 080#7007
(1716921574.633240) can0 425#0000
(1716921574.633367) can0 080#7007
(1716921574.643450) can0 425#0000
(1716921574.643567) can0 080#7007
(1716921574.653226) can0 425#0000
(1716921574.653366) can0 080#7007
(1716921574.663481) can0 425#0000
(1716921574.663567) can0 080#7007
(1716921574.673236) can0 425#0000
(1716921574.673368) can0 080#7007
(1716921574.683421) can0 425#0000
(1716921574.683571) can0 080#7007
(1716921574.693885) can0 425#0000
(1716921574.694044) can0 080#7007
(1716921574.703470) can0 425#0000
(1716921574.703591) can0 080#7007
(1716921574.713239) can0 425#0000
(1716921574.713368) can0 080#7007
(1716921574.723473) can0 425#0000
(1716921574.723576) can0 080#7007
(1716921574.733267) can0 425#0000
(1716921574.733372) can0 080#7007
(1716921574.743419) can0 425#0000
(1716921574.743569) can0 080#7007
(1716921574.753240) can0 425#0000
(1716921574.753369) can0 080#7007
(1716921574.763420) can0 425#0000
(1716921574.763569) can0 080#7007
(1716921574.773261) can0 425#0000
(1716921574.773374) can0 080#7007
(1716921574.783423) can0 425#0000
(1716921574.783570) can0 080#7007
(1716921574.793239) can0 425#0000
(1716921574.793371) can0 080#7007
(1716921574.803449) can0 425#0000
(1716921574.803570) can0 080#7007
(1716921574.813264) can0 425#0000
(1716921574.813396) can0 080#7007
(1716921574.823465) can0 425#0000
(1716921574.823571) can0 080#7007
(1716921574.833277) can0 425#0000
(1716921574.833359) can0 080#7007
(1716921574.843425) can0 425#0000
(1716921574.843563) can0 080#7007
(1716921574.853251) can0 425#0000
(1716921574.853371) can0 080#7007
(1716921574.863448) can0 425#0000
(1716921574.863573) can0 080#7007
(1716921574.873252) can0 425#0000
(1716921574.873372) can0 080#7007
(1716921574.883425) can0 425#0000
(1716921574.883562) can0 080#7007
(1716921574.893252) can0 425#0000
(1716921574.893372) can0 080#7007
(1716921574.903465) can0 425#0000
(1716921574.903562) can0 080#7007
(1716921574.913254) can0 425#0000
(1716921574.913373) can0 080#7007
(1716921574.923485) can0 425#0000
(1716921574.923547) can0 080#7007
(1716921574.933273) can0 425#0000
(1716921574.933378) can0 080#7007
(1716921574.943430) can0 425#0000
(1716921574.943561) can0 080#7007
(1716921574.953249) can0 425#0000
(1716921574.953373) can0 080#7007
(1716921574.963430) can0 425#0000
(1716921574.963561) can0 080#7007
(1716921574.973275) can0 425#0000
(1716921574.973374) can0 080#7007
(1716921574.983447) can0 425#0000
(1716921574.983564) can0 080#7007
(1716921574.993253) can0 425#0000
(1716921574.993374) can0 080#7007
(1716921575.003429) can0 425#0000
(1716921575.003566) can0 080#7007
(1716921575.013274) can0 425#0000
(1716921575.013379) can0 080#7007
(1716921575.023431) can0 425#0000
(1716921575.023537) can0 080#7007
(1716921575.033253) can0 425#0000
(1716921575.033374) can0 080#7007
(1716921575.043450) can0 425#0000
(1716921575.043564) can0 080#7007
(1716921575.053253) can0 425#0000
(1716921575.053375) can0 080#7007
(1716921575.063482) can0 425#0000
(1716921575.063554) can0 080#7007
(1716921575.073213) can0 425#0000
(1716921575.073333) can0 080#7007
(1716921575.083430) can0 425#0000
(1716921575.083564) can0 080#7007
(1716921575.093275) can0 425#0000
(1716921575.093380) can0 080#7007
(1716921575.103452) can0 425#0000
(1716921575.103564) can0 080#7007
(1716921575.113278) can0 425#0000
(1716921575.113383) can0 080#7007
(1716921575.123461) can0 425#0000
(1716921575.123565) can0 080#7007
(1716921575.133272) can0 425#0000
(1716921575.133376) can0 080#7007
(1716921575.143428) can0 425#0000
(1716921575.143567) can0 080#7007
(1716921575.153253) can0 425#0000
(1716921575.153377) can0 080#7007
(1716921575.163481) can0 425#0000
(1716921575.163573) can0 080#7007
(1716921575.173279) can0 425#0000
(1716921575.173378) can0 080#7007
(1716921575.183467) can0 425#0000
(1716921575.183566) can0 080#7007
(1716921575.193249) can0 425#0000
(1716921575.193379) can0 080#7007
(1716921575.203432) can0 425#0000
(1716921575.203572) can0 080#7007
(1716921575.213256) can0 425#0000
(1716921575.213378) can0 080#7007
(1716921575.223429) can0 425#0000
(1716921575.223568) can0 080#7007
(1716921575.233252) can0 425#0000
(1716921575.233380) can0 080#7007
(1716921575.243431) can0 425#0000
(1716921575.243569) can0 080#7007
(1716921575.253259) can0 425#0000
(1716921575.253380) can0 080#7007
(1716921575.263430) can0 425#0000
(1716921575.263567) can0 080#7007
(1716921575.273263) can0 425#0000
(1716921575.273379) can0 080#7007
(1716921575.283430) can0 425#0000
(1716921575.283568) can0 080#7007
(1716921575.293263) can0 425#0000
(1716921575.293381) can0 080#7007
(1716921575.303434) can0 425#0000
(1716921575.303573) can0 080#7007
(1716921575.313258) can0 425#0000
(1716921575.313380) can0 080#7007
(1716921575.323461) can0 425#0000
(1716921575.323573) can0 080#7007
(1716921575.333283) can0 425#0000
(1716921575.333381) can0 080#7007
(1716921575.343431) can0 425#0000
(1716921575.343569) can0 080#7007
(1716921575.353236) can0 425#0000
(1716921575.353381) can0 080#7007
(1716921575.363466) can0 425#0000
(1716921575.363575) can0 080#7007
(1716921575.373260) can0 425#0000
(1716921575.373381) can0 080#7007
(1716921575.383434) can0 425#0000
(1716921575.383570) can0 080#7007
(1716921575.393259) can0 425#0000
(1716921575.393382) can0 080#7007
(1716921575.403467) can0 425#0000
(1716921575.403577) can0 080#7007
(1716921575.413258) can0 425#0000
(1716921575.413382) can0 080#7007
(1716921575.423434) can0 425#0000
(1716921575.423570) can0 080#7007
(1716921575.433260) can0 425#0000
(1716921575.433383) can0 080#7007
(1716921575.443466) can0 425#0000
(1716921575.443573) can0 080#7007
(1716921575.453261) can0 425#0000
(1716921575.453386) can0 080#7007
(1716921575.463458) can0 425#0000
(1716921575.463573) can0 080#7007
(1716921575.473219) can0 425#0000
(1716921575.473367) can0 080#7007
(1716921575.483435) can0 425#0000
(1716921575.483576) can0 080#7007
(1716921575.493261) can0 425#0000
(1716921575.493384) can0 080#7007
(1716921575.503437) can0 425#0000
(1716921575.503572) can0 080#7007
(1716921575.513265) can0 425#0000
(1716921575.513385) can0 080#7007
(1716921575.523462) can0 425#0000
(1716921575.523574) can0 080#7007
(1716921575.533282) can0 425#0000
(1716921575.533409) can0 080#7007
(1716921575.543460) can0 425#0000
(1716921575.543573) can0 080#7007
(1716921575.553263) can0 425#0000
(1716921575.553385) can0 080#7007
(1716921575.563438) can0 425#0000
(1716921575.563574) can0 080#7007
(1716921575.573283) can0 425#0000
(1716921575.573342) can0 080#7007
(1716921575.583441) can0 425#0000
(1716921575.583575) can0 080#7007
(1716921575.593238) can0 425#0000
(1716921575.593386) can0 080#7007
(1716921575.603442) can0 425#0000
(1716921575.603575) can0 080#7007
(1716921575.613264) can0 425#0000
(1716921575.613388) can0 080#7007
(1716921575.623438) can0 425#0000
(1716921575.623574) can0 080#7007
(1716921575.633239) can0 425#0000
(1716921575.633387) can0 080#7007
(1716921575.643463) can0 425#0000
(1716921575.643580) can0 080#7007
(1716921575.650042) can0 100#00000000
(1716921575.651662) can0 100#00000000
(1716921575.653245) can0 100#FAFF0000
(1716921575.653358) can0 425#0000
(1716921575.653593) can0 080#7007
(1716921575.654811) can0 100#F5FF0000
(1716921575.656319) can0 100#F0FF0000
(1716921575.658010) can0 100#EBFF0000
(1716921575.659555) can0 100#E6FF0000
(1716921575.661139) can0 100#E1FF0000
(1716921575.662761) can0 100#DCFF0000
(1716921575.663458) can0 425#0000
(1716921575.663590) can0 080#7007
(1716921575.664317) can0 100#D7FF0000
(1716921575.665847) can0 100#D2FF0000
(1716921575.667392) can0 100#CDFF0000
(1716921575.668892) can0 100#C8FF0000
(1716921575.670496) can0 100#C3FF0000
(1716921575.672039) can0 100#BEFF0000
(1716921575.673254) can0 425#0000
(1716921575.673387) can0 080#7007
(1716921575.673711) can0 100#B9FF0000
(1716921575.675265) can0 100#B4FF0000
(1716921575.676802) can0 100#AFFF0000
(1716921575.678444) can0 100#AAFF0000
(1716921575.679991) can0 100#A5FF0000
(1716921575.681612) can0 100#A0FF0000
(1716921575.683141) can0 100#9BFF0000
(1716921575.683338) can0 425#0000
(1716921575.683501) can0 080#7007
(1716921575.684686) can0 100#96FF0000
(1716921575.686236) can0 100#91FF0000
(1716921575.687838) can0 100#8CFF0000
(1716921575.689382) can0 100#87FF0000
(1716921575.691053) can0 100#82FF0000
(1716921575.692699) can0 100#7DFF0000
(1716921575.693916) can0 425#0000
(1716921575.694088) can0 080#7007
(1716921575.694238) can0 100#78FF0000
(1716921575.695833) can0 100#73FF0000
(1716921575.697388) can0 100#6EFF0000
(1716921575.699060) can0 100#69FF0000
(1716921575.700666) can0 100#64FF0000
(1716921575.702278) can0 100#5FFF0000
(1716921575.703491) can0 425#0000
(1716921575.703602) can0 080#7207
(1716921575.703845) can0 100#5AFF0000
(1716921575.705406) can0 100#55FF0000
(1716921575.706963) can0 100#50FF0000
(1716921575.708557) can0 100#4BFF0000
(1716921575.710053) can0 100#46FF0000
(1716921575.711731) can0 100#41FF0000
(1716921575.713244) can0 425#0000
(1716921575.713438) can0 100#3CFF0000
(1716921575.713556) can0 080#7207
(1716921575.714886) can0 100#37FF0000
(1716921575.716438) can0 100#32FF0000
(1716921575.718078) can0 100#2DFF0000
(1716921575.719633) can0 100#28FF0000
(1716921575.721251) can0 100#23FF0000
(1716921575.722879) can0 100#1EFF0000
(1716921575.723455) can0 425#0000
(1716921575.723587) can0 080#7207
(1716921575.724406) can0 100#19FF0000
(1716921575.726059) can0 100#14FF0000
(1716921575.727613) can0 100#14FF0000
(1716921575.729154) can0 100#0FFF0000
(1716921575.730829) can0 100#0AFF0000
(1716921575.732382) can0 100#05FF0000
(1716921575.733271) can0 425#0000
(1716921575.733392) can0 080#7207
(1716921575.734005) can0 100#00FF0000
(1716921575.735557) can0 100#FBFE0000
(1716921575.737119) can0 100#F6FE0000
(1716921575.738737) can0 100#F1FE0000
(1716921575.740270) can0 100#ECFE0000
(1716921575.741830) can0 100#E7FE0000
(1716921575.743376) can0 100#E2FE0000
(1716921575.743558) can0 425#0000
(1716921575.743648) can0 080#7207
(1716921575.744929) can0 100#DDFE0000
(1716921575.746469) can0 100#D8FE0000
(1716921575.748030) can0 100#D3FE0000
(1716921575.749577) can0 100#CEFE0000
(1716921575.751117) can0 100#C9FE0000
(1716921575.752666) can0 100#C4FE0000
(1716921575.753267) can0 425#0000
(1716921575.753377) can0 080#7207
(1716921575.754199) can0 100#BFFE0000
(1716921575.755739) can0 100#BAFE0000
(1716921575.757283) can0 100#B5FE0000
(1716921575.758819) can0 100#B0FE0000
(1716921575.760365) can0 100#ABFE0000
(1716921575.761912) can0 100#A6FE0000
(1716921575.763445) can0 100#A1FE0000
(1716921575.763589) can0 425#0000
(1716921575.763713) can0 080#7207
(1716921575.764989) can0 100#9CFE0000
(1716921575.766559) can0 100#97FE0000
(1716921575.768091) can0 100#92FE0000
(1716921575.769641) can0 100#92FE0000
(1716921575.771191) can0 100#8DFE0000
(1716921575.772703) can0 100#88FE0000
(1716921575.773238) can0 425#0000
(1716921575.773387) can0 080#7207
(1716921575.774283) can0 100#83FE0000
(1716921575.775818) can0 100#7EFE0000
(1716921575.777369) can0 100#79FE0000
(1716921575.778916) can0 100#74FE0000
(1716921575.780464) can0 100#6FFE0000
(1716921575.781998) can0 100#6AFE0000
(1716921575.783465) can0 425#0000
(1716921575.783615) can0 100#65FE0000
(1716921575.783764) can0 080#7207
(1716921575.785079) can0 100#60FE0000
(1716921575.786613) can0 100#5BFE0000
(1716921575.788171) can0 100#56FE0000
(1716921575.789715) can0 100#51FE0000
(1716921575.791239) can0 100#4CFE0000
(1716921575.792813) can0 100#47FE0000
(1716921575.793245) can0 425#0000
(1716921575.793389) can0 080#7207
(1716921575.794328) can0 100#42FE0000
(1716921575.795880) can0 100#3DFE0000
(1716921575.797431) can0 100#38FE0000
(1716921575.798971) can0 100#33FE0000
(1716921575.800549) can0 100#2EFE0000
(1716921575.802055) can0 100#29FE0000
(1716921575.803459) can0 425#0000
(1716921575.803618) can0 100#29FE0000
(1716921575.803753) can0 080#7207
(1716921575.805149) can0 100#24FE0000
(1716921575.806689) can0 100#1FFE0000
(1716921575.808233) can0 100#1AFE0000
(1716921575.809820) can0 100#15FE0000
(1716921575.811320) can0 100#10FE0000
(1716921575.812868) can0 100#0BFE0000
(1716921575.813274) can0 425#EDFF
(1716921575.813411) can0 080#7207
(1716921575.814408) can0 100#06FE0000
(1716921575.815948) can0 100#01FE0000
(1716921575.817495) can0 100#FCFD0000
(1716921575.819029) can0 100#F7FD0000
(1716921575.820589) can0 100#F2FD0000
(1716921575.822117) can0 100#EDFD0000
(1716921575.823484) can0 425#EDFF
(1716921575.823610) can0 080#7207
(1716921575.823738) can0 100#E8FD0000
(1716921575.825206) can0 100#E3FD0000
(1716921575.826740) can0 100#DEFD0000
(1716921575.828270) can0 100#D9FD0000
(1716921575.829818) can0 100#D4FD0000
(1716921575.831373) can0 100#D4FD0000
(1716921575.832901) can0 100#CFFD0000
(1716921575.833243) can0 425#EDFF
(1716921575.833378) can0 080#7207
(1716921575.834451) can0 100#CAFD0000
(1716921575.835992) can0 100#C5FD0000
(1716921575.837551) can0 100#C0FD0000
(1716921575.839075) can0 100#BBFD0000
(1716921575.840615) can0 100#B6FD0000
(1716921575.842157) can0 100#B1FD0000
(1716921575.843425) can0 425#EDFF
(1716921575.843591) can0 080#7207
(1716921575.843766) can0 100#ACFD0000
(1716921575.845241) can0 100#A7FD0000
(1716921575.846804) can0 100#A2FD0000
(1716921575.848327) can0 100#9DFD0000
(1716921575.849867) can0 100#98FD0000
(1716921575.851439) can0 100#93FD0000
(1716921575.852945) can0 100#8EFD0000
(1716921575.853260) can0 425#EDFF
(1716921575.853382) can0 080#7207
(1716921575.854506) can0 100#89FD0000
(1716921575.856043) can0 100#84FD0000
(1716921575.857591) can0 100#7FFD0000
(1716921575.859123) can0 100#7AFD0000
(1716921575.860666) can0 100#75FD0000
(1716921575.862195) can0 100#70FD0000
(1716921575.863433) can0 425#EDFF
(1716921575.863591) can0 080#7207
(1716921575.863766) can0 100#6BFD0000
(1716921575.865271) can0 100#66FD0000
(1716921575.866822) can0 100#61FD0000
(1716921575.868366) can0 100#5CFD0000
(1716921575.869900) can0 100#57FD0000
(1716921575.871433) can0 100#57FD0000
(1716921575.873045) can0 100#52FD0000
(1716921575.873290) can0 425#D9FF
(1716921575.873406) can0 080#7207
(1716921575.874548) can0 100#4DFD0000
(1716921575.876076) can0 100#48FD0000
(1716921575.877617) can0 100#43FD0000
(1716921575.879160) can0 100#3EFD0000
(1716921575.880684) can0 100#39FD0000
(1716921575.882247) can0 100#34FD0000
(1716921575.883472) can0 425#D9FF
(1716921575.883556) can0 080#7207
(1716921575.883822) can0 100#2FFD0000
(1716921575.885318) can0 100#2AFD0000
(1716921575.886867) can0 100#25FD0000
(1716921575.888402) can0 100#20FD0000
(1716921575.889935) can0 100#1BFD0000
(1716921575.891487) can0 100#16FD0000
(1716921575.893028) can0 100#11FD0000
(1716921575.893279) can0 425#D9FF
(1716921575.893393) can0 080#7207
(1716921575.894567) can0 100#0CFD0000
(1716921575.896091) can0 100#07FD0000
(1716921575.897665) can0 100#02FD0000
(1716921575.899188) can0 100#FDFC0000
(1716921575.900742) can0 100#F8FC0000
(1716921575.902295) can0 100#F3FC0000
(1716921575.903470) can0 425#C6FF
(1716921575.903567) can0 080#7207
(1716921575.903818) can0 100#EEFC0000
(1716921575.905358) can0 100#E9FC0000
(1716921575.906907) can0 100#E4FC0000
(1716921575.908433) can0 100#DFFC0000
(1716921575.909984) can0 100#DFFC0000
(1716921575.911560) can0 100#DAFC0000
(1716921575.913070) can0 100#D5FC0000
(1716921575.913259) can0 425#B2FF
(1716921575.913395) can0 080#7207
(1716921575.914620) can0 100#D0FC0000
(1716921575.916151) can0 100#CBFC0000
(1716921575.917680) can0 100#C6FC0000
(1716921575.919241) can0 100#C1FC0000
(1716921575.920817) can0 100#BCFC0000
(1716921575.922334) can0 100#B7FC0000
(1716921575.923431) can0 425#B2FF
(1716921575.923561) can0 080#7207
(1716921575.923872) can0 100#B2FC0000
(1716921575.925411) can0 100#ADFC0000
(1716921575.926940) can0 100#A8FC0000
(1716921575.928493) can0 100#A3FC0000
(1716921575.930044) can0 100#9EFC0000
(1716921575.931592) can0 100#99FC0000
(1716921575.933106) can0 100#94FC0000
(1716921575.933269) can0 425#9FFF
(1716921575.933392) can0 080#7207
(1716921575.934666) can0 100#8FFC0000
(1716921575.936196) can0 100#8AFC0000
(1716921575.937743) can0 100#85FC0000
(1716921575.939292) can0 100#80FC0000
(1716921575.940792) can0 100#7BFC0000
(1716921575.942370) can0 100#76FC0000
(1716921575.943469) can0 425#9FFF
(1716921575.943594) can0 080#7207
(1716921575.943908) can0 100#71FC0000
(1716921575.945433) can0 100#6CFC0000
(1716921575.946993) can0 100#67FC0000
(1716921575.948564) can0 100#67FC0000
(1716921575.950072) can0 100#62FC0000
(1716921575.951604) can0 100#5DFC0000
(1716921575.953146) can0 100#58FC0000
(1716921575.953296) can0 425#51FF
(1716921575.953420) can0 080#7207
(1716921575.954683) can0 100#53FC0000
(1716921575.956227) can0 100#4EFC0000
(1716921575.957820) can0 100#49FC0000
(1716921575.959308) can0 100#44FC0000
(1716921575.960842) can0 100#3FFC0000
(1716921575.962393) can0 100#3AFC0000
(1716921575.963474) can0 425#51FF
(1716921575.963596) can0 080#7207
(1716921575.963915) can0 100#35FC0000
(1716921575.965460) can0 100#30FC0000
(1716921575.966998) can0 100#2BFC0000
(1716921575.968561) can0 100#26FC0000
(1716921575.970066) can0 100#21FC0000
(1716921575.971619) can0 100#1CFC0000
(1716921575.973160) can0 100#17FC0000
(1716921575.973310) can0 425#EFFE
(1716921575.973423) can0 080#7207
(1716921575.974693) can0 100#12FC0000
(1716921575.976247) can0 100#0DFC0000
(1716921575.977816) can0 100#08FC0000
(1716921575.979308) can0 100#03FC0000
(1716921575.980861) can0 100#FEFB0000
(1716921575.982419) can0 100#FEFB0000
(1716921575.983446) can0 425#C8FE
(1716921575.983582) can0 080#7207
(1716921575.983954) can0 100#F9FB0000
(1716921575.985499) can0 100#F4FB0000
(1716921575.987045) can0 100#EFFB0000
(1716921575.988584) can0 100#EAFB0000
(1716921575.990129) can0 100#E5FB0000
(1716921575.991694) can0 100#E0FB0000
(1716921575.993236) can0 100#DBFB0000
(1716921575.993354) can0 425#DCFE
(1716921575.993511) can0 080#7207
(1716921575.994817) can0 100#D6FB0000
(1716921575.996319) can0 100#D1FB0000
(1716921575.997861) can0 100#CCFB0000
(1716921575.999411) can0 100#C7FB0000
(1716921576.000950) can0 100#C2FB0000
(1716921576.002496) can0 100#BDFB0000
(1716921576.003433) can0 425#B5FE
(1716921576.003616) can0 080#7207
(1716921576.004037) can0 100#B8FB0000
(1716921576.005594) can0 100#B3FB0000
(1716921576.007123) can0 100#AEFB0000
(1716921576.008669) can0 100#A9FB0000
(1716921576.010225) can0 100#A4FB0000
(1716921576.011817) can0 100#9FFB0000
(1716921576.013250) can0 425#03FF
(1716921576.013409) can0 100#9AFB0000
(1716921576.013563) can0 080#7207
(1716921576.014850) can0 100#95FB0000
(1716921576.016379) can0 100#90FB0000
(1716921576.017935) can0 100#8BFB0000
(1716921576.019477) can0 100#86FB0000
(1716921576.021021) can0 100#81FB0000
(1716921576.022550) can0 100#7CFB0000
(1716921576.023449) can0 425#EFFE
(1716921576.023565) can0 080#7207
(1716921576.024103) can0 100#77FB0000
(1716921576.025632) can0 100#77FB0000
(1716921576.027188) can0 100#72FB0000
(1716921576.028718) can0 100#6DFB0000
(1716921576.030271) can0 100#68FB0000
(1716921576.031810) can0 100#63FB0000
(1716921576.033255) can0 425#DCFE
(1716921576.033429) can0 100#5EFB0000
(1716921576.033563) can0 080#7207
(1716921576.034893) can0 100#59FB0000
(1716921576.036436) can0 100#54FB0000
(1716921576.037976) can0 100#4FFB0000
(1716921576.039567) can0 100#4AFB0000
(1716921576.041049) can0 100#45FB0000
(1716921576.042639) can0 100#40FB0000
(1716921576.043471) can0 425#B5FE
(1716921576.043595) can0 080#7207
(1716921576.044138) can0 100#3BFB0000
(1716921576.045694) can0 100#36FB0000
(1716921576.047235) can0 100#31FB0000
(1716921576.048789) can0 100#2CFB0000
(1716921576.050308) can0 100#27FB0000
(1716921576.051860) can0 100#22FB0000
(1716921576.053253) can0 425#19FE
(1716921576.053403) can0 100#1DFB0000
(1716921576.053551) can0 080#7207
(1716921576.054947) can0 100#18FB0000
(1716921576.056485) can0 100#13FB0000
(1716921576.058021) can0 100#0EFB0000
(1716921576.059556) can0 100#09FB0000
(1716921576.061102) can0 100#09FB0000
(1716921576.062645) can0 100#04FB0000
(1716921576.063457) can0 425#06FE
(1716921576.063595) can0 080#7207
(1716921576.064187) can0 100#FFFA0000
(1716921576.065722) can0 100#FAFA0000
(1716921576.067281) can0 100#F5FA0000
(1716921576.068794) can0 100#F0FA0000
(1716921576.070376) can0 100#EBFA0000
(1716921576.071914) can0 100#E6FA0000
(1716921576.073269) can0 425#F2FD
(1716921576.073369) can0 080#7207
(1716921576.073563) can0 100#E1FA0000
(1716921576.075000) can0 100#DCFA0000
(1716921576.076553) can0 100#D7FA0000
(1716921576.078096) can0 100#D2FA0000
(1716921576.079645) can0 100#CDFA0000
(1716921576.081182) can0 100#C8FA0000
(1716921576.082683) can0 100#C3FA0000
(1716921576.083472) can0 425#19FE
(1716921576.083595) can0 080#7207
(1716921576.084271) can0 100#BEFA0000
(1716921576.085807) can0 100#B9FA0000
(1716921576.087355) can0 100#B4FA0000
(1716921576.088899) can0 100#B4FA0000
(1716921576.090435) can0 100#AFFA0000
(1716921576.091960) can0 100#AAFA0000
(1716921576.093311) can0 425#40FE
(1716921576.093364) can0 080#7207
(1716921576.093564) can0 100#A5FA0000
(1716921576.095050) can0 100#A0FA0000
(1716921576.096594) can0 100#9BFA0000
(1716921576.098131) can0 100#96FA0000
(1716921576.099674) can0 100#91FA0000
(1716921576.101201) can0 100#8CFA0000
(1716921576.102745) can0 100#87FA0000
(1716921576.103472) can0 425#2DFE
(1716921576.103595) can0 080#7207
(1716921576.104285) can0 100#82FA0000
(1716921576.105837) can0 100#7DFA0000
(1716921576.107387) can0 100#78FA0000
(1716921576.108923) can0 100#73FA0000
(1716921576.110460) can0 100#6EFA0000
(1716921576.112021) can0 100#69FA0000
(1716921576.113249) can0 425#19FE
(1716921576.113387) can0 080#7207
(1716921576.113583) can0 100#64FA0000
(1716921576.115103) can0 100#5FFA0000
(1716921576.116647) can0 100#5AFA0000
(1716921576.118187) can0 100#5AFA0000
(1716921576.119708) can0 100#55FA0000
(1716921576.121263) can0 100#50FA0000
(1716921576.122824) can0 100#4BFA0000
(1716921576.123472) can0 425#A4FD
(1716921576.123584) can0 080#7207
(1716921576.124349) can0 100#46FA0000
(1716921576.125898) can0 100#41FA0000
(1716921576.127478) can0 100#3CFA0000
(1716921576.128966) can0 100#37FA0000
(1716921576.130566) can0 100#32FA0000
(1716921576.132061) can0 100#2DFA0000
(1716921576.133249) can0 425#A4FD
(1716921576.133358) can0 080#7207
(1716921576.133596) can0 100#28FA0000
(1716921576.135145) can0 100#23FA0000
(1716921576.136674) can0 100#1EFA0000
(1716921576.138210) can0 100#19FA0000
(1716921576.139771) can0 100#14FA0000
(1716921576.141291) can0 100#0FFA0000
(1716921576.142831) can0 100#0AFA0000
(1716921576.143446) can0 425#7DFD
(1716921576.143596) can0 080#7207
(1716921576.144373) can0 100#05FA0000
(1716921576.145942) can0 100#00FA0000
(1716921576.147452) can0 100#FBF90000
(1716921576.148999) can0 100#F6F90000
(1716921576.150565) can0 100#F1F90000
(1716921576.152100) can0 100#ECF90000
(1716921576.153240) can0 425#56FD
(1716921576.153393) can0 080#7207
(1716921576.153646) can0 100#E7F90000
(1716921576.155178) can0 100#E7F90000
(1716921576.156711) can0 100#E2F90000
(1716921576.158287) can0 100#DDF90000
(1716921576.159821) can0 100#D8F90000
(1716921576.161338) can0 100#D3F90000
(1716921576.162866) can0 100#CEF90000
(1716921576.163454) can0 425#91FD
(1716921576.163596) can0 080#7207
(1716921576.164428) can0 100#C9F90000
(1716921576.165953) can0 100#C4F90000
(1716921576.167566) can0 100#BFF90000
(1716921576.169063) can0 100#BAF90000
(1716921576.170597) can0 100#B5F90000
(1716921576.172129) can0 100#B0F90000
(1716921576.173248) can0 425#7DFD
(1716921576.173364) can0 080#7207
(1716921576.173672) can0 100#ABF90000
(1716921576.175210) can0 100#A6F90000
(1716921576.176772) can0 100#A1F90000
(1716921576.178300) can0 100#9CF90000
(1716921576.179848) can0 100#97F90000
(1716921576.181378) can0 100#92F90000
(1716921576.182926) can0 100#8DF90000
(1716921576.183456) can0 425#56FD
(1716921576.183608) can0 080#7207
(1716921576.184452) can0 100#88F90000
(1716921576.186015) can0 100#83F90000
(1716921576.187566) can0 100#7EF90000
(1716921576.189088) can0 100#79F90000
(1716921576.190610) can0 100#74F90000
(1716921576.192173) can0 100#6FF90000
(1716921576.193249) can0 425#1CFD
(1716921576.193386) can0 080#7207
(1716921576.193690) can0 100#6AF90000
(1716921576.195238) can0 100#65F90000
(1716921576.196821) can0 100#60F90000
(1716921576.198324) can0 100#5BF90000
(1716921576.199844) can0 100#56F90000
(1716921576.201400) can0 100#51F90000
(1716921576.202939) can0 100#51F90000
(1716921576.203471) can0 425#E1FC
(1716921576.203589) can0 080#7207
(1716921576.204480) can0 100#4CF90000
(1716921576.206016) can0 100#47F90000
(1716921576.207567) can0 100#42F90000
(1716921576.209102) can0 100#3DF90000
(1716921576.210647) can0 100#38F90000
(1716921576.212200) can0 100#33F90000
(1716921576.213249) can0 425#F5FC
(1716921576.213376) can0 080#7207
(1716921576.213749) can0 100#2EF90000
(1716921576.215280) can0 100#29F90000
(1716921576.216822) can0 100#24F90000
(1716921576.218347) can0 100#1FF90000
(1716921576.219869) can0 100#1AF90000
(1716921576.221445) can0 100#15F90000
(1716921576.222976) can0 100#10F90000
(1716921576.223442) can0 425#F5FC
(1716921576.223598) can0 080#7207
(1716921576.224567) can0 100#0BF90000
(1716921576.226064) can0 100#06F90000
(1716921576.227585) can0 100#01F90000
(1716921576.229140) can0 100#FCF80000
(1716921576.230674) can0 100#F7F80000
(1716921576.232223) can0 100#F2F80000
(1716921576.233219) can0 425#CEFC
(1716921576.233398) can0 080#7207
(1716921576.233773) can0 100#EDF80000
(1716921576.235302) can0 100#E8F80000
(1716921576.236829) can0 100#E3F80000
(1716921576.238379) can0 100#DEF80000
(1716921576.239924) can0 100#D9F80000
(1716921576.241456) can0 100#D4F80000
(1716921576.242987) can0 100#CFF80000
(1716921576.243450) can0 425#93FC
(1716921576.243598) can0 080#7207
(1716921576.244566) can0 100#CAF80000
(1716921576.246066) can0 100#CAF80000
(1716921576.247624) can0 100#C5F80000
(1716921576.249164) can0 100#C0F80000
(1716921576.250698) can0 100#BBF80000
(1716921576.252239) can0 100#B6F80000
(1716921576.253250) can0 425#46FC
(1716921576.253398) can0 080#7207
(1716921576.253823) can0 100#B1F80000
(1716921576.255318) can0 100#ACF80000
(1716921576.256874) can0 100#A7F80000
(1716921576.258414) can0 100#A2F80000
(1716921576.259949) can0 100#9DF80000
(1716921576.261492) can0 100#98F80000
(1716921576.263033) can0 100#93F80000
(1716921576.263484) can0 425#6DFC
(1716921576.263623) can0 080#7207
(1716921576.264560) can0 100#8EF80000
(1716921576.266124) can0 100#89F80000
(1716921576.267673) can0 100#84F80000
(1716921576.269215) can0 100#7FF80000
(1716921576.270739) can0 100#7AF80000
(1716921576.272302) can0 100#75F80000
(1716921576.273253) can0 425#59FC
(1716921576.273400) can0 080#7207
(1716921576.273838) can0 100#70F80000
(1716921576.275380) can0 100#6BF80000
(1716921576.276925) can0 100#66F80000
(1716921576.278464) can0 100#61F80000
(1716921576.280011) can0 100#5CF80000
(1716921576.281567) can0 100#57F80000
(1716921576.283089) can0 100#52F80000
(1716921576.283292) can0 425#F8FB
(1716921576.283404) can0 080#7207
(1716921576.284649) can0 100#4DF80000
(1716921576.286177) can0 100#48F80000
(1716921576.287724) can0 100#48F80000
(1716921576.289242) can0 100#43F80000
(1716921576.290824) can0 100#3EF80000
(1716921576.292339) can0 100#39F80000
(1716921576.293251) can0 425#F8FB
(1716921576.293389) can0 080#7207
(1716921576.293894) can0 100#34F80000
(1716921576.295472) can0 100#2FF80000
(1716921576.296983) can0 100#2AF80000
(1716921576.298556) can0 100#25F80000
(1716921576.300067) can0 100#20F80000
(1716921576.301599) can0 100#1BF80000
(1716921576.303169) can0 100#16F80000
(1716921576.303337) can0 425#BDFB
(1716921576.303491) can0 080#7207
(1716921576.304725) can0 100#11F80000
(1716921576.306251) can0 100#0CF80000
(1716921576.307817) can0 100#07F80000
(1716921576.309329) can0 100#02F80000
(1716921576.310866) can0 100#FDF70000
(1716921576.312400) can0 100#F8F70000
(1716921576.313241) can0 425#D1FB
(1716921576.313400) can0 080#7207
(1716921576.313952) can0 100#F3F70000
(1716921576.315490) can0 100#EEF70000
(1716921576.317019) can0 100#E9F70000
(1716921576.318569) can0 100#E4F70000
(1716921576.320107) can0 100#DFF70000
(1716921576.321649) can0 100#DAF70000
(1716921576.323180) can0 100#DAF70000
(1716921576.323369) can0 425#D1FB
(1716921576.323492) can0 080#7207
(1716921576.324752) can0 100#D5F70000
(1716921576.326265) can0 100#D0F70000
(1716921576.327832) can0 100#CBF70000
(1716921576.329362) can0 100#C6F70000
(1716921576.330910) can0 100#C1F70000
(1716921576.332445) can0 100#BCF70000
(1716921576.333252) can0 425#AAFB
(1716921576.333401) can0 080#7207
(1716921576.334007) can0 100#B7F70000
(1716921576.335564) can0 100#B2F70000
(1716921576.337110) can0 100#ADF70000
(1716921576.338630) can0 100#A8F70000
(1716921576.340177) can0 100#A3F70000
(1716921576.341688) can0 100#9EF70000
(1716921576.343255) can0 100#99F70000
(1716921576.343431) can0 425#BDFB
(1716921576.343568) can0 080#7207
(1716921576.344811) can0 100#94F70000
(1716921576.346342) can0 100#8FF70000
(1716921576.347877) can0 100#8AF70000
(1716921576.349363) can0 100#85F70000
(1716921576.350938) can0 100#80F70000
(1716921576.352502) can0 100#7BF70000
(1716921576.353251) can0 425#96FB
(1716921576.353401) can0 080#7207
(1716921576.354039) can0 100#76F70000
(1716921576.355571) can0 100#76F70000
(1716921576.357126) can0 100#71F70000
(1716921576.358679) can0 100#6CF70000
(1716921576.360208) can0 100#67F70000
(1716921576.361752) can0 100#62F70000
(1716921576.363303) can0 100#5DF70000
(1716921576.363493) can0 425#48FB
(1716921576.363647) can0 080#7207
(1716921576.364826) can0 100#58F70000
(1716921576.366387) can0 100#53F70000
(1716921576.367931) can0 100#4EF70000
(1716921576.369452) can0 100#49F70000
(1716921576.371004) can0 100#44F70000
(1716921576.372536) can0 100#3FF70000
(1716921576.373233) can0 425#5CFB
(1716921576.373392) can0 080#7207
(1716921576.374084) can0 100#3AF70000
(1716921576.375650) can0 100#35F70000
(1716921576.377170) can0 100#30F70000
(1716921576.378725) can0 100#2BF70000
(1716921576.380261) can0 100#26F70000
(1716921576.381825) can0 100#21F70000
(1716921576.383345) can0 100#1CF70000
(1716921576.383471) can0 425#0EFB
(1716921576.383604) can0 080#7207
(1716921576.384880) can0 100#17F70000
(1716921576.386411) can0 100#12F70000
(1716921576.387966) can0 100#0DF70000
(1716921576.389518) can0 100#08F70000
(1716921576.391052) can0 100#03F70000
(1716921576.392591) can0 100#FEF60000
(1716921576.393252) can0 425#6FFB
(1716921576.393400) can0 080#7207
(1716921576.394132) can0 100#F9F60000
(1716921576.395666) can0 100#F4F60000
(1716921576.397263) can0 100#F4F60000
(1716921576.398825) can0 100#EFF60000
(1716921576.400318) can0 100#EAF60000
(1716921576.401849) can0 100#E5F60000
(1716921576.403402) can0 100#E0F60000
(1716921576.403575) can0 425#5CFB
(1716921576.403670) can0 080#7207
(1716921576.404930) can0 100#DBF60000
(1716921576.406478) can0 100#D6F60000
(1716921576.408003) can0 100#D1F60000
(1716921576.409570) can0 100#CCF60000
(1716921576.411095) can0 100#C7F60000
(1716921576.412652) can0 100#C2F60000
(1716921576.413253) can0 425#FAFA
(1716921576.413401) can0 080#7207
(1716921576.414182) can0 100#BDF60000
(1716921576.415728) can0 100#B8F60000
(1716921576.417278) can0 100#B3F60000
(1716921576.418825) can0 100#AEF60000
(1716921576.420349) can0 100#A9F60000
(1716921576.421920) can0 100#A4F60000
(1716921576.423454) can0 100#9FF60000
(1716921576.423603) can0 425#0EFB
(1716921576.423715) can0 080#7207
(1716921576.425002) can0 100#9AF60000
(1716921576.426570) can0 100#95F60000
(1716921576.428080) can0 100#90F60000
(1716921576.429616) can0 100#8BF60000
(1716921576.431160) can0 100#86F60000
(1716921576.432701) can0 100#81F60000
(1716921576.433254) can0 425#0EFB
(1716921576.433392) can0 080#7207
(1716921576.434245) can0 100#7CF60000
(1716921576.435835) can0 100#77F60000
(1716921576.437329) can0 100#72F60000
(1716921576.438857) can0 100#72F60000
(1716921576.440408) can0 100#6DF60000
(1716921576.441948) can0 100#68F60000
(1716921576.443493) can0 100#63F60000
(1716921576.443615) can0 425#0EFB
(1716921576.443776) can0 080#7207
(1716921576.445030) can0 100#5EF60000
(1716921576.446572) can0 100#59F60000
(1716921576.448135) can0 100#54F60000
(1716921576.449653) can0 100#4FF60000
(1716921576.451179) can0 100#4AF60000
(1716921576.452726) can0 100#45F60000
(1716921576.453244) can0 425#83FB
(1716921576.453404) can0 080#7207
(1716921576.454269) can0 100#40F60000
(1716921576.455830) can0 100#3BF60000
(1716921576.457346) can0 100#36F60000
(1716921576.458902) can0 100#31F60000
(1716921576.460383) can0 100#2CF60000
(1716921576.461958) can0 100#27F60000
(1716921576.463483) can0 100#22F60000
(1716921576.463628) can0 425#83FB
(1716921576.463752) can0 080#7207
(1716921576.465030) can0 100#1DF60000
(1716921576.466560) can0 100#18F60000
(1716921576.468135) can0 100#13F60000
(1716921576.469653) can0 100#0EF60000
(1716921576.471204) can0 100#09F60000
(1716921576.472715) can0 100#04F60000
(1716921576.473255) can0 425#6DFC
(1716921576.473401) can0 080#7207
(1716921576.474290) can0 100#FFF50000
(1716921576.475818) can0 100#FAF50000
(1716921576.477369) can0 100#F5F50000
(1716921576.478911) can0 100#F0F50000
(1716921576.480457) can0 100#F0F50000
(1716921576.481985) can0 100#EBF50000
(1716921576.483467) can0 425#46FC
(1716921576.483631) can0 100#E6F50000
(1716921576.483781) can0 080#7207
(1716921576.485102) can0 100#E1F50000
(1716921576.486603) can0 100#DCF50000
(1716921576.488163) can0 100#D7F50000
(1716921576.489723) can0 100#D2F50000
(1716921576.491237) can0 100#CDF50000
(1716921576.492827) can0 100#C8F50000
(1716921576.493253) can0 425#F5FC
(1716921576.493401) can0 080#7207
(1716921576.494316) can0 100#C3F50000
(1716921576.495859) can0 100#BEF50000
(1716921576.497409) can0 100#B9F50000
(1716921576.498945) can0 100#B4F50000
(1716921576.500473) can0 100#AFF50000
(1716921576.502029) can0 100#AAF50000
(1716921576.503471) can0 425#43FD
(1716921576.503626) can0 100#A5F50000
(1716921576.503766) can0 080#7207
(1716921576.505108) can0 100#A0F50000
(1716921576.506654) can0 100#9BF50000
(1716921576.508196) can0 100#96F50000
(1716921576.509718) can0 100#91F50000
(1716921576.511279) can0 100#8CF50000
(1716921576.512828) can0 100#87F50000
(1716921576.513255) can0 425#80FC
(1716921576.513391) can0 080#7207
(1716921576.514355) can0 100#87F50000
(1716921576.515903) can0 100#82F50000
(1716921576.517438) can0 100#7DF50000
(1716921576.518971) can0 100#78F50000
(1716921576.520573) can0 100#73F50000
(1716921576.522078) can0 100#6EF50000
(1716921576.523465) can0 425#43FD
(1716921576.523616) can0 100#69F50000
(1716921576.523778) can0 080#7207
(1716921576.525159) can0 100#64F50000
(1716921576.526703) can0 100#5FF50000
(1716921576.528220) can0 100#5AF50000
(1716921576.529779) can0 100#55F50000
(1716921576.531322) can0 100#50F50000
(1716921576.532859) can0 100#4BF50000
(1716921576.533250) can0 425#BAFC
(1716921576.533385) can0 080#7207
(1716921576.534411) can0 100#46F50000
(1716921576.535904) can0 100#41F50000
(1716921576.537467) can0 100#3CF50000
(1716921576.539013) can0 100#37F50000
(1716921576.540574) can0 100#32F50000
(1716921576.542097) can0 100#2DF50000
(1716921576.543477) can0 425#F2FD
(1716921576.543604) can0 080#7207
(1716921576.543754) can0 100#28F50000
(1716921576.545179) can0 100#23F50000
(1716921576.546696) can0 100#1EF50000
(1716921576.548256) can0 100#19F50000
(1716921576.549829) can0 100#19F50000
(1716921576.551371) can0 100#14F50000
(1716921576.552874) can0 100#0FF50000
(1716921576.553261) can0 425#64FF
(1716921576.553383) can0 080#7207
(1716921576.554422) can0 100#0AF50000
(1716921576.555954) can0 100#05F50000
(1716921576.557506) can0 100#00F50000
(1716921576.559044) can0 100#FBF40000
(1716921576.560573) can0 100#F6F40000
(1716921576.562119) can0 100#F1F40000
(1716921576.563441) can0 425#03FF
(1716921576.563606) can0 080#7207
(1716921576.563780) can0 100#ECF40000
(1716921576.565217) can0 100#E7F40000
(1716921576.566779) can0 100#E2F40000
(1716921576.568323) can0 100#DDF40000
(1716921576.569850) can0 100#D8F40000
(1716921576.571393) can0 100#D3F40000
(1716921576.572945) can0 100#CEF40000
(1716921576.573248) can0 425#C8FE
(1716921576.573395) can0 080#7207
(1716921576.574474) can0 100#C9F40000
(1716921576.576022) can0 100#C4F40000
(1716921576.577573) can0 100#BFF40000
(1716921576.579106) can0 100#BAF40000
(1716921576.580644) can0 100#B5F40000
(1716921576.582196) can0 100#B0F40000
(1716921576.583475) can0 425#8EFE
(1716921576.583606) can0 080#7207
(1716921576.583745) can0 100#ABF40000
(1716921576.585281) can0 100#A6F40000
(1716921576.586829) can0 100#A1F40000
(1716921576.588362) can0 100#A1F40000
(1716921576.589893) can0 100#9CF40000
(1716921576.591447) can0 100#97F40000
(1716921576.592987) can0 100#92F40000
(1716921576.593264) can0 425#B8FD
(1716921576.593375) can0 080#7207
(1716921576.594573) can0 100#8DF40000
(1716921576.596072) can0 100#88F40000
(1716921576.597605) can0 100#83F40000
(1716921576.599130) can0 100#7EF40000
(1716921576.600680) can0 100#79F40000
(1716921576.602220) can0 100#74F40000
(1716921576.603447) can0 425#8EFE
(1716921576.603595) can0 080#7207
(1716921576.603780) can0 100#6FF40000
(1716921576.605305) can0 100#6AF40000
(1716921576.606847) can0 100#65F40000
(1716921576.608375) can0 100#60F40000
(1716921576.609930) can0 100#5BF40000
(1716921576.611467) can0 100#56F40000
(1716921576.613007) can0 100#51F40000
(1716921576.613247) can0 425#B5FE
(1716921576.613382) can0 080#7207
(1716921576.614574) can0 100#4CF40000
(1716921576.616085) can0 100#47F40000
(1716921576.617619) can0 100#42F40000
(1716921576.619166) can0 100#3DF40000
(1716921576.620706) can0 100#38F40000
(1716921576.622246) can0 100#33F40000
(1716921576.623462) can0 425#40FE
(1716921576.623606) can0 080#7207
(1716921576.623782) can0 100#2EF40000
(1716921576.625322) can0 100#2EF40000
(1716921576.626850) can0 100#29F40000
(1716921576.628406) can0 100#24F40000
(1716921576.629962) can0 100#1FF40000
(1716921576.631491) can0 100#1AF40000
(1716921576.633020) can0 100#15F40000
(1716921576.633282) can0 425#DCFE
(1716921576.633408) can0 080#7207
(1716921576.634576) can0 100#10F40000
(1716921576.636099) can0 100#0BF40000
(1716921576.637630) can0 100#06F40000
(1716921576.639186) can0 100#01F40000
(1716921576.640730) can0 100#FCF30000
(1716921576.642260) can0 100#F7F30000
(1716921576.643482) can0 425#03FF
(1716921576.643588) can0 080#7207
(1716921576.643830) can0 100#F2F30000
(1716921576.645324) can0 100#EDF30000
(1716921576.646883) can0 100#E8F30000
(1716921576.648424) can0 100#E3F30000
(1716921576.649963) can0 100#DEF30000
(1716921576.651503) can0 100#D9F30000
(1716921576.653049) can0 100#D4F30000
(1716921576.653301) can0 425#A1FE
(1716921576.653425) can0 080#7207
(1716921576.654596) can0 100#CFF30000
(1716921576.656146) can0 100#CAF30000
(1716921576.657681) can0 100#C5F30000
(1716921576.659236) can0 100#C0F30000
(1716921576.660819) can0 100#BBF30000
(1716921576.662323) can0 100#B6F30000
(1716921576.663484) can0 425#53FE
(1716921576.663594) can0 080#7207
(1716921576.663836) can0 100#B1F30000
(1716921576.665375) can0 100#ACF30000
(1716921576.666917) can0 100#A7F30000
(1716921576.668460) can0 100#A2F30000
(1716921576.670045) can0 100#A2F30000
(1716921576.671575) can0 100#9DF30000
(1716921576.673088) can0 100#98F30000
(1716921576.673254) can0 425#6AFD
(1716921576.673414) can0 080#7207
(1716921576.674632) can0 100#93F30000
(1716921576.676183) can0 100#8EF30000
(1716921576.677718) can0 100#89F30000
(1716921576.679264) can0 100#84F30000
(1716921576.680830) can0 100#7FF30000
(1716921576.682348) can0 100#7AF30000
(1716921576.683470) can0 425#43FD
(1716921576.683581) can0 080#7207
(1716921576.683887) can0 100#75F30000
(1716921576.685433) can0 100#70F30000
(1716921576.686960) can0 100#6BF30000
(1716921576.688513) can0 100#66F30000
(1716921576.690057) can0 100#61F30000
(1716921576.691605) can0 100#5CF30000
(1716921576.693133) can0 100#57F30000
(1716921576.693418) can0 425#08FD
(1716921576.693578) can0 080#7207
(1716921576.694683) can0 100#52F30000
(1716921576.696213) can0 100#4DF30000
(1716921576.697757) can0 100#48F30000
(1716921576.699300) can0 100#43F30000
(1716921576.700842) can0 100#3EF30000
(1716921576.702375) can0 100#39F30000
(1716921576.703507) can0 425#7DFD
(1716921576.703613) can0 080#7007
(1716921576.703925) can0 100#34F30000
(1716921576.705448) can0 100#2FF30000
(1716921576.707012) can0 100#2FF30000
(1716921576.708576) can0 100#2AF30000
(1716921576.710091) can0 100#25F30000
(1716921576.711645) can0 100#20F30000
(1716921576.713182) can0 100#1BF30000
(1716921576.713310) can0 425#08FD
(1716921576.713458) can0 080#7007
(1716921576.714696) can0 100#16F30000
(1716921576.716273) can0 100#11F30000
(1716921576.717831) can0 100#0CF30000
(1716921576.719338) can0 100#07F30000
(1716921576.720873) can0 100#02F30000
(1716921576.722415) can0 100#FDF20000
(1716921576.723460) can0 425#80FC
(1716921576.723608) can0 080#7007
(1716921576.723915) can0 100#F8F20000
(1716921576.725478) can0 100#F3F20000
(1716921576.726989) can0 100#EEF20000
(1716921576.728577) can0 100#E9F20000
(1716921576.730074) can0 100#E4F20000
(1716921576.731608) can0 100#DFF20000
(1716921576.733164) can0 100#DAF20000
(1716921576.733318) can0 425#46FC
(1716921576.733428) can0 080#7007
(1716921576.734672) can0 100#D5F20000
(1716921576.736241) can0 100#D0F20000
(1716921576.737785) can0 100#CBF20000
(1716921576.739320) can0 100#C6F20000
(1716921576.740874) can0 100#C1F20000
(1716921576.742409) can0 100#C1F20000
(1716921576.743459) can0 425#59FC
(1716921576.743599) can0 080#7007
(1716921576.743918) can0 100#BCF20000
(1716921576.745430) can0 100#B7F20000
(1716921576.747000) can0 100#B2F20000
(1716921576.748569) can0 100#ADF20000
(1716921576.750089) can0 100#A8F20000
(1716921576.751633) can0 100#A3F20000
(1716921576.753173) can0 100#9EF20000
(1716921576.753290) can0 425#43FD
(1716921576.753449) can0 080#7007
(1716921576.754708) can0 100#99F20000
(1716921576.756263) can0 100#94F20000
(1716921576.757820) can0 100#8FF20000
(1716921576.759305) can0 100#8AF20000
(1716921576.760886) can0 100#85F20000
(1716921576.762438) can0 100#80F20000
(1716921576.763448) can0 425#56FD
(1716921576.763609) can0 080#7007
(1716921576.763972) can0 100#7BF20000
(1716921576.765512) can0 100#76F20000
(1716921576.767032) can0 100#71F20000
(1716921576.768578) can0 100#6CF20000
(1716921576.770134) can0 100#67F20000
(1716921576.771684) can0 100#62F20000
(1716921576.773213) can0 100#5DF20000
(1716921576.773351) can0 425#A1FE
(1716921576.773501) can0 080#7007
(1716921576.774758) can0 100#58F20000
(1716921576.776299) can0 100#58F20000
(1716921576.777850) can0 100#53F20000
(1716921576.779394) can0 100#4EF20000
(1716921576.780939) can0 100#49F20000
(1716921576.782474) can0 100#44F20000
(1716921576.783460) can0 425#A1FE
(1716921576.783610) can0 080#7007
(1716921576.784025) can0 100#3FF20000
(1716921576.785567) can0 100#3AF20000
(1716921576.787110) can0 100#35F20000
(1716921576.788634) can0 100#30F20000
(1716921576.790203) can0 100#2BF20000
(1716921576.791722) can0 100#26F20000
(1716921576.793285) can0 100#21F20000
(1716921576.793411) can0 425#7DFD
(1716921576.793578) can0 080#7007
(1716921576.794822) can0 100#1CF20000
(1716921576.796361) can0 100#17F20000
(1716921576.797900) can0 100#12F20000
(1716921576.799438) can0 100#0DF20000
(1716921576.800972) can0 100#08F20000
(1716921576.802525) can0 100#03F20000
(1716921576.803459) can0 425#1CFD
(1716921576.803610) can0 080#7007
(1716921576.804056) can0 100#FEF10000
(1716921576.805610) can0 100#F9F10000
(1716921576.807151) can0 100#F4F10000
(1716921576.808708) can0 100#EFF10000
(1716921576.810229) can0 100#EAF10000
(1716921576.811785) can0 100#EAF10000
(1716921576.813279) can0 425#CEFC
(1716921576.813451) can0 100#E5F10000
(1716921576.813567) can0 080#7007
(1716921576.814866) can0 100#E0F10000
(1716921576.816386) can0 100#DBF10000
(1716921576.817951) can0 100#D6F10000
(1716921576.819482) can0 100#D1F10000
(1716921576.821036) can0 100#CCF10000
(1716921576.822578) can0 100#C7F10000
(1716921576.823479) can0 425#2FFD
(1716921576.823596) can0 080#7007
(1716921576.824121) can0 100#C2F10000
(1716921576.825659) can0 100#BDF10000
(1716921576.827201) can0 100#B8F10000
(1716921576.828752) can0 100#B3F10000
(1716921576.830297) can0 100#AEF10000
(1716921576.831837) can0 100#A9F10000
(1716921576.833254) can0 425#53FE
(1716921576.833416) can0 100#A4F10000
(1716921576.833578) can0 080#7007
(1716921576.834926) can0 100#9FF10000
(1716921576.836466) can0 100#9AF10000
(1716921576.838002) can0 100#95F10000
(1716921576.839578) can0 100#90F10000
(1716921576.841101) can0 100#8BF10000
(1716921576.842634) can0 100#86F10000
(1716921576.843455) can0 425#19FE
(1716921576.843634) can0 080#7007
(1716921576.844185) can0 100#81F10000
(1716921576.845738) can0 100#7CF10000
(1716921576.847264) can0 100#77F10000
(1716921576.848804) can0 100#72F10000
(1716921576.850350) can0 100#72F10000
(1716921576.851894) can0 100#6DF10000
(1716921576.853257) can0 425#7DFD
(1716921576.853390) can0 080#7007
(1716921576.853579) can0 100#68F10000
(1716921576.854985) can0 100#63F10000
(1716921576.856507) can0 100#5EF10000
(1716921576.858035) can0 100#59F10000
(1716921576.859610) can0 100#54F10000
(1716921576.861153) can0 100#4FF10000
(1716921576.862675) can0 100#4AF10000
(1716921576.863462) can0 425#1CFD
(1716921576.863611) can0 080#7007
(1716921576.864236) can0 100#45F10000
(1716921576.865773) can0 100#40F10000
(1716921576.867318) can0 100#3BF10000
(1716921576.868861) can0 100#36F10000
(1716921576.870399) can0 100#31F10000
(1716921576.871926) can0 100#2CF10000
(1716921576.873232) can0 425#CEFC
(1716921576.873402) can0 080#7007
(1716921576.873579) can0 100#27F10000
(1716921576.875015) can0 100#22F10000
(1716921576.876579) can0 100#1DF10000
(1716921576.878110) can0 100#18F10000
(1716921576.879638) can0 100#13F10000
(1716921576.881174) can0 100#0EF10000
(1716921576.882735) can0 100#09F10000
(1716921576.883464) can0 425#7DFD
(1716921576.883614) can0 080#7007
(1716921576.884262) can0 100#09F10000
(1716921576.885834) can0 100#04F10000
(1716921576.887360) can0 100#FFF00000
(1716921576.888897) can0 100#FAF00000
(1716921576.890430) can0 100#F5F00000
(1716921576.891988) can0 100#F0F00000
(1716921576.893222) can0 425#40FE
(1716921576.893389) can0 080#7007
(1716921576.893567) can0 100#EBF00000
(1716921576.895077) can0 100#E6F00000
(1716921576.896611) can0 100#E1F00000
(1716921576.898163) can0 100#DCF00000
(1716921576.899725) can0 100#D7F00000
(1716921576.901256) can0 100#D2F00000
(1716921576.902834) can0 100#CDF00000
(1716921576.903461) can0 425#56FD
(1716921576.903599) can0 080#7007
(1716921576.904343) can0 100#C8F00000
(1716921576.905888) can0 100#C3F00000
(1716921576.907430) can0 100#BEF00000
(1716921576.908952) can0 100#B9F00000
(1716921576.910502) can0 100#B4F00000
(1716921576.912043) can0 100#AFF00000
(1716921576.913263) can0 425#93FC
(1716921576.913395) can0 080#7007
(1716921576.913610) can0 100#AAF00000
(1716921576.915137) can0 100#AAF00000
(1716921576.916661) can0 100#A5F00000
(1716921576.918202) can0 100#A0F00000
(1716921576.919760) can0 100#9BF00000
(1716921576.921305) can0 100#96F00000
(1716921576.922845) can0 100#91F00000
(1716921576.923460) can0 425#CEFC
(1716921576.923612) can0 080#7007
(1716921576.924393) can0 100#8CF00000
(1716921576.925938) can0 100#87F00000
(1716921576.927465) can0 100#82F00000
(1716921576.929018) can0 100#7DF00000
(1716921576.930581) can0 100#78F00000
(1716921576.932104) can0 100#73F00000
(1716921576.933254) can0 425#2FFD
(1716921576.933405) can0 080#7007
(1716921576.933662) can0 100#6EF00000
(1716921576.935190) can0 100#69F00000
(1716921576.936725) can0 100#64F00000
(1716921576.938271) can0 100#5FF00000
(1716921576.939835) can0 100#5AF00000
(1716921576.941352) can0 100#55F00000
(1716921576.942884) can0 100#50F00000
(1716921576.943471) can0 425#56FD
(1716921576.943612) can0 080#7007
(1716921576.944437) can0 100#4BF00000
(1716921576.945966) can0 100#46F00000
(1716921576.947528) can0 100#46F00000
(1716921576.949079) can0 100#41F00000
(1716921576.950612) can0 100#3CF00000
(1716921576.952142) can0 100#37F00000
(1716921576.953265) can0 425#E1FC
(1716921576.953379) can0 080#7007
(1716921576.953687) can0 100#32F00000
(1716921576.955224) can0 100#2DF00000
(1716921576.956762) can0 100#28F00000
(1716921576.958317) can0 100#23F00000
(1716921576.959855) can0 100#1EF00000
(1716921576.961379) can0 100#19F00000
(1716921576.962948) can0 100#14F00000
(1716921576.963487) can0 425#0BFC
(1716921576.963609) can0 080#7007
(1716921576.964490) can0 100#0FF00000
(1716921576.966003) can0 100#0AF00000
(1716921576.967581) can0 100#05F00000
(1716921576.969098) can0 100#00F00000
(1716921576.970661) can0 100#FBEF0000
(1716921576.972190) can0 100#F6EF0000
(1716921576.973266) can0 425#59FC
(1716921576.973377) can0 080#7007
(1716921576.973687) can0 100#F1EF0000
(1716921576.975238) can0 100#ECEF0000
(1716921576.976788) can0 100#E7EF0000
(1716921576.978320) can0 100#E2EF0000
(1716921576.979869) can0 100#DDEF0000
(1716921576.981415) can0 100#D8EF0000
(1716921576.982985) can0 100#D8EF0000
(1716921576.983472) can0 425#2FFD
(1716921576.983614) can0 080#7007
(1716921576.984500) can0 100#D3EF0000
(1716921576.986042) can0 100#CEEF0000
(1716921576.987576) can0 100#C9EF0000
(1716921576.989104) can0 100#C4EF0000
(1716921576.990638) can0 100#BFEF0000
(1716921576.992180) can0 100#BAEF0000
(1716921576.993256) can0 425#A7FC
(1716921576.993389) can0 080#7007
(1716921576.993687) can0 100#B5EF0000
(1716921576.995277) can0 100#B0EF0000
(1716921576.996799) can0 100#ABEF0000
(1716921576.998332) can0 100#A6EF0000
(1716921576.999868) can0 100#A1EF0000
(1716921577.001413) can0 100#9CEF0000
(1716921577.002962) can0 100#97EF0000
(1716921577.003456) can0 425#E4FB
(1716921577.003617) can0 080#7007
(1716921577.004497) can0 100#92EF0000
(1716921577.006030) can0 100#8DEF0000
(1716921577.007582) can0 100#88EF0000
(1716921577.009118) can0 100#83EF0000
(1716921577.010662) can0 100#7EEF0000
(1716921577.012194) can0 100#79EF0000
(1716921577.013263) can0 425#46FC
(1716921577.013388) can0 080#7007
(1716921577.013713) can0 100#74EF0000
(1716921577.015237) can0 100#6FEF0000
(1716921577.016837) can0 100#6AEF0000
(1716921577.018329) can0 100#6AEF0000
(1716921577.019867) can0 100#65EF0000
(1716921577.021406) can0 100#60EF0000
(1716921577.022967) can0 100#5BEF0000
(1716921577.023468) can0 425#80FC
(1716921577.023613) can0 080#7007
(1716921577.024493) can0 100#56EF0000
(1716921577.026050) can0 100#51EF0000
(1716921577.027582) can0 100#4CEF0000
(1716921577.029135) can0 100#47EF0000
(1716921577.030680) can0 100#42EF0000
(1716921577.032229) can0 100#3DEF0000
(1716921577.033268) can0 425#96FB
(1716921577.033433) can0 080#7007
(1716921577.033728) can0 100#38EF0000
(1716921577.035291) can0 100#33EF0000
(1716921577.036837) can0 100#2EEF0000
(1716921577.038367) can0 100#29EF0000
(1716921577.039918) can0 100#24EF0000
(1716921577.041464) can0 100#1FEF0000
(1716921577.043006) can0 100#1AEF0000
(1716921577.043482) can0 425#83FB
(1716921577.043601) can0 080#7007
(1716921577.044583) can0 100#15EF0000
(1716921577.046090) can0 100#10EF0000
(1716921577.047638) can0 100#0BEF0000
(1716921577.049170) can0 100#06EF0000
(1716921577.050714) can0 100#01EF0000
(1716921577.052266) can0 100#FCEE0000
(1716921577.053265) can0 425#BDFB
(1716921577.053378) can0 080#7007
(1716921577.053838) can0 100#F7EE0000
(1716921577.055351) can0 100#F2EE0000
(1716921577.056882) can0 100#EDEE0000
(1716921577.058417) can0 100#EDEE0000
(1716921577.059968) can0 100#E8EE0000
(1716921577.061515) can0 100#E3EE0000
(1716921577.063057) can0 100#DEEE0000
(1716921577.063496) can0 425#21FB
(1716921577.063641) can0 080#7007
(1716921577.064583) can0 100#D9EE0000
(1716921577.066133) can0 100#D4EE0000
(1716921577.067652) can0 100#CFEE0000
(1716921577.069242) can0 100#CAEE0000
(1716921577.070790) can0 100#C5EE0000
(1716921577.072319) can0 100#C0EE0000
(1716921577.073257) can0 425#35FB
(1716921577.073414) can0 080#7007
(1716921577.073869) can0 100#BBEE0000
(1716921577.075403) can0 100#B6EE0000
(1716921577.076936) can0 100#B1EE0000
(1716921577.078480) can0 100#ACEE0000
(1716921577.080026) can0 100#A7EE0000
(1716921577.081584) can0 100#A2EE0000
(1716921577.083108) can0 100#9DEE0000
(1716921577.083295) can0 425#96FB
(1716921577.083445) can0 080#7007
(1716921577.084640) can0 100#98EE0000
(1716921577.086196) can0 100#93EE0000
(1716921577.087740) can0 100#8EEE0000
(1716921577.089330) can0 100#89EE0000
(1716921577.090846) can0 100#84EE0000
(1716921577.092382) can0 100#7FEE0000
(1716921577.093268) can0 425#48FB
(1716921577.093390) can0 080#7007
(1716921577.093927) can0 100#7AEE0000
(1716921577.095456) can0 100#75EE0000
(1716921577.097007) can0 100#70EE0000
(1716921577.098584) can0 100#6BEE0000
(1716921577.100091) can0 100#66EE0000
(1716921577.101634) can0 100#61EE0000
(1716921577.103173) can0 100#5CEE0000
(1716921577.103372) can0 425#C0FA
(1716921577.103476) can0 080#7007
(1716921577.104704) can0 100#5CEE0000
(1716921577.106255) can0 100#57EE0000
(1716921577.107840) can0 100#52EE0000
(1716921577.109346) can0 100#4DEE0000
(1716921577.110869) can0 100#48EE0000
(1716921577.112422) can0 100#43EE0000
(1716921577.113270) can0 425#C0FA
(1716921577.113415) can0 080#7007
(1716921577.113955) can0 100#3EEE0000
(1716921577.115517) can0 100#39EE0000
(1716921577.117056) can0 100#34EE0000
(1716921577.118618) can0 100#2FEE0000
(1716921577.120130) can0 100#2AEE0000
(1716921577.121690) can0 100#25EE0000
(1716921577.123237) can0 100#20EE0000
(1716921577.123413) can0 425#E7FA
(1716921577.123524) can0 080#7007
(1716921577.124792) can0 100#1BEE0000
(1716921577.126319) can0 100#16EE0000
(1716921577.127880) can0 100#11EE0000
(1716921577.129378) can0 100#0CEE0000
(1716921577.130944) can0 100#07EE0000
(1716921577.132487) can0 100#02EE0000
(1716921577.133270) can0 425#99FA
(1716921577.133379) can0 080#7007
(1716921577.134022) can0 100#FDED0000
(1716921577.135583) can0 100#F8ED0000
(1716921577.137112) can0 100#F3ED0000
(1716921577.138635) can0 100#EEED0000
(1716921577.140177) can0 100#E9ED0000
(1716921577.141716) can0 100#E9ED0000
(1716921577.143260) can0 100#E4ED0000
(1716921577.143424) can0 425#4BFA
(1716921577.143585) can0 080#7007
(1716921577.144840) can0 100#DFED0000
(1716921577.146357) can0 100#DAED0000
(1716921577.147891) can0 100#D5ED0000
(1716921577.149431) can0 100#D0ED0000
(1716921577.151027) can0 100#CBED0000
(1716921577.152534) can0 100#C6ED0000
(1716921577.153258) can0 425#4BFA
(1716921577.153390) can0 080#7007
(1716921577.154083) can0 100#C1ED0000
(1716921577.155615) can0 100#BCED0000
(1716921577.157146) can0 100#B7ED0000
(1716921577.158716) can0 100#B2ED0000
(1716921577.160248) can0 100#ADED0000
(1716921577.161791) can0 100#A8ED0000
(1716921577.163308) can0 100#A3ED0000
(1716921577.163495) can0 425#86FA
(1716921577.163641) can0 080#7007
(1716921577.164869) can0 100#9EED0000
(1716921577.166395) can0 100#99ED0000
(1716921577.167945) can0 100#94ED0000
(1716921577.169506) can0 100#8FED0000
(1716921577.171045) can0 100#8AED0000
(1716921577.172574) can0 100#85ED0000
(1716921577.173261) can0 425#4BFA
(1716921577.173409) can0 080#7007
(1716921577.174132) can0 100#80ED0000
(1716921577.175655) can0 100#7BED0000
(1716921577.177221) can0 100#7BED0000
(1716921577.178767) can0 100#76ED0000
(1716921577.180303) can0 100#71ED0000
(1716921577.181829) can0 100#6CED0000
(1716921577.183370) can0 100#67ED0000
(1716921577.183519) can0 425#9CF9
(1716921577.183645) can0 080#7007
(1716921577.184898) can0 100#62ED0000
(1716921577.186458) can0 100#5DED0000
(1716921577.188001) can0 100#58ED0000
(1716921577.189532) can0 100#53ED0000
(1716921577.191070) can0 100#4EED0000
(1716921577.192617) can0 100#49ED0000
(1716921577.193269) can0 425#13F9
(1716921577.193391) can0 080#7007
(1716921577.194158) can0 100#44ED0000
(1716921577.195716) can0 100#3FED0000
(1716921577.197248) can0 100#3AED0000
(1716921577.198875) can0 100#35ED0000
(1716921577.200323) can0 100#30ED0000
(1716921577.201858) can0 100#2BED0000
(1716921577.203400) can0 100#26ED0000
(1716921577.203526) can0 425#88F9
(1716921577.203655) can0 080#7007
(1716921577.204945) can0 100#21ED0000
(1716921577.206485) can0 100#1CED0000
(1716921577.208025) can0 100#17ED0000
(1716921577.209575) can0 100#12ED0000
(1716921577.211108) can0 100#0DED0000
(1716921577.212641) can0 100#0DED0000
(1716921577.213273) can0 425#D6F9
(1716921577.213387) can0 080#7007
(1716921577.214194) can0 100#08ED0000
(1716921577.215743) can0 100#03ED0000
(1716921577.217276) can0 100#FEEC0000
(1716921577.218829) can0 100#F9EC0000
(1716921577.220369) can0 100#F4EC0000
(1716921577.221908) can0 100#EFEC0000
(1716921577.223453) can0 100#EAEC0000
(1716921577.223576) can0 425#3AF9
(1716921577.223709) can0 080#7007
(1716921577.224994) can0 100#E5EC0000
(1716921577.226587) can0 100#E0EC0000
(1716921577.228076) can0 100#DBEC0000
(1716921577.229617) can0 100#D6EC0000
(1716921577.231183) can0 100#D1EC0000
(1716921577.232719) can0 100#CCEC0000
(1716921577.233263) can0 425#13F9
(1716921577.233396) can0 080#7007
(1716921577.234270) can0 100#C7EC0000
(1716921577.235841) can0 100#C2EC0000
(1716921577.237338) can0 100#BDEC0000
(1716921577.238892) can0 100#B8EC0000
(1716921577.240435) can0 100#B3EC0000
(1716921577.241973) can0 100#AEEC0000
(1716921577.243506) can0 100#A9EC0000
(1716921577.243642) can0 425#00F9
(1716921577.243767) can0 080#7007
(1716921577.245058) can0 100#A4EC0000
(1716921577.246574) can0 100#9FEC0000
(1716921577.248142) can0 100#9AEC0000
(1716921577.249667) can0 100#95EC0000
(1716921577.251208) can0 100#95EC0000
(1716921577.252730) can0 100#90EC0000
(1716921577.253269) can0 425#B2F8
(1716921577.253392) can0 080#7007
(1716921577.254293) can0 100#8BEC0000
(1716921577.255833) can0 100#86EC0000
(1716921577.257384) can0 100#81EC0000
(1716921577.258926) can0 100#7CEC0000
(1716921577.260470) can0 100#77EC0000
(1716921577.262008) can0 100#72EC0000
(1716921577.263461) can0 425#8BF8
(1716921577.263643) can0 100#6DEC0000
(1716921577.263757) can0 080#7007
(1716921577.265109) can0 100#68EC0000
(1716921577.266649) can0 100#63EC0000
(1716921577.268195) can0 100#5EEC0000
(1716921577.269717) can0 100#59EC0000
(1716921577.271278) can0 100#54EC0000
(1716921577.272841) can0 100#4FEC0000
(1716921577.273271) can0 425#C6F8
(1716921577.273380) can0 080#7007
(1716921577.274358) can0 100#4AEC0000
(1716921577.275898) can0 100#45EC0000
(1716921577.277443) can0 100#40EC0000
(1716921577.278973) can0 100#3BEC0000
(1716921577.280528) can0 100#36EC0000
(1716921577.282072) can0 100#31EC0000
(1716921577.283471) can0 425#B2F8
(1716921577.283633) can0 100#2CEC0000
(1716921577.283769) can0 080#7007
(1716921577.285154) can0 100#2CEC0000
(1716921577.286693) can0 100#27EC0000
(1716921577.288234) can0 100#22EC0000
(1716921577.289769) can0 100#1DEC0000
(1716921577.291338) can0 100#18EC0000
(1716921577.292885) can0 100#13EC0000
(1716921577.293251) can0 425#EFF7
(1716921577.293410) can0 080#7007
(1716921577.294423) can0 100#0EEC0000
(1716921577.295970) can0 100#09EC0000
(1716921577.297495) can0 100#04EC0000
(1716921577.299049) can0 100#FFEB0000
(1716921577.300594) can0 100#FAEB0000
(1716921577.302128) can0 100#F5EB0000
(1716921577.303460) can0 425#B5F7
(1716921577.303622) can0 080#7007
(1716921577.303806) can0 100#F0EB0000
(1716921577.305222) can0 100#EBEB0000
(1716921577.306756) can0 100#E6EB0000
(1716921577.308300) can0 100#E1EB0000
(1716921577.309847) can0 100#DCEB0000
(1716921577.311405) can0 100#D7EB0000
(1716921577.312941) can0 100#D2EB0000
(1716921577.313276) can0 425#DCF7
(1716921577.313400) can0 080#7007
(1716921577.314499) can0 100#CDEB0000
(1716921577.316032) can0 100#C8EB0000
(1716921577.317589) can0 100#C3EB0000
(1716921577.319122) can0 100#C3EB0000
(1716921577.320670) can0 100#BEEB0000
(1716921577.322190) can0 100#B9EB0000
(1716921577.323453) can0 425#8EF7
(1716921577.323621) can0 080#7007
(1716921577.323771) can0 100#B4EB0000
(1716921577.325287) can0 100#AFEB0000
(1716921577.326845) can0 100#AAEB0000
(1716921577.328405) can0 100#A5EB0000
(1716921577.329921) can0 100#A0EB0000
(1716921577.331459) can0 100#9BEB0000
(1716921577.333013) can0 100#96EB0000
(1716921577.333264) can0 425#8EF7
(1716921577.333415) can0 080#7007
(1716921577.334577) can0 100#91EB0000
(1716921577.336093) can0 100#8CEB0000
(1716921577.337646) can0 100#87EB0000
(1716921577.339174) can0 100#82EB0000
(1716921577.340680) can0 100#7DEB0000
(1716921577.342249) can0 100#78EB0000
(1716921577.343477) can0 425#B5F7
(1716921577.343623) can0 080#7007
(1716921577.343742) can0 100#73EB0000
(1716921577.345325) can0 100#6EEB0000
(1716921577.346870) can0 100#69EB0000
(1716921577.348411) can0 100#64EB0000
(1716921577.349933) can0 100#5FEB0000
(1716921577.351489) can0 100#5AEB0000
(1716921577.353030) can0 100#5AEB0000
(1716921577.353281) can0 425#19F7
(1716921577.353419) can0 080#7007
(1716921577.354589) can0 100#55EB0000
(1716921577.356119) can0 100#50EB0000
(1716921577.357669) can0 100#4BEB0000
(1716921577.359200) can0 100#46EB0000
(1716921577.360746) can0 100#41EB0000
(1716921577.362295) can0 100#3CEB0000
(1716921577.363470) can0 425#F2F6
(1716921577.363584) can0 080#7007
(1716921577.363839) can0 100#37EB0000
(1716921577.365387) can0 100#32EB0000
(1716921577.366907) can0 100#2DEB0000
(1716921577.368435) can0 100#28EB0000
(1716921577.369953) can0 100#23EB0000
(1716921577.371539) can0 100#1EEB0000
(1716921577.373073) can0 100#19EB0000
(1716921577.373287) can0 425#19F7
(1716921577.373452) can0 080#7007
(1716921577.374620) can0 100#14EB0000
(1716921577.376162) can0 100#0FEB0000
(1716921577.377683) can0 100#0AEB0000
(1716921577.379241) can0 100#05EB0000
(1716921577.380772) can0 100#00EB0000
(1716921577.382324) can0 100#FBEA0000
(1716921577.383468) can0 425#06F7
(1716921577.383595) can0 080#7007
(1716921577.383842) can0 100#F6EA0000
(1716921577.385377) can0 100#F1EA0000
(1716921577.386911) can0 100#ECEA0000
(1716921577.388462) can0 100#ECEA0000
(1716921577.390003) can0 100#E7EA0000
(1716921577.391589) can0 100#E2EA0000
(1716921577.393083) can0 100#DDEA0000
(1716921577.393271) can0 425#CBF6
(1716921577.393396) can0 080#7007
(1716921577.394620) can0 100#D8EA0000
(1716921577.396166) can0 100#D3EA0000
(1716921577.397721) can0 100#CEEA0000
(1716921577.399275) can0 100#C9EA0000
(1716921577.400845) can0 100#C4EA0000
(1716921577.402351) can0 100#BFEA0000
(1716921577.403474) can0 425#7DF6
(1716921577.403588) can0 080#7007
(1716921577.403901) can0 100#BAEA0000
(1716921577.405427) can0 100#B5EA0000
(1716921577.406979) can0 100#B0EA0000
(1716921577.408540) can0 100#ABEA0000
(1716921577.410074) can0 100#A6EA0000
(1716921577.411609) can0 100#A1EA0000
(1716921577.413161) can0 100#9CEA0000
(1716921577.413288) can0 425#91F6
(1716921577.413437) can0 080#7007
(1716921577.414691) can0 100#97EA0000
(1716921577.416249) can0 100#92EA0000
(1716921577.417796) can0 100#8DEA0000
(1716921577.419342) can0 100#88EA0000
(1716921577.420861) can0 100#83EA0000
(1716921577.422435) can0 100#7EEA0000
(1716921577.423472) can0 425#43F6
(1716921577.423623) can0 080#7007
(1716921577.423926) can0 100#79EA0000
(1716921577.425481) can0 100#74EA0000
(1716921577.427021) can0 100#6FEA0000
(1716921577.428590) can0 100#6FEA0000
(1716921577.430088) can0 100#6AEA0000
(1716921577.431646) can0 100#65EA0000
(1716921577.433182) can0 100#60EA0000
(1716921577.433308) can0 425#08F6
(1716921577.433446) can0 080#7007
(1716921577.434721) can0 100#5BEA0000
(1716921577.436264) can0 100#56EA0000
(1716921577.437846) can0 100#51EA0000
(1716921577.439343) can0 100#4CEA0000
(1716921577.440896) can0 100#47EA0000
(1716921577.442431) can0 100#42EA0000
(1716921577.443473) can0 425#BAF5
(1716921577.443611) can0 080#7007
(1716921577.443966) can0 100#3DEA0000
(1716921577.445509) can0 100#38EA0000
(1716921577.447051) can0 100#33EA0000
(1716921577.448578) can0 100#2EEA0000
(1716921577.450133) can0 100#29EA0000
(1716921577.451697) can0 100#24EA0000
(1716921577.453273) can0 100#1FEA0000
(1716921577.453412) can0 425#32F5
(1716921577.453580) can0 080#7007
(1716921577.454838) can0 100#1AEA0000
(1716921577.456380) can0 100#15EA0000
(1716921577.457910) can0 100#15EA0000
(1716921577.459477) can0 100#10EA0000
(1716921577.461024) can0 100#0BEA0000
(1716921577.462591) can0 100#06EA0000
(1716921577.463456) can0 425#59F5
(1716921577.463621) can0 080#7007
(1716921577.464109) can0 100#01EA0000
(1716921577.465648) can0 100#FCE90000
(1716921577.467186) can0 100#F7E90000
(1716921577.468747) can0 100#F2E90000
(1716921577.470280) can0 100#EDE90000
(1716921577.471846) can0 100#E8E90000
(1716921577.473261) can0 425#93F5
(1716921577.473423) can0 100#E3E90000
(1716921577.473590) can0 080#7007
(1716921577.474921) can0 100#DEE90000
(1716921577.476481) can0 100#D9E90000
(1716921577.478004) can0 100#D4E90000
(1716921577.479592) can0 100#CFE90000
(1716921577.481103) can0 100#CAE90000
(1716921577.482609) can0 100#C5E90000
(1716921577.483474) can0 425#D1F4
(1716921577.483623) can0 080#7007
(1716921577.484226) can0 100#C0E90000
(1716921577.485710) can0 100#C0E90000
(1716921577.487265) can0 100#BBE90000
(1716921577.488817) can0 100#B6E90000
(1716921577.490352) can0 100#B1E90000
(1716921577.491889) can0 100#ACE90000
(1716921577.493289) can0 425#83F4
(1716921577.493438) can0 100#A7E90000
(1716921577.493591) can0 080#7007
(1716921577.494977) can0 100#A2E90000
(1716921577.496527) can0 100#9DE90000
(1716921577.498068) can0 100#98E90000
(1716921577.499622) can0 100#93E90000
(1716921577.501144) can0 100#8EE90000
(1716921577.502697) can0 100#89E90000
(1716921577.503474) can0 425#F8F4
(1716921577.503623) can0 080#7007
(1716921577.504219) can0 100#84E90000
(1716921577.505774) can0 100#7FE90000
(1716921577.507314) can0 100#7AE90000
(1716921577.508830) can0 100#75E90000
(1716921577.510390) can0 100#70E90000
(1716921577.511949) can0 100#6BE90000
(1716921577.513245) can0 425#BDF4
(1716921577.513415) can0 080#7007
(1716921577.513581) can0 100#66E90000
(1716921577.515024) can0 100#61E90000
(1716921577.516592) can0 100#5CE90000
