(1718132493.289297) can0 425#0000
(1718132493.289442) can0 080#0007
(1718132493.298775) can0 425#0000
(1718132493.298892) can0 080#0307
(1718132493.309293) can0 425#0000
(1718132493.309442) can0 080#0307
(1718132493.318771) can0 425#0000
(1718132493.318891) can0 080#0307
(1718132493.329299) can0 425#0000
(1718132493.329442) can0 080#0307
(1718132493.338777) can0 425#0000
(1718132493.338916) can0 080#0307
(1718132493.349274) can0 425#0000
(1718132493.349442) can0 080#0307
(1718132493.358780) can0 425#0000
(1718132493.358891) can0 080#0407
(1718132493.369296) can0 425#0000
(1718132493.369466) can0 080#0407
(1718132493.378780) can0 425#0000
(1718132493.378891) can0 080#0307
(1718132493.389295) can0 425#0000
(1718132493.389466) can0 080#0307
(1718132493.398784) can0 425#0000
(1718132493.398918) can0 080#0307
(1718132493.409295) can0 425#0000
(1718132493.409465) can0 080#0307
(1718132493.418774) can0 425#0000
(1718132493.418891) can0 080#0307
(1718132493.429270) can0 425#0000
(1718132493.429440) can0 080#0307
(1718132493.438777) can0 425#0000
(1718132493.438890) can0 080#0407
(1718132493.449294) can0 425#0000
(1718132493.449440) can0 080#0407
(1718132493.458770) can0 425#0000
(1718132493.458890) can0 080#0407
(1718132493.469295) can0 425#0000
(1718132493.469440) can0 080#0407
(1718132493.478768) can0 425#0000
(1718132493.478889) can0 080#0307
(1718132493.489301) can0 425#0000
(1718132493.489439) can0 080#0307
(1718132493.498768) can0 425#0000
(1718132493.498914) can0 080#0307
(1718132493.509272) can0 425#0000
(1718132493.509440) can0 080#0307
(1718132493.518776) can0 425#0000
(1718132493.518914) can0 080#0507
(1718132493.529292) can0 425#0000
(1718132493.529438) can0 080#0507
(1718132493.538777) can0 425#0000
(1718132493.538888) can0 080#0407
(1718132493.549268) can0 425#0000
(1718132493.549439) can0 080#0407
(1718132493.558770) can0 425#0000
(1718132493.558916) can0 080#0407
(1718132493.569298) can0 425#0000
(1718132493.569438) can0 080#0407
(1718132493.578782) can0 425#0000
(1718132493.578894) can0 080#0207
(1718132493.589267) can0 425#0000
(1718132493.589437) can0 080#0207
(1718132493.598766) can0 425#0000
(1718132493.598913) can0 080#0307
(1718132493.609267) can0 425#0000
(1718132493.609437) can0 080#0307
(1718132493.618771) can0 425#0000
(1718132493.618888) can0 080#0607
(1718132493.629274) can0 425#0000
(1718132493.629412) can0 080#0607
(1718132493.638770) can0 425#0000
(1718132493.638887) can0 080#0307
(1718132493.649274) can0 425#0000
(1718132493.649437) can0 080#0307
(1718132493.658762) can0 425#0000
(1718132493.658886) can0 080#0407
(1718132493.669277) can0 425#0000
(1718132493.669438) can0 080#0407
(1718132493.678765) can0 425#0000
(1718132493.678886) can0 080#0307
(1718132493.689268) can0 425#0000
(1718132493.689440) can0 080#0307
(1718132493.698765) can0 425#0000
(1718132493.698886) can0 080#0407
(1718132493.709291) can0 425#0000
(1718132493.709411) can0 080#0407
(1718132493.718766) can0 425#0000
(1718132493.718886) can0 080#0307
(1718132493.729264) can0 425#0000
(1718132493.729436) can0 080#0307
(1718132493.738769) can0 425#0000
(1718132493.738887) can0 080#0307
(1718132493.749290) can0 425#0000
(1718132493.749435) can0 080#0307
(1718132493.758770) can0 425#0000
(1718132493.758881) can0 080#0707
(1718132493.769265) can0 425#0000
(1718132493.769435) can0 080#0707
(1718132493.778759) can0 425#0000
(1718132493.778885) can0 080#0207
(1718132493.789291) can0 425#0000
(1718132493.789435) can0 080#0207
(1718132493.798762) can0 425#0000
(1718132493.798885) can0 080#0407
(1718132493.809272) can0 425#0000
(1718132493.809434) can0 080#0407
(1718132493.818771) can0 425#0000
(1718132493.818884) can0 080#0307
(1718132493.829265) can0 425#0000
(1718132493.829435) can0 080#0307
(1718132493.838762) can0 425#0000
(1718132493.838884) can0 080#0407
(1718132493.849286) can0 425#0000
(1718132493.849435) can0 080#0407
(1718132493.858769) can0 425#0000
(1718132493.858884) can0 080#0407
(1718132493.869257) can0 425#0000
(1718132493.869432) can0 080#0407
(1718132493.878775) can0 425#0000
(1718132493.878884) can0 080#0407
(1718132493.889262) can0 425#0000
(1718132493.889434) can0 080#0407
(1718132493.898760) can0 425#0000
(1718132493.898885) can0 080#0307
(1718132493.909259) can0 425#0000
(1718132493.909433) can0 080#0307
(1718132493.918767) can0 425#0000
(1718132493.918910) can0 080#0307
(1718132493.929263) can0 425#0000
(1718132493.929433) can0 080#0307
(1718132493.938764) can0 425#0000
(1718132493.938883) can0 080#0407
(1718132493.949262) can0 425#0000
(1718132493.949433) can0 080#0407
(1718132493.958767) can0 425#0000
(1718132493.958907) can0 080#0507
(1718132493.969269) can0 425#0000
(1718132493.969432) can0 080#0507
(1718132493.978769) can0 425#0000
(1718132493.978882) can0 080#0207
(1718132493.989263) can0 425#0000
(1718132493.989430) can0 080#0207
(1718132493.998766) can0 425#0000
(1718132493.998882) can0 080#0507
(1718132494.009264) can0 425#0000
(1718132494.009434) can0 080#0507
(1718132494.018770) can0 425#0000
(1718132494.018881) can0 080#0407
(1718132494.029268) can0 425#0000
(1718132494.029431) can0 080#0407
(1718132494.038769) can0 425#0000
(1718132494.038881) can0 080#0407
(1718132494.049259) can0 425#0000
(1718132494.049434) can0 080#0407
(1718132494.058771) can0 425#0000
(1718132494.058881) can0 080#0307
(1718132494.069260) can0 425#0000
(1718132494.069431) can0 080#0307
(1718132494.078767) can0 425#0000
(1718132494.078883) can0 080#0407
(1718132494.089256) can0 425#0000
(1718132494.089433) can0 080#0407
(1718132494.098757) can0 425#0000
(1718132494.098880) can0 080#0307
(1718132494.109256) can0 425#0000
(1718132494.109429) can0 080#0307
(1718132494.118762) can0 425#0000
(1718132494.118880) can0 080#0307
(1718132494.129287) can0 425#0000
(1718132494.129431) can0 080#0307
(1718132494.138732) can0 425#0000
(1718132494.138879) can0 080#0307
(1718132494.149270) can0 425#0000
(1718132494.149432) can0 080#0307
(1718132494.158763) can0 425#0000
(1718132494.158880) can0 080#0307
(1718132494.169275) can0 425#0000
(1718132494.169430) can0 080#0307
(1718132494.178758) can0 425#0000
(1718132494.178879) can0 080#0307
(1718132494.189256) can0 425#0000
(1718132494.189429) can0 080#0307
(1718132494.198765) can0 425#0000
(1718132494.198879) can0 080#0407
(1718132494.209257) can0 425#0000
(1718132494.209429) can0 080#0407
(1718132494.218761) can0 425#0000
(1718132494.218879) can0 080#0407
(1718132494.229258) can0 425#0000
(1718132494.229425) can0 080#0407
(1718132494.238762) can0 425#0000
(1718132494.238878) can0 080#0507
(1718132494.249255) can0 425#0000
(1718132494.249428) can0 080#0507
(1718132494.258755) can0 425#0000
(1718132494.258878) can0 080#0407
(1718132494.269257) can0 425#0000
(1718132494.269428) can0 080#0407
(1718132494.278763) can0 425#0000
(1718132494.278878) can0 080#0407
(1718132494.289258) can0 425#0000
(1718132494.289428) can0 080#0407
(1718132494.298757) can0 425#0000
(1718132494.298878) can0 080#0407
(1718132494.309287) can0 425#0000
(1718132494.309428) can0 080#0407
(1718132494.318755) can0 425#0000
(1718132494.318877) can0 080#0507
(1718132494.329263) can0 425#0000
(1718132494.329428) can0 080#0507
(1718132494.338762) can0 425#0000
(1718132494.338877) can0 080#0407
(1718132494.349279) can0 425#0000
(1718132494.349432) can0 080#0407
(1718132494.358758) can0 425#0000
(1718132494.358877) can0 080#0407
(1718132494.369256) can0 425#0000
(1718132494.369426) can0 080#0407
(1718132494.378752) can0 425#0000
(1718132494.378878) can0 080#0107
(1718132494.389262) can0 425#0000
(1718132494.389426) can0 080#0107
(1718132494.398762) can0 425#0000
(1718132494.398878) can0 080#0207
(1718132494.409253) can0 425#0000
(1718132494.409426) can0 080#0207
(1718132494.418733) can0 425#0000
(1718132494.418877) can0 080#0307
(1718132494.429251) can0 425#0000
(1718132494.429426) can0 080#0307
(1718132494.438756) can0 425#0000
(1718132494.438876) can0 080#0307
(1718132494.449255) can0 425#0000
(1718132494.449425) can0 080#0307
(1718132494.458757) can0 425#0000
(1718132494.458875) can0 080#0307
(1718132494.469261) can0 425#0000
(1718132494.469426) can0 080#0307
(1718132494.478757) can0 425#0000
(1718132494.478875) can0 080#0207
(1718132494.489255) can0 425#0000
(1718132494.489425) can0 080#0207
(1718132494.498756) can0 425#0000
(1718132494.498874) can0 080#0407
(1718132494.509264) can0 425#0000
(1718132494.509425) can0 080#0407
(1718132494.518758) can0 425#0000
(1718132494.518874) can0 080#0307
(1718132494.529254) can0 425#0000
(1718132494.529425) can0 080#0307
(1718132494.538766) can0 425#0000
(1718132494.538876) can0 080#0307
(1718132494.549254) can0 425#0000
(1718132494.549424) can0 080#0307
(1718132494.558760) can0 425#0000
(1718132494.558874) can0 080#0307
(1718132494.569255) can0 425#0000
(1718132494.569425) can0 080#0307
(1718132494.578739) can0 425#0000
(1718132494.578873) can0 080#0307
(1718132494.589311) can0 425#0000
(1718132494.589424) can0 080#0307
(1718132494.598761) can0 425#0000
(1718132494.598874) can0 080#0307
(1718132494.609255) can0 425#0000
(1718132494.609424) can0 080#0307
(1718132494.618749) can0 425#0000
(1718132494.618874) can0 080#0207
(1718132494.629248) can0 425#0000
(1718132494.629427) can0 080#0207
(1718132494.638747) can0 425#0000
(1718132494.638872) can0 080#0307
(1718132494.649248) can0 425#0000
(1718132494.649423) can0 080#0307
(1718132494.658724) can0 425#0000
(1718132494.658872) can0 080#0107
(1718132494.669249) can0 425#0000
(1718132494.669422) can0 080#0107
(1718132494.678753) can0 425#0000
(1718132494.678873) can0 080#0407
(1718132494.689247) can0 425#0000
(1718132494.689422) can0 080#0407
(1718132494.698728) can0 425#0000
(1718132494.698868) can0 080#0307
(1718132494.709248) can0 425#0000
(1718132494.709399) can0 080#0307
(1718132494.718753) can0 425#0000
(1718132494.718871) can0 080#0307
(1718132494.729246) can0 425#0000
(1718132494.729421) can0 080#0307
(1718132494.738743) can0 425#0000
(1718132494.738872) can0 080#0307
(1718132494.749246) can0 425#0000
(1718132494.749426) can0 080#0307
(1718132494.758753) can0 425#0000
(1718132494.758871) can0 080#0507
(1718132494.769246) can0 425#0000
(1718132494.769420) can0 080#0507
(1718132494.778721) can0 425#0000
(1718132494.778871) can0 080#0207
(1718132494.789247) can0 425#0000
(1718132494.789422) can0 080#0207
(1718132494.798746) can0 425#0000
(1718132494.798870) can0 080#0407
(1718132494.809247) can0 425#0000
(1718132494.809420) can0 080#0407
(1718132494.818750) can0 425#0000
(1718132494.818874) can0 080#0207
(1718132494.829250) can0 425#0000
(1718132494.829416) can0 080#0207
(1718132494.838751) can0 425#0000
(1718132494.838870) can0 080#0307
(1718132494.849251) can0 425#0000
(1718132494.849421) can0 080#0307
(1718132494.858720) can0 425#0000
(1718132494.858870) can0 080#0407
(1718132494.869245) can0 425#0000
(1718132494.869419) can0 080#0407
(1718132494.878753) can0 425#0000
(1718132494.878869) can0 080#0207
(1718132494.889244) can0 425#0000
(1718132494.889419) can0 080#0207
(1718132494.898751) can0 425#0000
(1718132494.898869) can0 080#0307
(1718132494.909248) can0 425#0000
(1718132494.909418) can0 080#0307
(1718132494.918752) can0 425#0000
(1718132494.918869) can0 080#0407
(1718132494.929244) can0 425#0000
(1718132494.929418) can0 080#0407
(1718132494.938745) can0 425#0000
(1718132494.938864) can0 080#0307
(1718132494.949243) can0 425#0000
(1718132494.949418) can0 080#0307
(1718132494.958744) can0 425#0000
(1718132494.958869) can0 080#0307
(1718132494.969247) can0 425#0000
(1718132494.969417) can0 080#0307
(1718132494.978724) can0 425#0000
(1718132494.978867) can0 080#0307
(1718132494.989248) can0 425#0000
(1718132494.989418) can0 080#0307
(1718132494.998748) can0 425#0000
(1718132494.998867) can0 080#0407
(1718132495.009249) can0 425#0000
(1718132495.009417) can0 080#0407
(1718132495.016095) can0 100#00000060
(1718132495.018729) can0 425#0000
(1718132495.018867) can0 080#0207
(1718132495.029242) can0 425#0000
(1718132495.029392) can0 080#0207
(1718132495.038723) can0 425#0000
(1718132495.038866) can0 080#0407
(1718132495.049249) can0 425#0000
(1718132495.049416) can0 080#0407
(1718132495.058750) can0 425#0000
(1718132495.058866) can0 080#0407
(1718132495.069248) can0 425#0000
(1718132495.069416) can0 080#0407
(1718132495.078760) can0 425#0000
(1718132495.078867) can0 080#0207
(1718132495.089244) can0 425#0000
(1718132495.089416) can0 080#0207
(1718132495.098744) can0 425#0000
(1718132495.098866) can0 080#0207
(1718132495.109245) can0 425#0000
(1718132495.109415) can0 080#0207
(1718132495.117765) can0 100#00000060
(1718132495.118745) can0 425#0000
(1718132495.118866) can0 080#0307
(1718132495.129245) can0 425#0000
(1718132495.129390) can0 080#0307
(1718132495.138723) can0 425#0000
(1718132495.138865) can0 080#0407
(1718132495.149243) can0 425#0000
(1718132495.149395) can0 080#0407
(1718132495.158722) can0 425#0000
(1718132495.158865) can0 080#0307
(1718132495.169248) can0 425#0000
(1718132495.169415) can0 080#0307
(1718132495.178716) can0 425#0000
(1718132495.178864) can0 080#0207
(1718132495.189246) can0 425#0000
(1718132495.189415) can0 080#0207
(1718132495.198736) can0 425#0000
(1718132495.198864) can0 080#0207
(1718132495.209238) can0 425#0000
(1718132495.209414) can0 080#0207
(1718132495.218721) can0 425#0000
(1718132495.218864) can0 080#0307
(1718132495.219555) can0 100#00000060
(1718132495.229248) can0 425#0000
(1718132495.229388) can0 080#0307
(1718132495.238750) can0 425#0000
(1718132495.238864) can0 080#0307
(1718132495.249242) can0 425#0000
(1718132495.249388) can0 080#0307
(1718132495.258722) can0 425#0000
(1718132495.258864) can0 080#0207
(1718132495.269243) can0 425#0000
(1718132495.269413) can0 080#0207
(1718132495.278720) can0 425#0000
(1718132495.278863) can0 080#0207
(1718132495.289240) can0 425#0000
(1718132495.289413) can0 080#0207
(1718132495.298740) can0 425#0000
(1718132495.298863) can0 080#0307
(1718132495.309244) can0 425#0000
(1718132495.309412) can0 080#0307
(1718132495.318739) can0 425#0000
(1718132495.318862) can0 080#0207
(1718132495.321530) can0 100#00000060
(1718132495.329237) can0 425#0000
(1718132495.329388) can0 080#0207
(1718132495.338713) can0 425#0000
(1718132495.338862) can0 080#0407
(1718132495.349242) can0 425#0000
(1718132495.349388) can0 080#0407
(1718132495.358738) can0 425#0000
(1718132495.358861) can0 080#0107
(1718132495.369237) can0 425#0000
(1718132495.369411) can0 080#0107
(1718132495.378722) can0 425#0000
(1718132495.378862) can0 080#0307
(1718132495.389239) can0 425#0000
(1718132495.389412) can0 080#0307
(1718132495.398714) can0 425#0000
(1718132495.398862) can0 080#0107
(1718132495.409241) can0 425#0000
(1718132495.409407) can0 080#0107
(1718132495.418741) can0 425#0000
(1718132495.418861) can0 080#0207
(1718132495.423266) can0 100#00000060
(1718132495.429240) can0 425#0000
(1718132495.429386) can0 080#0207
(1718132495.438717) can0 425#0000
(1718132495.438860) can0 080#0307
(1718132495.449232) can0 425#0000
(1718132495.449385) can0 080#0307
(1718132495.458716) can0 425#0000
(1718132495.458861) can0 080#0107
(1718132495.469240) can0 425#0000
(1718132495.469410) can0 080#0107
(1718132495.478715) can0 425#0000
(1718132495.478860) can0 080#0207
(1718132495.489243) can0 425#0000
(1718132495.489410) can0 080#0207
(1718132495.498716) can0 425#0000
(1718132495.498860) can0 080#0207
(1718132495.509245) can0 425#0000
(1718132495.509411) can0 080#0207
(1718132495.518711) can0 425#0000
(1718132495.518860) can0 080#0207
(1718132495.525052) can0 100#00000060
(1718132495.529235) can0 425#0000
(1718132495.529359) can0 080#0207
(1718132495.538712) can0 425#0000
(1718132495.538859) can0 080#0207
(1718132495.549239) can0 425#0000
(1718132495.549384) can0 080#0207
(1718132495.558740) can0 425#0000
(1718132495.558859) can0 080#0207
(1718132495.569248) can0 425#0000
(1718132495.569409) can0 080#0207
(1718132495.578711) can0 425#0000
(1718132495.578858) can0 080#0307
(1718132495.589237) can0 425#0000
(1718132495.589408) can0 080#0307
(1718132495.598712) can0 425#0000
(1718132495.598858) can0 080#0107
(1718132495.609236) can0 425#0000
(1718132495.609408) can0 080#0107
(1718132495.618715) can0 425#0000
(1718132495.618858) can0 080#0207
(1718132495.626711) can0 100#00000060
(1718132495.629244) can0 425#0000
(1718132495.629384) can0 080#0207
(1718132495.638709) can0 425#0000
(1718132495.638857) can0 080#0207
(1718132495.649242) can0 425#0000
(1718132495.649416) can0 080#0207
(1718132495.658711) can0 425#0000
(1718132495.658858) can0 080#0207
(1718132495.669250) can0 425#0000
(1718132495.669407) can0 080#0207
(1718132495.678739) can0 425#0000
(1718132495.678859) can0 080#0207
(1718132495.689238) can0 425#0000
(1718132495.689407) can0 080#0207
(1718132495.698714) can0 425#0000
(1718132495.698831) can0 080#0107
(1718132495.709243) can0 425#0000
(1718132495.709381) can0 080#0107
(1718132495.718739) can0 425#0000
(1718132495.718857) can0 080#0107
(1718132495.728490) can0 100#00000060
(1718132495.728885) can0 425#0000
(1718132495.729006) can0 080#0107
(1718132495.738725) can0 425#0000
(1718132495.738832) can0 080#0107
(1718132495.749234) can0 425#0000
(1718132495.749381) can0 080#0107
(1718132495.758709) can0 425#0000
(1718132495.758856) can0 080#0107
(1718132495.769237) can0 425#0000
(1718132495.769377) can0 080#0107
(1718132495.778707) can0 425#0000
(1718132495.778855) can0 080#0107
(1718132495.789235) can0 425#0000
(1718132495.789405) can0 080#0107
(1718132495.798721) can0 425#0000
(1718132495.798830) can0 080#0107
(1718132495.809232) can0 425#0000
(1718132495.809405) can0 080#0107
(1718132495.818712) can0 425#0000
(1718132495.818856) can0 080#0007
(1718132495.829258) can0 425#0000
(1718132495.829405) can0 080#0007
(1718132495.830385) can0 100#00000060
(1718132495.838707) can0 425#0000
(1718132495.838855) can0 080#0207
(1718132495.849235) can0 425#0000
(1718132495.849407) can0 080#0207
(1718132495.858711) can0 425#0000
(1718132495.858855) can0 080#FF06
(1718132495.869231) can0 425#0000
(1718132495.869405) can0 080#FF06
(1718132495.878708) can0 425#0000
(1718132495.878855) can0 080#FF06
(1718132495.889229) can0 425#0000
(1718132495.889404) can0 080#FF06
(1718132495.898710) can0 425#0000
(1718132495.898854) can0 080#0007
(1718132495.909234) can0 425#0000
(1718132495.909403) can0 080#0007
(1718132495.918719) can0 425#0000
(1718132495.918856) can0 080#FE06
(1718132495.929236) can0 425#0000
(1718132495.929403) can0 080#FE06
(1718132495.932881) can0 100#00000060
(1718132495.938711) can0 425#0000
(1718132495.938828) can0 080#FF06
(1718132495.949232) can0 425#0000
(1718132495.949378) can0 080#FF06
(1718132495.958712) can0 425#0000
(1718132495.958856) can0 080#FE06
(1718132495.969233) can0 425#0000
(1718132495.969378) can0 080#FE06
(1718132495.978710) can0 425#0000
(1718132495.978852) can0 080#FD06
(1718132495.989234) can0 425#0000
(1718132495.989406) can0 080#FD06
(1718132495.998705) can0 425#0000
(1718132495.998852) can0 080#FB06
(1718132496.009238) can0 425#0000
(1718132496.009402) can0 080#FB06
(1718132496.018703) can0 425#0000
(1718132496.018852) can0 080#FA06
(1718132496.029230) can0 425#0000
(1718132496.029402) can0 080#FA06
(1718132496.034875) can0 100#00000060
(1718132496.038705) can0 425#0000
(1718132496.038851) can0 080#F906
(1718132496.049232) can0 425#0000
(1718132496.049377) can0 080#F906
(1718132496.058706) can0 425#0000
(1718132496.058848) can0 080#F706
(1718132496.069231) can0 425#0000
(1718132496.069376) can0 080#F706
(1718132496.078714) can0 425#0000
(1718132496.078853) can0 080#F806
(1718132496.089231) can0 425#0000
(1718132496.089401) can0 080#F806
(1718132496.098703) can0 425#0000
(1718132496.098851) can0 080#F806
(1718132496.109227) can0 425#0000
(1718132496.109401) can0 080#F806
(1718132496.118724) can0 425#0000
(1718132496.118847) can0 080#F606
(1718132496.129230) can0 425#0000
(1718132496.129372) can0 080#F606
(1718132496.136515) can0 100#00000060
(1718132496.138706) can0 425#0000
(1718132496.138851) can0 080#F406
(1718132496.149230) can0 425#0000
(1718132496.149349) can0 080#F406
(1718132496.158704) can0 425#0000
(1718132496.158851) can0 080#F306
(1718132496.169212) can0 425#0000
(1718132496.169350) can0 080#F306
(1718132496.178703) can0 425#0000
(1718132496.178826) can0 080#F206
(1718132496.189232) can0 425#0000
(1718132496.189400) can0 080#F206
(1718132496.198711) can0 425#0000
(1718132496.198849) can0 080#F106
(1718132496.209229) can0 425#0000
(1718132496.209396) can0 080#F106
(1718132496.218704) can0 425#0000
(1718132496.218849) can0 080#F106
(1718132496.229227) can0 425#0000
(1718132496.229399) can0 080#F106
(1718132496.238623) can0 100#00000060
(1718132496.238742) can0 425#0000
(1718132496.238866) can0 080#ED06
(1718132496.249228) can0 425#0000
(1718132496.249374) can0 080#ED06
(1718132496.258703) can0 425#0000
(1718132496.258850) can0 080#E406
(1718132496.269228) can0 425#0000
(1718132496.269348) can0 080#E406
(1718132496.278721) can0 425#0000
(1718132496.278871) can0 080#D706
(1718132496.289237) can0 425#0000
(1718132496.289398) can0 080#D706
(1718132496.298705) can0 425#0000
(1718132496.298848) can0 080#D006
(1718132496.309230) can0 425#0000
(1718132496.309401) can0 080#D006
(1718132496.318700) can0 425#0000
(1718132496.318823) can0 080#CA06
(1718132496.329229) can0 425#0000
(1718132496.329379) can0 080#CA06
(1718132496.338700) can0 425#0000
(1718132496.338847) can0 080#C406
(1718132496.341047) can0 100#00000060
(1718132496.349230) can0 425#0000
(1718132496.349372) can0 080#C406
(1718132496.358706) can0 425#0000
(1718132496.358855) can0 080#C306
(1718132496.369200) can0 425#0000
(1718132496.369372) can0 080#C306
(1718132496.378709) can0 425#0000
(1718132496.378847) can0 080#C406
(1718132496.389225) can0 425#0000
(1718132496.389396) can0 080#C406
(1718132496.398704) can0 425#0000
(1718132496.398822) can0 080#C206
(1718132496.409229) can0 425#0000
(1718132496.409372) can0 080#C206
(1718132496.418700) can0 425#0000
(1718132496.418847) can0 080#C506
(1718132496.429226) can0 425#0000
(1718132496.429397) can0 080#C506
(1718132496.438700) can0 425#0000
(1718132496.438846) can0 080#C406
(1718132496.442720) can0 100#00000060
(1718132496.449198) can0 425#0000
(1718132496.449346) can0 080#C406
(1718132496.458697) can0 425#0000
(1718132496.458821) can0 080#C206
(1718132496.469206) can0 425#0000
(1718132496.469370) can0 080#C206
(1718132496.478697) can0 425#0000
(1718132496.478817) can0 080#C206
(1718132496.489226) can0 425#0000
(1718132496.489370) can0 080#C206
(1718132496.498696) can0 425#0000
(1718132496.498845) can0 080#BC06
(1718132496.509200) can0 425#0000
(1718132496.509396) can0 080#BC06
(1718132496.518702) can0 425#0000
(1718132496.518816) can0 080#B306
(1718132496.529224) can0 425#0000
(1718132496.529395) can0 080#B306
(1718132496.538708) can0 425#0000
(1718132496.538845) can0 080#B406
(1718132496.544563) can0 100#00000060
(1718132496.549221) can0 425#0000
(1718132496.549370) can0 080#B406
(1718132496.558699) can0 425#0000
(1718132496.558845) can0 080#B306
(1718132496.569223) can0 425#0000
(1718132496.569344) can0 080#B306
(1718132496.578704) can0 425#0000
(1718132496.578820) can0 080#B106
(1718132496.589232) can0 425#0000
(1718132496.589394) can0 080#B106
(1718132496.598696) can0 425#0000
(1718132496.598843) can0 080#B306
(1718132496.609223) can0 425#0000
(1718132496.609393) can0 080#B306
(1718132496.618716) can0 425#0000
(1718132496.618843) can0 080#B206
(1718132496.629198) can0 425#0000
(1718132496.629343) can0 080#B206
(1718132496.638699) can0 425#0000
(1718132496.638818) can0 080#B406
(1718132496.646318) can0 100#00000060
(1718132496.649195) can0 425#0000
(1718132496.649342) can0 080#B406
(1718132496.658692) can0 425#0000
(1718132496.658843) can0 080#B206
(1718132496.669213) can0 425#0000
(1718132496.669339) can0 080#B206
(1718132496.678699) can0 425#0000
(1718132496.678818) can0 080#B106
(1718132496.689225) can0 425#0000
(1718132496.689368) can0 080#B106
(1718132496.698700) can0 425#0000
(1718132496.698817) can0 080#B006
(1718132496.709217) can0 425#0000
(1718132496.709367) can0 080#B006
(1718132496.718709) can0 425#0000
(1718132496.718822) can0 080#AB06
(1718132496.729217) can0 425#0000
(1718132496.729367) can0 080#AB06
(1718132496.738699) can0 425#0000
(1718132496.738842) can0 080#A606
(1718132496.748093) can0 100#00000060
(1718132496.749215) can0 425#0000
(1718132496.749341) can0 080#A606
(1718132496.758692) can0 425#0000
(1718132496.758816) can0 080#9F06
(1718132496.769217) can0 425#0000
(1718132496.769341) can0 080#9F06
(1718132496.778697) can0 425#0000
(1718132496.778841) can0 080#9806
(1718132496.789192) can0 425#0000
(1718132496.789341) can0 080#9806
(1718132496.798692) can0 425#0000
(1718132496.798816) can0 080#9706
(1718132496.809225) can0 425#0000
(1718132496.809366) can0 080#9706
(1718132496.818691) can0 425#0000
(1718132496.818841) can0 080#9606
(1718132496.829197) can0 425#0000
(1718132496.829365) can0 080#9606
(1718132496.838692) can0 425#0000
(1718132496.838820) can0 080#9806
(1718132496.849195) can0 425#0000
(1718132496.849365) can0 080#9806
(1718132496.849862) can0 100#00000060
(1718132496.858694) can0 425#0000
(1718132496.858839) can0 080#9506
(1718132496.869192) can0 425#0000
(1718132496.869390) can0 080#9506
(1718132496.878693) can0 425#0000
(1718132496.878839) can0 080#8E06
(1718132496.889218) can0 425#0000
(1718132496.889367) can0 080#8E06
(1718132496.898699) can0 425#0000
(1718132496.898814) can0 080#8806
(1718132496.909190) can0 425#0000
(1718132496.909397) can0 080#8806
(1718132496.918700) can0 425#0000
(1718132496.918817) can0 080#8506
(1718132496.929190) can0 425#0000
(1718132496.929363) can0 080#8506
(1718132496.938691) can0 425#0000
(1718132496.938813) can0 080#8406
(1718132496.949220) can0 425#0000
(1718132496.949385) can0 080#8406
(1718132496.951788) can0 100#00000060
(1718132496.958691) can0 425#0000
(1718132496.958813) can0 080#8006
(1718132496.969204) can0 425#0000
(1718132496.969338) can0 080#8006
(1718132496.978692) can0 425#0000
(1718132496.978838) can0 080#7E06
(1718132496.989223) can0 425#0000
(1718132496.989338) can0 080#7E06
(1718132496.998696) can0 425#0000
(1718132496.998812) can0 080#7C06
(1718132497.009217) can0 425#0000
(1718132497.009363) can0 080#7C06
(1718132497.018698) can0 425#0000
(1718132497.018837) can0 080#7C06
(1718132497.029217) can0 425#0000
(1718132497.029363) can0 080#7C06
(1718132497.038700) can0 425#0000
(1718132497.038812) can0 080#7C06
(1718132497.049192) can0 425#0000
(1718132497.049361) can0 080#7C06
(1718132497.053507) can0 100#00000060
(1718132497.058699) can0 425#0000
(1718132497.058812) can0 080#7C06
(1718132497.069190) can0 425#0000
(1718132497.069336) can0 080#7C06
(1718132497.078698) can0 425#0000
(1718132497.078821) can0 080#7806
(1718132497.089187) can0 425#0000
(1718132497.089338) can0 080#7806
(1718132497.098683) can0 425#0000
(1718132497.098816) can0 080#7C06
(1718132497.109190) can0 425#0000
(1718132497.109362) can0 080#7C06
(1718132497.118692) can0 425#0000
(1718132497.118811) can0 080#7C06
(1718132497.129187) can0 425#0000
(1718132497.129357) can0 080#7C06
(1718132497.138687) can0 425#0000
(1718132497.138810) can0 080#7706
(1718132497.149211) can0 425#0000
(1718132497.149360) can0 080#7706
(1718132497.155193) can0 100#00000060
(1718132497.158686) can0 425#0000
(1718132497.158810) can0 080#6C06
(1718132497.169194) can0 425#0000
(1718132497.169335) can0 080#6C06
(1718132497.178692) can0 425#0000
(1718132497.178810) can0 080#5B06
(1718132497.189190) can0 425#0000
(1718132497.189335) can0 080#5B06
(1718132497.198692) can0 425#0000
(1718132497.198810) can0 080#5406
(1718132497.209210) can0 425#0000
(1718132497.209360) can0 080#5406
(1718132497.218690) can0 425#0000
(1718132497.218810) can0 080#5306
(1718132497.229181) can0 425#0000
(1718132497.229359) can0 080#5306
(1718132497.238685) can0 425#0000
(1718132497.238809) can0 080#5006
(1718132497.249188) can0 425#0000
(1718132497.249359) can0 080#5006
(1718132497.257068) can0 100#00000060
(1718132497.258690) can0 425#0000
(1718132497.258809) can0 080#4E06
(1718132497.269212) can0 425#0000
(1718132497.269334) can0 080#4E06
(1718132497.278694) can0 425#0000
(1718132497.278809) can0 080#4E06
(1718132497.289184) can0 425#0000
(1718132497.289334) can0 080#4E06
(1718132497.298691) can0 425#0000
(1718132497.298808) can0 080#4E06
(1718132497.309193) can0 425#0000
(1718132497.309333) can0 080#4E06
(1718132497.318708) can0 425#0000
(1718132497.318808) can0 080#4F06
(1718132497.329187) can0 425#0000
(1718132497.329358) can0 080#4F06
(1718132497.338694) can0 425#0000
(1718132497.338807) can0 080#4F06
(1718132497.349197) can0 425#0000
(1718132497.349333) can0 080#4F06
(1718132497.358725) can0 425#0000
(1718132497.358824) can0 080#4E06
(1718132497.358973) can0 100#00000060
(1718132497.369186) can0 425#0000
(1718132497.369332) can0 080#4E06
(1718132497.378685) can0 425#0000
(1718132497.378807) can0 080#4D06
(1718132497.389187) can0 425#0000
(1718132497.389332) can0 080#4D06
(1718132497.398685) can0 425#0000
(1718132497.398807) can0 080#4E06
(1718132497.409192) can0 425#0000
(1718132497.409357) can0 080#4E06
(1718132497.418691) can0 425#0000
(1718132497.418807) can0 080#4E06
(1718132497.429184) can0 425#0000
(1718132497.429331) can0 080#4E06
(1718132497.438685) can0 425#0000
(1718132497.438807) can0 080#4406
(1718132497.449186) can0 425#0000
(1718132497.449356) can0 080#4406
(1718132497.458691) can0 425#0000
(1718132497.458806) can0 080#3706
(1718132497.460604) can0 100#00000060
(1718132497.469194) can0 425#0000
(1718132497.469332) can0 080#3706
(1718132497.478688) can0 425#0000
(1718132497.478806) can0 080#2F06
(1718132497.489182) can0 425#0000
(1718132497.489331) can0 080#2F06
(1718132497.498683) can0 425#0000
(1718132497.498805) can0 080#2C06
(1718132497.509195) can0 425#0000
(1718132497.509332) can0 080#2C06
(1718132497.518683) can0 425#0000
(1718132497.518812) can0 080#2A06
(1718132497.529184) can0 425#0000
(1718132497.529356) can0 080#2A06
(1718132497.538685) can0 425#0000
(1718132497.538805) can0 080#2A06
(1718132497.549185) can0 425#0000
(1718132497.549330) can0 080#2A06
(1718132497.558692) can0 425#0000
(1718132497.558805) can0 080#2906
(1718132497.562332) can0 100#00000060
(1718132497.569183) can0 425#0000
(1718132497.569329) can0 080#2906
(1718132497.578696) can0 425#0000
(1718132497.578807) can0 080#2806
(1718132497.589182) can0 425#0000
(1718132497.589329) can0 080#2806
(1718132497.598681) can0 425#0000
(1718132497.598804) can0 080#2906
(1718132497.609208) can0 425#0000
(1718132497.609353) can0 080#2906
(1718132497.618686) can0 425#0000
(1718132497.618803) can0 080#2A06
(1718132497.629184) can0 425#0000
(1718132497.629328) can0 080#2A06
(1718132497.638686) can0 425#0000
(1718132497.638803) can0 080#2A06
(1718132497.649179) can0 425#0000
(1718132497.649353) can0 080#2A06
(1718132497.658684) can0 425#0000
(1718132497.658803) can0 080#2906
(1718132497.664116) can0 100#00000060
(1718132497.669188) can0 425#0000
(1718132497.669325) can0 080#2906
(1718132497.678679) can0 425#0000
(1718132497.678802) can0 080#2806
(1718132497.689186) can0 425#0000
(1718132497.689327) can0 080#2806
(1718132497.698688) can0 425#0000
(1718132497.698802) can0 080#2B06
(1718132497.709181) can0 425#0000
(1718132497.709352) can0 080#2B06
(1718132497.718689) can0 425#0000
(1718132497.718802) can0 080#2506
(1718132497.729182) can0 425#0000
(1718132497.729352) can0 080#2506
(1718132497.738686) can0 425#0000
(1718132497.738803) can0 080#1006
(1718132497.749181) can0 425#0000
(1718132497.749326) can0 080#1006
(1718132497.758665) can0 425#0000
(1718132497.758803) can0 080#FB05
(1718132497.765777) can0 100#00000060
(1718132497.769181) can0 425#0000
(1718132497.769327) can0 080#FB05
(1718132497.778686) can0 425#0000
(1718132497.778801) can0 080#EF05
(1718132497.789180) can0 425#0000
(1718132497.789322) can0 080#EF05
(1718132497.798679) can0 425#0000
(1718132497.798801) can0 080#EF05
(1718132497.809183) can0 425#0000
(1718132497.809351) can0 080#EF05
(1718132497.818685) can0 425#0000
(1718132497.818800) can0 080#EF05
(1718132497.829184) can0 425#0000
(1718132497.829325) can0 080#EF05
(1718132497.838686) can0 425#0000
(1718132497.838800) can0 080#F005
(1718132497.849181) can0 425#0000
(1718132497.849351) can0 080#F005
(1718132497.858679) can0 425#0000
(1718132497.858800) can0 080#F105
(1718132497.867452) can0 100#00000060
(1718132497.869176) can0 425#0000
(1718132497.869325) can0 080#F105
(1718132497.878678) can0 425#0000
(1718132497.878800) can0 080#EF05
(1718132497.889179) can0 425#0000
(1718132497.889325) can0 080#EF05
(1718132497.898687) can0 425#0000
(1718132497.898796) can0 080#EE05
(1718132497.909187) can0 425#0000
(1718132497.909332) can0 080#EE05
(1718132497.918660) can0 425#0000
(1718132497.918799) can0 080#EF05
(1718132497.929178) can0 425#0000
(1718132497.929349) can0 080#EF05
(1718132497.938682) can0 425#0000
(1718132497.938799) can0 080#F005
(1718132497.949199) can0 425#0000
(1718132497.949327) can0 080#F005
(1718132497.958680) can0 425#0000
(1718132497.958798) can0 080#EF05
(1718132497.969179) can0 425#0000
(1718132497.969352) can0 100#00000060
(1718132497.969477) can0 080#EF05
(1718132497.978682) can0 425#0000
(1718132497.978798) can0 080#EF05
(1718132497.989183) can0 425#0000
(1718132497.989324) can0 080#EF05
(1718132497.998679) can0 425#0000
(1718132497.998798) can0 080#F005
(1718132498.009190) can0 425#0000
(1718132498.009350) can0 080#F005
(1718132498.018684) can0 425#0000
(1718132498.018794) can0 080#F005
(1718132498.029177) can0 425#0000
(1718132498.029324) can0 080#F005
(1718132498.038687) can0 425#0000
(1718132498.038797) can0 080#F005
(1718132498.049177) can0 425#0000
(1718132498.049348) can0 080#F005
(1718132498.058680) can0 425#0000
(1718132498.058797) can0 080#F005
(1718132498.069175) can0 425#0000
(1718132498.069322) can0 080#F005
(1718132498.071027) can0 100#00000060
(1718132498.078690) can0 425#0000
(1718132498.078799) can0 080#F105
(1718132498.089174) can0 425#0000
(1718132498.089346) can0 080#F105
(1718132498.098657) can0 425#0000
(1718132498.098797) can0 080#F005
(1718132498.109177) can0 425#0000
(1718132498.109321) can0 080#F005
(1718132498.118657) can0 425#0000
(1718132498.118796) can0 080#E805
(1718132498.129182) can0 425#0000
(1718132498.129347) can0 080#E805
(1718132498.138673) can0 425#0000
(1718132498.138792) can0 080#D905
(1718132498.149177) can0 425#0000
(1718132498.149321) can0 080#D905
(1718132498.158679) can0 425#0000
(1718132498.158795) can0 080#CB05
(1718132498.169181) can0 425#0000
(1718132498.169346) can0 080#CB05
(1718132498.173024) can0 100#00000060
(1718132498.178676) can0 425#0000
(1718132498.178795) can0 080#C305
(1718132498.189178) can0 425#0000
(1718132498.189320) can0 080#C305
(1718132498.198648) can0 425#0000
(1718132498.198795) can0 080#BF05
(1718132498.209175) can0 425#0000
(1718132498.209320) can0 080#BF05
(1718132498.218678) can0 425#0000
(1718132498.218795) can0 080#BE05
(1718132498.229174) can0 425#0000
(1718132498.229319) can0 080#BE05
(1718132498.238677) can0 425#0000
(1718132498.238796) can0 080#BF05
(1718132498.249173) can0 425#0000
(1718132498.249345) can0 080#BF05
(1718132498.258677) can0 425#0000
(1718132498.258802) can0 080#BF05
(1718132498.269171) can0 425#0000
(1718132498.269346) can0 080#BF05
(1718132498.274976) can0 100#00000060
(1718132498.278649) can0 425#0000
(1718132498.278794) can0 080#BE05
(1718132498.289174) can0 425#0000
(1718132498.289319) can0 080#BE05
(1718132498.298674) can0 425#0000
(1718132498.298794) can0 080#BF05
(1718132498.309174) can0 425#0000
(1718132498.309318) can0 080#BF05
(1718132498.318650) can0 425#0000
(1718132498.318796) can0 080#C005
(1718132498.329171) can0 425#0000
(1718132498.329344) can0 080#C005
(1718132498.338669) can0 425#0000
(1718132498.338793) can0 080#BF05
(1718132498.349180) can0 425#0000
(1718132498.349318) can0 080#BF05
(1718132498.358673) can0 425#0000
(1718132498.358792) can0 080#BF05
(1718132498.369172) can0 425#0000
(1718132498.369343) can0 080#BF05
(1718132498.376668) can0 100#00000060
(1718132498.378673) can0 425#0000
(1718132498.378796) can0 080#BE05
(1718132498.389169) can0 425#0000
(1718132498.389317) can0 080#BE05
(1718132498.398649) can0 425#0000
(1718132498.398793) can0 080#BC05
(1718132498.409173) can0 425#0000
(1718132498.409291) can0 080#BC05
(1718132498.418653) can0 425#0000
(1718132498.418792) can0 080#BB05
(1718132498.429171) can0 425#0000
(1718132498.429291) can0 080#BB05
(1718132498.438653) can0 425#0000
(1718132498.438792) can0 080#BC05
(1718132498.449170) can0 425#0000
(1718132498.449341) can0 080#BC05
(1718132498.458652) can0 425#0000
(1718132498.458791) can0 080#B605
(1718132498.469175) can0 425#0000
(1718132498.469316) can0 080#B605
(1718132498.478325) can0 100#00000060
(1718132498.478585) can0 425#0000
(1718132498.478731) can0 080#A905
(1718132498.489172) can0 425#0000
(1718132498.489318) can0 080#A905
(1718132498.498668) can0 425#0000
(1718132498.498790) can0 080#A205
(1718132498.509176) can0 425#0000
(1718132498.509294) can0 080#A205
(1718132498.518652) can0 425#0000
(1718132498.518791) can0 080#9D05
(1718132498.529168) can0 425#0000
(1718132498.529340) can0 080#9D05
(1718132498.538667) can0 425#0000
(1718132498.538791) can0 080#9C05
(1718132498.549166) can0 425#0000
(1718132498.549339) can0 080#9C05
(1718132498.558643) can0 425#0000
(1718132498.558790) can0 080#9C05
(1718132498.569168) can0 425#0000
(1718132498.569340) can0 080#9C05
(1718132498.578675) can0 425#0000
(1718132498.578793) can0 080#9B05
(1718132498.580166) can0 100#00000060
(1718132498.589169) can0 425#0000
(1718132498.589322) can0 080#9B05
(1718132498.598647) can0 425#0000
(1718132498.598789) can0 080#9B05
(1718132498.609168) can0 425#0000
(1718132498.609339) can0 080#9B05
(1718132498.618646) can0 425#0000
(1718132498.618789) can0 080#9B05
(1718132498.629167) can0 425#0000
(1718132498.629339) can0 080#9B05
(1718132498.638645) can0 425#0000
(1718132498.638788) can0 080#9C05
(1718132498.649160) can0 425#0000
(1718132498.649338) can0 080#9C05
(1718132498.658640) can0 425#0000
(1718132498.658795) can0 080#9B05
(1718132498.669167) can0 425#0000
(1718132498.669338) can0 080#9B05
(1718132498.678639) can0 425#0000
(1718132498.678789) can0 080#9A05
(1718132498.681988) can0 100#00000060
(1718132498.689173) can0 425#0000
(1718132498.689313) can0 080#9A05
(1718132498.698664) can0 425#0000
(1718132498.698788) can0 080#9C05
(1718132498.709165) can0 425#0000
(1718132498.709338) can0 080#9C05
(1718132498.718644) can0 425#0000
(1718132498.718787) can0 080#9C05
(1718132498.729166) can0 425#0000
(1718132498.729333) can0 080#9C05
(1718132498.738669) can0 425#0000
(1718132498.738787) can0 080#9D05
(1718132498.749167) can0 425#0000
(1718132498.749336) can0 080#9D05
(1718132498.758645) can0 425#0000
(1718132498.758787) can0 080#9405
(1718132498.769159) can0 425#0000
(1718132498.769337) can0 080#9405
(1718132498.778663) can0 425#0000
(1718132498.778787) can0 080#8505
(1718132498.783580) can0 100#00000060
(1718132498.789163) can0 425#0000
(1718132498.789311) can0 080#8505
(1718132498.798644) can0 425#0000
(1718132498.798786) can0 080#7705
(1718132498.809164) can0 425#0000
(1718132498.809311) can0 080#7705
(1718132498.818662) can0 425#0000
(1718132498.818786) can0 080#6905
(1718132498.829164) can0 425#0000
(1718132498.829336) can0 080#6905
(1718132498.838636) can0 425#0000
(1718132498.838786) can0 080#5705
(1718132498.849162) can0 425#0000
(1718132498.849332) can0 080#5705
(1718132498.858661) can0 425#0000
(1718132498.858795) can0 080#4B05
(1718132498.869162) can0 425#0000
(1718132498.869335) can0 080#4B05
(1718132498.878634) can0 425#0000
(1718132498.878786) can0 080#3D05
(1718132498.885464) can0 100#00000060
(1718132498.889165) can0 425#0000
(1718132498.889310) can0 080#3D05
(1718132498.898638) can0 425#0000
(1718132498.898787) can0 080#3805
(1718132498.909162) can0 425#0000
(1718132498.909284) can0 080#3805
(1718132498.918637) can0 425#0000
(1718132498.918785) can0 080#3405
(1718132498.929162) can0 425#0000
(1718132498.929334) can0 080#3405
(1718132498.938635) can0 425#0000
(1718132498.938784) can0 080#3405
(1718132498.949159) can0 425#0000
(1718132498.949334) can0 080#3405
(1718132498.958635) can0 425#0000
(1718132498.958784) can0 080#3305
(1718132498.969160) can0 425#0000
(1718132498.969342) can0 080#3305
(1718132498.978659) can0 425#0000
(1718132498.978787) can0 080#3205
(1718132498.987151) can0 100#00000060
(1718132498.989161) can0 425#0000
(1718132498.989309) can0 080#3205
(1718132498.998631) can0 425#0000
(1718132498.998783) can0 080#3305
(1718132499.009165) can0 425#0000
(1718132499.009285) can0 080#3305
(1718132499.018634) can0 425#0000
(1718132499.018783) can0 080#3405
(1718132499.029165) can0 425#0000
(1718132499.029333) can0 080#3405
(1718132499.038635) can0 425#0000
(1718132499.038783) can0 080#3205
(1718132499.049159) can0 425#0000
(1718132499.049333) can0 080#3205
(1718132499.058635) can0 425#0000
(1718132499.058783) can0 080#3005
(1718132499.069158) can0 425#0000
(1718132499.069332) can0 080#3005
(1718132499.078635) can0 425#0000
(1718132499.078783) can0 080#2F05
(1718132499.089152) can0 425#0000
(1718132499.089334) can0 100#00000060
(1718132499.089477) can0 080#2F05
(1718132499.098634) can0 425#0000
(1718132499.098782) can0 080#3105
(1718132499.109159) can0 425#0000
(1718132499.109331) can0 080#3105
(1718132499.118630) can0 425#0000
(1718132499.118782) can0 080#2F05
(1718132499.129158) can0 425#0000
(1718132499.129328) can0 080#2F05
(1718132499.138635) can0 425#0000
(1718132499.138781) can0 080#3005
(1718132499.149157) can0 425#0000
(1718132499.149331) can0 080#3005
(1718132499.158637) can0 425#0000
(1718132499.158780) can0 080#2E05
(1718132499.169165) can0 425#0000
(1718132499.169332) can0 080#2E05
(1718132499.178638) can0 425#0000
(1718132499.178780) can0 080#2D05
(1718132499.189156) can0 425#0000
(1718132499.189331) can0 080#2D05
(1718132499.191312) can0 100#00000060
(1718132499.198637) can0 425#0000
(1718132499.198780) can0 080#2F05
(1718132499.209157) can0 425#0000
(1718132499.209330) can0 080#2F05
(1718132499.218643) can0 425#0000
(1718132499.218780) can0 080#2A05
(1718132499.229156) can0 425#0000
(1718132499.229330) can0 080#2A05
(1718132499.238633) can0 425#0000
(1718132499.238755) can0 080#1D05
(1718132499.249155) can0 425#0000
(1718132499.249330) can0 080#1D05
(1718132499.258631) can0 425#0000
(1718132499.258780) can0 080#0D05
(1718132499.269159) can0 425#0000
(1718132499.269330) can0 080#0D05
(1718132499.278635) can0 425#0000
(1718132499.278779) can0 080#0105
(1718132499.289155) can0 425#0000
(1718132499.289330) can0 080#0105
(1718132499.293081) can0 100#00000060
(1718132499.298637) can0 425#0000
(1718132499.298753) can0 080#F704
(1718132499.309163) can0 425#0000
(1718132499.309304) can0 080#F704
(1718132499.318635) can0 425#0000
(1718132499.318778) can0 080#EC04
(1718132499.329155) can0 425#0000
(1718132499.329279) can0 080#EC04
(1718132499.338630) can0 425#0000
(1718132499.338778) can0 080#E004
(1718132499.349157) can0 425#0000
(1718132499.349329) can0 080#E004
(1718132499.358629) can0 425#0000
(1718132499.358778) can0 080#D104
(1718132499.369150) can0 425#0000
(1718132499.369327) can0 080#D104
(1718132499.378635) can0 425#0000
(1718132499.378778) can0 080#CD04
(1718132499.389164) can0 425#0000
(1718132499.389277) can0 080#CD04
(1718132499.394677) can0 100#00000060
(1718132499.398629) can0 425#0000
(1718132499.398752) can0 080#CE04
(1718132499.409153) can0 425#0000
(1718132499.409302) can0 080#CE04
(1718132499.418638) can0 425#0000
(1718132499.418778) can0 080#CD04
(1718132499.429153) can0 425#0000
(1718132499.429302) can0 080#CD04
(1718132499.438630) can0 425#0000
(1718132499.438777) can0 080#CD04
(1718132499.449134) can0 425#0000
(1718132499.449274) can0 080#CD04
(1718132499.458627) can0 425#0000
(1718132499.458776) can0 080#CC04
(1718132499.469160) can0 425#0000
(1718132499.469326) can0 080#CC04
(1718132499.478633) can0 425#0000
(1718132499.478751) can0 080#CC04
(1718132499.489150) can0 425#0000
(1718132499.489327) can0 080#CC04
(1718132499.496702) can0 100#00000060
(1718132499.498630) can0 425#0000
(1718132499.498751) can0 080#CD04
(1718132499.509156) can0 425#0000
(1718132499.509273) can0 080#CD04
(1718132499.518631) can0 425#0000
(1718132499.518775) can0 080#CD04
(1718132499.529151) can0 425#0000
(1718132499.529276) can0 080#CD04
(1718132499.538628) can0 425#0000
(1718132499.538775) can0 080#CD04
(1718132499.549152) can0 425#0000
(1718132499.549275) can0 080#CD04
(1718132499.558636) can0 425#0000
(1718132499.558771) can0 080#CC04
(1718132499.569151) can0 425#0000
(1718132499.569300) can0 080#CC04
(1718132499.578636) can0 425#0000
(1718132499.578777) can0 080#CA04
(1718132499.589150) can0 425#0000
(1718132499.589274) can0 080#CA04
(1718132499.598569) can0 100#00000060
(1718132499.598666) can0 425#0000
(1718132499.598816) can0 080#C004
(1718132499.609126) can0 425#0000
(1718132499.609274) can0 080#C004
(1718132499.618631) can0 425#0000
(1718132499.618775) can0 080#B004
(1718132499.629130) can0 425#0000
(1718132499.629299) can0 080#B004
(1718132499.638625) can0 425#0000
(1718132499.638774) can0 080#A004
(1718132499.649151) can0 425#0000
(1718132499.649299) can0 080#A004
(1718132499.658625) can0 425#0000
(1718132499.658773) can0 080#9004
(1718132499.669173) can0 425#0000
(1718132499.669298) can0 080#9004
(1718132499.678624) can0 425#0000
(1718132499.678781) can0 080#8004
(1718132499.689149) can0 425#0000
(1718132499.689269) can0 080#8004
(1718132499.698624) can0 425#0000
(1718132499.698748) can0 080#7804
(1718132499.700190) can0 100#00000060
(1718132499.709149) can0 425#0000
(1718132499.709316) can0 080#7804
(1718132499.718625) can0 425#0000
(1718132499.718749) can0 080#7204
(1718132499.729157) can0 425#0000
(1718132499.729272) can0 080#7204
(1718132499.738628) can0 425#0000
(1718132499.738772) can0 080#7004
(1718132499.749148) can0 425#0000
(1718132499.749272) can0 080#7004
(1718132499.758629) can0 425#0000
(1718132499.758747) can0 080#7004
(1718132499.769147) can0 425#0000
(1718132499.769322) can0 080#7004
(1718132499.778628) can0 425#0000
(1718132499.778772) can0 080#7004
(1718132499.789151) can0 425#0000
(1718132499.789297) can0 080#7004
(1718132499.798623) can0 425#0000
(1718132499.798771) can0 080#7004
(1718132499.802232) can0 100#00000060
(1718132499.809154) can0 425#0000
(1718132499.809296) can0 080#7004
(1718132499.818629) can0 425#0000
(1718132499.818771) can0 080#7004
(1718132499.829151) can0 425#0000
(1718132499.829272) can0 080#7004
(1718132499.838628) can0 425#0000
(1718132499.838746) can0 080#7004
(1718132499.849127) can0 425#0000
(1718132499.849297) can0 080#7004
(1718132499.858629) can0 425#0000
(1718132499.858746) can0 080#7004
(1718132499.869121) can0 425#0000
(1718132499.869332) can0 080#7004
(1718132499.878622) can0 425#0000
(1718132499.878770) can0 080#7104
(1718132499.889146) can0 425#0000
(1718132499.889270) can0 080#7104
(1718132499.898623) can0 425#0000
(1718132499.898745) can0 080#7104
(1718132499.904054) can0 100#00000060
(1718132499.909147) can0 425#0000
(1718132499.909294) can0 080#7104
(1718132499.918623) can0 425#0000
(1718132499.918741) can0 080#7004
(1718132499.929151) can0 425#0000
(1718132499.929271) can0 080#7004
(1718132499.938623) can0 425#0000
(1718132499.938769) can0 080#7104
(1718132499.949146) can0 425#0000
(1718132499.949320) can0 080#7104
(1718132499.958622) can0 425#0000
(1718132499.958744) can0 080#7104
(1718132499.969128) can0 425#0000
(1718132499.969294) can0 080#7104
(1718132499.978625) can0 425#0000
(1718132499.978769) can0 080#7104
(1718132499.989125) can0 425#0000
(1718132499.989294) can0 080#7104
(1718132499.998626) can0 425#0000
(1718132499.998743) can0 080#6904
(1718132500.005979) can0 100#00000060
(1718132500.009148) can0 425#0000
(1718132500.009296) can0 080#6904
(1718132500.018622) can0 425#0000
(1718132500.018768) can0 080#5B04
(1718132500.029148) can0 425#0000
(1718132500.029297) can0 080#5B04
(1718132500.038629) can0 425#0000
(1718132500.038767) can0 080#5104
(1718132500.049123) can0 425#0000
(1718132500.049317) can0 080#5104
(1718132500.058623) can0 425#0000
(1718132500.058768) can0 080#4C04
(1718132500.069142) can0 425#0000
(1718132500.069293) can0 080#4C04
(1718132500.078628) can0 425#0000
(1718132500.078744) can0 080#4404
(1718132500.089128) can0 425#0000
(1718132500.089266) can0 080#4404
(1718132500.098617) can0 425#0000
(1718132500.098743) can0 080#3E04
(1718132500.108003) can0 100#00000060
(1718132500.109141) can0 425#0000
(1718132500.109290) can0 080#3E04
(1718132500.118619) can0 425#0000
(1718132500.118742) can0 080#3E04
(1718132500.129153) can0 425#0000
(1718132500.129292) can0 080#3E04
(1718132500.138619) can0 425#0000
(1718132500.138767) can0 080#3C04
(1718132500.149119) can0 425#0000
(1718132500.149292) can0 080#3C04
(1718132500.158624) can0 425#0000
(1718132500.158738) can0 080#3D04
(1718132500.169137) can0 425#0000
(1718132500.169288) can0 080#3D04
(1718132500.178624) can0 425#0000
(1718132500.178741) can0 080#3D04
(1718132500.189118) can0 425#0000
(1718132500.189267) can0 080#3D04
(1718132500.198623) can0 425#0000
(1718132500.198740) can0 080#3D04
(1718132500.209119) can0 425#0000
(1718132500.209291) can0 080#3D04
(1718132500.209831) can0 100#00000060
(1718132500.218624) can0 425#0000
(1718132500.218740) can0 080#3E04
(1718132500.229130) can0 425#0000
(1718132500.229265) can0 080#3E04
(1718132500.238627) can0 425#0000
(1718132500.238740) can0 080#3F04
(1718132500.249119) can0 425#0000
(1718132500.249264) can0 080#3F04
(1718132500.258622) can0 425#0000
(1718132500.258739) can0 080#3D04
(1718132500.269145) can0 425#0000
(1718132500.269289) can0 080#3D04
(1718132500.278616) can0 425#0000
(1718132500.278739) can0 080#3D04
(1718132500.289119) can0 425#0000
(1718132500.289264) can0 080#3D04
(1718132500.298613) can0 425#0000
(1718132500.298739) can0 080#3504
(1718132500.309125) can0 425#0000
(1718132500.309289) can0 080#3504
(1718132500.311560) can0 100#00000060
(1718132500.318592) can0 425#0000
(1718132500.318739) can0 080#2A04
(1718132500.329127) can0 425#0000
(1718132500.329289) can0 080#2A04
(1718132500.338616) can0 425#0000
(1718132500.338738) can0 080#1C04
(1718132500.349120) can0 425#0000
(1718132500.349264) can0 080#1C04
(1718132500.358619) can0 425#0000
(1718132500.358743) can0 080#0B04
(1718132500.369119) can0 425#0000
(1718132500.369263) can0 080#0B04
(1718132500.378620) can0 425#0000
(1718132500.378738) can0 080#FB03
(1718132500.389124) can0 425#0000
(1718132500.389288) can0 080#FB03
(1718132500.398614) can0 425#0000
(1718132500.398738) can0 080#F603
(1718132500.409113) can0 425#0000
(1718132500.409263) can0 080#F603
(1718132500.413488) can0 100#00000060
(1718132500.418613) can0 425#0000
(1718132500.418738) can0 080#F203
(1718132500.429113) can0 425#0000
(1718132500.429288) can0 080#F203
(1718132500.438615) can0 425#0000
(1718132500.438741) can0 080#EF03
(1718132500.449125) can0 425#0000
(1718132500.449262) can0 080#EF03
(1718132500.458614) can0 425#0000
(1718132500.458737) can0 080#EF03
(1718132500.469113) can0 425#0000
(1718132500.469287) can0 080#EF03
(1718132500.478613) can0 425#0000
(1718132500.478736) can0 080#EA03
(1718132500.489138) can0 425#0000
(1718132500.489261) can0 080#EA03
(1718132500.498612) can0 425#0000
(1718132500.498736) can0 080#E303
(1718132500.509119) can0 425#0000
(1718132500.509285) can0 080#E303
(1718132500.515194) can0 100#00000060
(1718132500.518594) can0 425#0000
(1718132500.518736) can0 080#E303
(1718132500.529111) can0 425#0000
(1718132500.529286) can0 080#E303
(1718132500.538616) can0 425#0000
(1718132500.538735) can0 080#E403
(1718132500.549107) can0 425#0000
(1718132500.549260) can0 080#E403
(1718132500.558612) can0 425#0000
(1718132500.558735) can0 080#E203
(1718132500.569115) can0 425#0000
(1718132500.569261) can0 080#E203
(1718132500.578616) can0 425#0000
(1718132500.578735) can0 080#E103
(1718132500.589136) can0 425#0000
(1718132500.589285) can0 080#E103
(1718132500.598616) can0 425#0000
(1718132500.598735) can0 080#E203
(1718132500.609111) can0 425#0000
(1718132500.609259) can0 080#E203
(1718132500.617242) can0 100#00000060
(1718132500.618617) can0 425#0000
(1718132500.618735) can0 080#E203
(1718132500.629119) can0 425#0000
(1718132500.629280) can0 080#E203
(1718132500.638610) can0 425#0000
(1718132500.638734) can0 080#E103
(1718132500.649117) can0 425#0000
(1718132500.649260) can0 080#E103
(1718132500.658616) can0 425#0000
(1718132500.658734) can0 080#D503
(1718132500.669118) can0 425#0000
(1718132500.669284) can0 080#D503
(1718132500.678616) can0 425#0000
(1718132500.678733) can0 080#CF03
(1718132500.689115) can0 425#0000
(1718132500.689284) can0 080#CF03
(1718132500.698614) can0 425#0000
(1718132500.698733) can0 080#CE03
(1718132500.709108) can0 425#0000
(1718132500.709283) can0 080#CE03
(1718132500.718609) can0 425#0000
(1718132500.718734) can0 080#C603
(1718132500.719373) can0 100#00000060
(1718132500.729119) can0 425#0000
(1718132500.729258) can0 080#C603
(1718132500.738610) can0 425#0000
(1718132500.738732) can0 080#BC03
(1718132500.749109) can0 425#0000
(1718132500.749261) can0 080#BC03
(1718132500.758609) can0 425#0000
(1718132500.758732) can0 080#AD03
(1718132500.769110) can0 425#0000
(1718132500.769282) can0 080#AD03
(1718132500.778613) can0 425#0000
(1718132500.778732) can0 080#A603
(1718132500.789116) can0 425#0000
(1718132500.789282) can0 080#A603
(1718132500.798612) can0 425#0000
(1718132500.798732) can0 080#A503
(1718132500.809127) can0 425#0000
(1718132500.809262) can0 080#A503
(1718132500.818612) can0 425#0000
(1718132500.818733) can0 080#A603
(1718132500.820957) can0 100#00000060
(1718132500.829116) can0 425#0000
(1718132500.829258) can0 080#A603
(1718132500.838609) can0 425#0000
(1718132500.838731) can0 080#A603
(1718132500.849110) can0 425#0000
(1718132500.849256) can0 080#A603
(1718132500.858612) can0 425#0000
(1718132500.858731) can0 080#A303
(1718132500.869115) can0 425#0000
(1718132500.869286) can0 080#A303
(1718132500.878609) can0 425#0000
(1718132500.878730) can0 080#A103
(1718132500.889106) can0 425#0000
(1718132500.889281) can0 080#A103
(1718132500.898607) can0 425#0000
(1718132500.898730) can0 080#9D03
(1718132500.909109) can0 425#0000
(1718132500.909252) can0 080#9D03
(1718132500.918634) can0 425#0000
(1718132500.918731) can0 080#9C03
(1718132500.922680) can0 100#00000060
(1718132500.929136) can0 425#0000
(1718132500.929280) can0 080#9C03
(1718132500.938612) can0 425#0000
(1718132500.938730) can0 080#9B03
(1718132500.949113) can0 425#0000
(1718132500.949255) can0 080#9B03
(1718132500.958622) can0 425#0000
(1718132500.958731) can0 080#9B03
(1718132500.969118) can0 425#0000
(1718132500.969254) can0 080#9B03
(1718132500.978611) can0 425#0000
(1718132500.978729) can0 080#9A03
(1718132500.989111) can0 425#0000
(1718132500.989278) can0 080#9A03
(1718132500.998610) can0 425#0000
(1718132500.998728) can0 080#9B03
(1718132501.009114) can0 425#0000
(1718132501.009254) can0 080#9B03
(1718132501.018610) can0 425#0000
(1718132501.018728) can0 080#9B03
(1718132501.024580) can0 100#00000060
(1718132501.029111) can0 425#0000
(1718132501.029253) can0 080#9B03
(1718132501.038611) can0 425#0000
(1718132501.038728) can0 080#9A03
(1718132501.049104) can0 425#0000
(1718132501.049253) can0 080#9A03
(1718132501.058606) can0 425#0000
(1718132501.058728) can0 080#9903
(1718132501.069110) can0 425#0000
(1718132501.069278) can0 080#9903
(1718132501.078603) can0 425#0000
(1718132501.078728) can0 080#9803
(1718132501.089126) can0 425#0000
(1718132501.089277) can0 080#9803
(1718132501.098604) can0 425#0000
(1718132501.098727) can0 080#9A03
(1718132501.109103) can0 425#0000
(1718132501.109280) can0 080#9A03
(1718132501.118604) can0 425#0000
(1718132501.118732) can0 080#9A03
(1718132501.126827) can0 100#00000060
(1718132501.129104) can0 425#0000
(1718132501.129277) can0 080#9A03
(1718132501.138603) can0 425#0000
(1718132501.138727) can0 080#9003
(1718132501.149102) can0 425#0000
(1718132501.149252) can0 080#9003
(1718132501.158583) can0 425#0000
(1718132501.158727) can0 080#7E03
(1718132501.169112) can0 425#0000
(1718132501.169276) can0 080#7E03
(1718132501.178603) can0 425#0000
(1718132501.178726) can0 080#6A03
(1718132501.189102) can0 425#0000
(1718132501.189251) can0 080#6A03
(1718132501.198602) can0 425#0000
(1718132501.198726) can0 080#5703
(1718132501.209101) can0 425#0000
(1718132501.209276) can0 080#5703
(1718132501.218602) can0 425#0000
(1718132501.218722) can0 080#4D03
(1718132501.228650) can0 100#00000060
(1718132501.228850) can0 425#0000
(1718132501.229000) can0 080#4D03
(1718132501.238607) can0 425#0000
(1718132501.238725) can0 080#4703
(1718132501.249121) can0 425#0000
(1718132501.249250) can0 080#4703
(1718132501.258606) can0 425#0000
(1718132501.258725) can0 080#4703
(1718132501.269136) can0 425#0000
(1718132501.269275) can0 080#4703
(1718132501.278606) can0 425#0000
(1718132501.278725) can0 080#4703
(1718132501.289106) can0 425#0000
(1718132501.289276) can0 080#4703
(1718132501.298605) can0 425#0000
(1718132501.298724) can0 080#4803
(1718132501.309101) can0 425#0000
(1718132501.309249) can0 080#4803
(1718132501.318580) can0 425#0000
(1718132501.318726) can0 080#4603
(1718132501.329108) can0 425#0000
(1718132501.329275) can0 080#4603
(1718132501.330401) can0 100#00000060
(1718132501.338601) can0 425#0000
(1718132501.338720) can0 080#4603
(1718132501.349105) can0 425#0000
(1718132501.349274) can0 080#4603
(1718132501.358600) can0 425#0000
(1718132501.358724) can0 080#4703
(1718132501.369099) can0 425#0000
(1718132501.369274) can0 080#4703
(1718132501.378601) can0 425#0000
(1718132501.378723) can0 080#4703
(1718132501.389102) can0 425#0000
(1718132501.389248) can0 080#4703
(1718132501.398574) can0 425#0000
(1718132501.398724) can0 080#4703
(1718132501.409111) can0 425#0000
(1718132501.409273) can0 080#4703
(1718132501.418606) can0 425#0000
(1718132501.418725) can0 080#4003
(1718132501.429100) can0 425#0000
(1718132501.429272) can0 080#4003
(1718132501.432064) can0 100#00000060
(1718132501.438608) can0 425#0000
(1718132501.438722) can0 080#3403
(1718132501.449104) can0 425#0000
(1718132501.449247) can0 080#3403
(1718132501.458603) can0 425#0000
(1718132501.458719) can0 080#2F03
(1718132501.469100) can0 425#0000
(1718132501.469247) can0 080#2F03
(1718132501.478597) can0 425#0000
(1718132501.478722) can0 080#2A03
(1718132501.489111) can0 425#0000
(1718132501.489273) can0 080#2A03
(1718132501.498597) can0 425#0000
(1718132501.498722) can0 080#2103
(1718132501.509098) can0 425#0000
(1718132501.509271) can0 080#2103
(1718132501.518602) can0 425#0000
(1718132501.518721) can0 080#1803
(1718132501.529107) can0 425#0000
(1718132501.529246) can0 080#1803
(1718132501.533795) can0 100#00000060
(1718132501.538607) can0 425#0000
(1718132501.538722) can0 080#1203
(1718132501.549097) can0 425#0000
(1718132501.549245) can0 080#1203
(1718132501.558573) can0 425#0000
(1718132501.558721) can0 080#1003
(1718132501.569099) can0 425#0000
(1718132501.569245) can0 080#1003
(1718132501.578605) can0 425#0000
(1718132501.578723) can0 080#0F03
(1718132501.589125) can0 425#0000
(1718132501.589270) can0 080#0F03
(1718132501.598572) can0 425#0000
(1718132501.598720) can0 080#0C03
(1718132501.609120) can0 425#0000
(1718132501.609244) can0 080#0C03
(1718132501.618599) can0 425#0000
(1718132501.618719) can0 080#0503
(1718132501.629110) can0 425#0000
(1718132501.629244) can0 080#0503
(1718132501.635828) can0 100#00000060
(1718132501.638574) can0 425#0000
(1718132501.638720) can0 080#0403
(1718132501.649098) can0 425#0000
(1718132501.649244) can0 080#0403
(1718132501.658600) can0 425#0000
(1718132501.658719) can0 080#0303
(1718132501.669098) can0 425#0000
(1718132501.669244) can0 080#0303
(1718132501.678596) can0 425#0000
(1718132501.678719) can0 080#0503
(1718132501.689111) can0 425#0000
(1718132501.689244) can0 080#0503
(1718132501.698595) can0 425#0000
(1718132501.698718) can0 080#0403
(1718132501.709094) can0 425#0000
(1718132501.709244) can0 080#0403
(1718132501.718569) can0 425#0000
(1718132501.718719) can0 080#0403
(1718132501.729110) can0 425#0000
(1718132501.729268) can0 080#0403
(1718132501.737592) can0 100#00000060
(1718132501.738596) can0 425#0000
(1718132501.738718) can0 080#0503
(1718132501.749109) can0 425#0000
(1718132501.749243) can0 080#0503
(1718132501.758568) can0 425#0000
(1718132501.758717) can0 080#0403
(1718132501.769098) can0 425#0000
(1718132501.769242) can0 080#0403
(1718132501.778573) can0 425#0000
(1718132501.778718) can0 080#0403
(1718132501.789129) can0 425#0000
(1718132501.789243) can0 080#0403
(1718132501.798569) can0 425#0000
(1718132501.798717) can0 080#0403
(1718132501.809117) can0 425#0000
(1718132501.809266) can0 080#0403
(1718132501.818593) can0 425#0000
(1718132501.818716) can0 080#0503
(1718132501.829098) can0 425#0000
(1718132501.829242) can0 080#0503
(1718132501.838574) can0 425#0000
(1718132501.838716) can0 080#0403
(1718132501.839285) can0 100#00000060
(1718132501.849105) can0 425#0000
(1718132501.849242) can0 080#0403
(1718132501.858572) can0 425#0000
(1718132501.858716) can0 080#0603
(1718132501.869109) can0 425#0000
(1718132501.869241) can0 080#0603
(1718132501.878574) can0 425#0000
(1718132501.878716) can0 080#0003
(1718132501.889108) can0 425#0000
(1718132501.889241) can0 080#0003
(1718132501.898572) can0 425#0000
(1718132501.898716) can0 080#F002
(1718132501.909113) can0 425#0000
(1718132501.909266) can0 080#F002
(1718132501.918575) can0 425#0000
(1718132501.918716) can0 080#DE02
(1718132501.929124) can0 425#0000
(1718132501.929266) can0 080#DE02
(1718132501.938614) can0 425#0000
(1718132501.938715) can0 080#D002
(1718132501.941134) can0 100#00000060
(1718132501.949122) can0 425#0000
(1718132501.949240) can0 080#D002
(1718132501.958571) can0 425#0000
(1718132501.958715) can0 080#C502
(1718132501.969102) can0 425#0000
(1718132501.969240) can0 080#C502
(1718132501.978590) can0 425#0000
(1718132501.978719) can0 080#BD02
(1718132501.989094) can0 425#0000
(1718132501.989239) can0 080#BD02
(1718132501.998565) can0 425#0000
(1718132501.998714) can0 080#B902
(1718132502.009101) can0 425#0000
(1718132502.009265) can0 080#B902
(1718132502.018592) can0 425#0000
(1718132502.018714) can0 080#B502
(1718132502.029104) can0 425#0000
(1718132502.029239) can0 080#B502
(1718132502.038566) can0 425#0000
(1718132502.038710) can0 080#B502
(1718132502.042863) can0 100#00000060
(1718132502.049106) can0 425#0000
(1718132502.049239) can0 080#B502
(1718132502.058591) can0 425#0000
(1718132502.058713) can0 080#B502
(1718132502.069104) can0 425#0000
(1718132502.069238) can0 080#B502
(1718132502.078592) can0 425#0000
(1718132502.078715) can0 080#B302
(1718132502.089098) can0 425#0000
(1718132502.089237) can0 080#B302
(1718132502.098569) can0 425#0000
(1718132502.098714) can0 080#B402
(1718132502.109102) can0 425#0000
(1718132502.109262) can0 080#B402
(1718132502.118569) can0 425#0000
(1718132502.118712) can0 080#B302
(1718132502.129092) can0 425#0000
(1718132502.129265) can0 080#B302
(1718132502.138563) can0 425#0000
(1718132502.138711) can0 080#B402
(1718132502.144585) can0 100#00000060
(1718132502.149095) can0 425#0000
(1718132502.149237) can0 080#B402
(1718132502.158572) can0 425#0000
(1718132502.158712) can0 080#B202
(1718132502.169110) can0 425#0000
(1718132502.169237) can0 080#B202
(1718132502.178568) can0 425#0000
(1718132502.178712) can0 080#B102
(1718132502.189093) can0 425#0000
(1718132502.189263) can0 080#B102
(1718132502.198558) can0 425#0000
(1718132502.198711) can0 080#B002
(1718132502.209120) can0 425#0000
(1718132502.209236) can0 080#B002
(1718132502.218588) can0 425#0000
(1718132502.218711) can0 080#B002
(1718132502.229089) can0 425#0000
(1718132502.229235) can0 080#B002
(1718132502.238570) can0 425#0000
(1718132502.238711) can0 080#B002
(1718132502.246530) can0 100#00000060
(1718132502.249086) can0 425#0000
(1718132502.249235) can0 080#B002
(1718132502.258597) can0 425#0000
(1718132502.258711) can0 080#AE02
(1718132502.269091) can0 425#0000
(1718132502.269236) can0 080#AE02
(1718132502.278561) can0 425#0000
(1718132502.278685) can0 080#A502
(1718132502.289095) can0 425#0000
(1718132502.289257) can0 080#A502
(1718132502.298591) can0 425#0000
(1718132502.298709) can0 080#9302
(1718132502.309090) can0 425#0000
(1718132502.309260) can0 080#9302
(1718132502.318565) can0 425#0000
(1718132502.318709) can0 080#8F02
(1718132502.329114) can0 425#0000
(1718132502.329261) can0 080#8F02
(1718132502.338589) can0 425#0000
(1718132502.338709) can0 080#8B02
(1718132502.348186) can0 100#00000060
(1718132502.349105) can0 425#0000
(1718132502.349234) can0 080#8B02
(1718132502.358560) can0 425#0000
(1718132502.358712) can0 080#8302
(1718132502.369112) can0 425#0000
(1718132502.369233) can0 080#8302
(1718132502.378593) can0 425#0000
(1718132502.378708) can0 080#7D02
(1718132502.389120) can0 425#0000
(1718132502.389258) can0 080#7D02
(1718132502.398572) can0 425#0000
(1718132502.398708) can0 080#7A02
(1718132502.409100) can0 425#0000
(1718132502.409258) can0 080#7A02
(1718132502.418569) can0 425#0000
(1718132502.418708) can0 080#7902
(1718132502.429090) can0 425#0000
(1718132502.429258) can0 080#7902
(1718132502.438566) can0 425#0000
(1718132502.438708) can0 080#7502
(1718132502.449093) can0 425#0000
(1718132502.449207) can0 080#7502
(1718132502.449852) can0 100#00000060
(1718132502.458566) can0 425#0000
(1718132502.458707) can0 080#7002
(1718132502.469089) can0 425#0000
(1718132502.469232) can0 080#7002
(1718132502.478569) can0 425#0000
(1718132502.478707) can0 080#6C02
(1718132502.489091) can0 425#0000
(1718132502.489257) can0 080#6C02
(1718132502.498564) can0 425#0000
(1718132502.498706) can0 080#6B02
(1718132502.509094) can0 425#0000
(1718132502.509257) can0 080#6B02
(1718132502.518565) can0 425#0000
(1718132502.518707) can0 080#6C02
(1718132502.529082) can0 425#0000
(1718132502.529256) can0 080#6C02
(1718132502.538560) can0 425#0000
(1718132502.538706) can0 080#6B02
(1718132502.549101) can0 425#0000
(1718132502.549265) can0 080#6B02
(1718132502.558567) can0 425#0000
(1718132502.558706) can0 080#6B02
(1718132502.569086) can0 425#0000
(1718132502.569256) can0 080#6B02
(1718132502.578560) can0 425#0000
(1718132502.578706) can0 080#6902
(1718132502.589085) can0 425#0000
(1718132502.589261) can0 080#6902
(1718132502.598560) can0 425#0000
(1718132502.598706) can0 080#6A02
(1718132502.609085) can0 425#0000
(1718132502.609205) can0 080#6A02
(1718132502.618565) can0 425#0000
(1718132502.618705) can0 080#6A02
(1718132502.629085) can0 425#0000
(1718132502.629205) can0 080#6A02
(1718132502.638562) can0 425#0000
(1718132502.638703) can0 080#6B02
(1718132502.649095) can0 425#0000
(1718132502.649255) can0 080#6B02
(1718132502.658557) can0 425#0000
(1718132502.658705) can0 080#6102
(1718132502.669093) can0 425#0000
(1718132502.669254) can0 080#6102
(1718132502.678557) can0 425#0000
(1718132502.678704) can0 080#5102
(1718132502.689083) can0 425#0000
(1718132502.689205) can0 080#5102
(1718132502.698565) can0 425#0000
(1718132502.698703) can0 080#4302
(1718132502.709097) can0 425#0000
(1718132502.709229) can0 080#4302
(1718132502.718556) can0 425#0000
(1718132502.718704) can0 080#3902
(1718132502.729100) can0 425#0000
(1718132502.729203) can0 080#3902
(1718132502.738560) can0 425#0000
(1718132502.738705) can0 080#3502
(1718132502.749057) can0 425#0000
(1718132502.749228) can0 080#3502
(1718132502.758561) can0 425#0000
(1718132502.758700) can0 080#3102
(1718132502.769057) can0 425#0000
(1718132502.769200) can0 080#3102
(1718132502.778554) can0 425#0000
(1718132502.778703) can0 080#2F02
(1718132502.789096) can0 425#0000
(1718132502.789262) can0 080#2F02
(1718132502.798554) can0 425#0000
(1718132502.798702) can0 080#2D02
(1718132502.809066) can0 425#0000
(1718132502.809252) can0 080#2D02
(1718132502.818554) can0 425#0000
(1718132502.818702) can0 080#2D02
(1718132502.829081) can0 425#0000
(1718132502.829252) can0 080#2D02
(1718132502.838555) can0 425#0000
(1718132502.838680) can0 080#2A02
(1718132502.849094) can0 425#0000
(1718132502.849253) can0 080#2A02
(1718132502.858557) can0 425#0000
(1718132502.858701) can0 080#2B02
(1718132502.869085) can0 425#0000
(1718132502.869227) can0 080#2B02
(1718132502.878561) can0 425#0000
(1718132502.878677) can0 080#2B02
(1718132502.889083) can0 425#0000
(1718132502.889251) can0 080#2B02
(1718132502.898554) can0 425#0000
(1718132502.898676) can0 080#2B02
(1718132502.909051) can0 425#0000
(1718132502.909226) can0 080#2B02
(1718132502.918552) can0 425#0000
(1718132502.918702) can0 080#2902
(1718132502.929051) can0 425#0000
(1718132502.929200) can0 080#2902
(1718132502.938552) can0 425#0000
(1718132502.938700) can0 080#2A02
(1718132502.949077) can0 425#0000
(1718132502.949250) can0 080#2A02
(1718132502.958556) can0 425#0000
(1718132502.958675) can0 080#2A02
(1718132502.969058) can0 425#0000
(1718132502.969250) can0 080#2A02
(1718132502.978551) can0 425#0000
(1718132502.978699) can0 080#2B02
(1718132502.989052) can0 425#0000
(1718132502.989200) can0 080#2B02
(1718132502.998557) can0 425#0000
(1718132502.998675) can0 080#2B02
(1718132503.009104) can0 425#0000
(1718132503.009250) can0 080#2B02
(1718132503.018556) can0 425#0000
(1718132503.018699) can0 080#2B02
(1718132503.029055) can0 425#0000
(1718132503.029224) can0 080#2B02
(1718132503.038561) can0 425#0000
(1718132503.038676) can0 080#2C02
(1718132503.049080) can0 425#0000
(1718132503.049249) can0 080#2C02
(1718132503.058552) can0 425#0000
(1718132503.058675) can0 080#2602
(1718132503.069078) can0 425#0000
(1718132503.069248) can0 080#2602
(1718132503.078558) can0 425#0000
(1718132503.078674) can0 080#1902
(1718132503.089079) can0 425#0000
(1718132503.089248) can0 080#1902
(1718132503.098550) can0 425#0000
(1718132503.098698) can0 080#0302
(1718132503.109074) can0 425#0000
(1718132503.109197) can0 080#0302
(1718132503.118550) can0 425#0000
(1718132503.118669) can0 080#F301
(1718132503.129077) can0 425#0000
(1718132503.129222) can0 080#F301
(1718132503.138556) can0 425#0000
(1718132503.138697) can0 080#ED01
(1718132503.149077) can0 425#0000
(1718132503.149197) can0 080#ED01
(1718132503.158553) can0 425#0000
(1718132503.158697) can0 080#E201
(1718132503.169086) can0 425#0000
(1718132503.169224) can0 080#E201
(1718132503.178549) can0 425#0000
(1718132503.178673) can0 080#D801
(1718132503.189052) can0 425#0000
(1718132503.189248) can0 080#D801
(1718132503.198553) can0 425#0000
(1718132503.198671) can0 080#D101
(1718132503.209084) can0 425#0000
(1718132503.209221) can0 080#D101
(1718132503.218549) can0 425#0000
(1718132503.218696) can0 080#C701
(1718132503.229058) can0 425#0000
(1718132503.229221) can0 080#C701
(1718132503.238550) can0 425#0000
(1718132503.238696) can0 080#C401
(1718132503.249081) can0 425#0000
(1718132503.249220) can0 080#C401
(1718132503.258550) can0 425#0000
(1718132503.258671) can0 080#C301
(1718132503.269073) can0 425#0000
(1718132503.269195) can0 080#C301
(1718132503.278547) can0 425#0000
(1718132503.278695) can0 080#C101
(1718132503.289050) can0 425#0000
(1718132503.289195) can0 080#C101
(1718132503.298547) can0 425#0000
(1718132503.298695) can0 080#BF01
(1718132503.309076) can0 425#0000
(1718132503.309221) can0 080#BF01
(1718132503.318551) can0 425#0000
(1718132503.318695) can0 080#BF01
(1718132503.329049) can0 425#0000
(1718132503.329245) can0 080#BF01
(1718132503.338552) can0 425#0000
(1718132503.338695) can0 080#BE01
(1718132503.349077) can0 425#0000
(1718132503.349222) can0 080#BE01
(1718132503.358550) can0 425#0000
(1718132503.358694) can0 080#BF01
(1718132503.369084) can0 425#0000
(1718132503.369221) can0 080#BF01
(1718132503.378551) can0 425#0000
(1718132503.378669) can0 080#BE01
(1718132503.389046) can0 425#0000
(1718132503.389218) can0 080#BE01
(1718132503.398553) can0 425#0000
(1718132503.398671) can0 080#BE01
(1718132503.409078) can0 425#0000
(1718132503.409193) can0 080#BE01
(1718132503.418550) can0 425#0000
(1718132503.418695) can0 080#BD01
(1718132503.429048) can0 425#0000
(1718132503.429243) can0 080#BD01
(1718132503.438544) can0 425#0000
(1718132503.438668) can0 080#BF01
(1718132503.449050) can0 425#0000
(1718132503.449246) can0 080#BF01
(1718132503.458545) can0 425#0000
(1718132503.458693) can0 080#BD01
(1718132503.469046) can0 425#0000
(1718132503.469238) can0 080#BD01
(1718132503.478551) can0 425#0000
(1718132503.478692) can0 080#BD01
(1718132503.489048) can0 425#0000
(1718132503.489192) can0 080#BD01
(1718132503.498548) can0 425#0000
(1718132503.498692) can0 080#BD01
(1718132503.509064) can0 425#0000
(1718132503.509243) can0 080#BD01
(1718132503.518549) can0 425#0000
(1718132503.518666) can0 080#BE01
(1718132503.529047) can0 425#0000
(1718132503.529192) can0 080#BE01
(1718132503.538552) can0 425#0000
(1718132503.538691) can0 080#BE01
(1718132503.549093) can0 425#0000
(1718132503.549191) can0 080#BE01
(1718132503.558548) can0 425#0000
(1718132503.558666) can0 080#BE01
(1718132503.569043) can0 425#0000
(1718132503.569241) can0 080#BE01
(1718132503.578545) can0 425#0000
(1718132503.578691) can0 080#BC01
(1718132503.589053) can0 425#0000
(1718132503.589215) can0 080#BC01
(1718132503.598543) can0 425#0000
(1718132503.598667) can0 080#B301
(1718132503.609042) can0 425#0000
(1718132503.609190) can0 080#B301
(1718132503.618540) can0 425#0000
(1718132503.618665) can0 080#9C01
(1718132503.629051) can0 425#0000
(1718132503.629190) can0 080#9C01
(1718132503.638547) can0 425#0000
(1718132503.638665) can0 080#8701
(1718132503.649048) can0 425#0000
(1718132503.649215) can0 080#8701
(1718132503.658542) can0 425#0000
(1718132503.658664) can0 080#7901
(1718132503.669047) can0 425#0000
(1718132503.669214) can0 080#7901
(1718132503.678546) can0 425#0000
(1718132503.678664) can0 080#6901
(1718132503.689053) can0 425#0000
(1718132503.689190) can0 080#6901
(1718132503.698546) can0 425#0000
(1718132503.698664) can0 080#5D01
(1718132503.709053) can0 425#0000
(1718132503.709214) can0 080#5D01
(1718132503.718545) can0 425#0000
(1718132503.718664) can0 080#5301
(1718132503.729070) can0 425#0000
(1718132503.729188) can0 080#5301
(1718132503.738548) can0 425#0000
(1718132503.738664) can0 080#5301
(1718132503.749050) can0 425#0000
(1718132503.749213) can0 080#5301
(1718132503.758543) can0 425#0000
(1718132503.758663) can0 080#5301
(1718132503.769049) can0 425#0000
(1718132503.769188) can0 080#5301
(1718132503.778543) can0 425#0000
(1718132503.778663) can0 080#5301
(1718132503.789053) can0 425#0000
(1718132503.789187) can0 080#5301
(1718132503.798543) can0 425#0000
(1718132503.798663) can0 080#5201
(1718132503.809046) can0 425#0000
(1718132503.809212) can0 080#5201
(1718132503.818543) can0 425#0000
(1718132503.818662) can0 080#5201
(1718132503.829042) can0 425#0000
(1718132503.829187) can0 080#5201
(1718132503.838543) can0 425#0000
(1718132503.838664) can0 080#5401
(1718132503.849044) can0 425#0000
(1718132503.849187) can0 080#5401
(1718132503.858548) can0 425#0000
(1718132503.858661) can0 080#5101
(1718132503.869048) can0 425#0000
(1718132503.869212) can0 080#5101
(1718132503.878547) can0 425#0000
(1718132503.878662) can0 080#4B01
(1718132503.889042) can0 425#0000
(1718132503.889186) can0 080#4B01
(1718132503.898546) can0 425#0000
(1718132503.898661) can0 080#4101
(1718132503.909042) can0 425#0000
(1718132503.909211) can0 080#4101
(1718132503.918543) can0 425#0000
(1718132503.918661) can0 080#3B01
(1718132503.929043) can0 425#0000
(1718132503.929211) can0 080#3B01
(1718132503.938542) can0 425#0000
(1718132503.938660) can0 080#3601
(1718132503.949046) can0 425#0000
(1718132503.949188) can0 080#3601
(1718132503.958544) can0 425#0000
(1718132503.958660) can0 080#3201
(1718132503.969047) can0 425#0000
(1718132503.969210) can0 080#3201
(1718132503.978541) can0 425#0000
(1718132503.978659) can0 080#3201
(1718132503.989037) can0 425#0000
(1718132503.989184) can0 080#3201
(1718132503.998537) can0 425#0000
(1718132503.998659) can0 080#3201
(1718132504.009057) can0 425#0000
(1718132504.009186) can0 080#3201
(1718132504.018540) can0 425#0000
(1718132504.018659) can0 080#3201
(1718132504.029040) can0 425#0000
(1718132504.029210) can0 080#3201
(1718132504.038544) can0 425#0000
(1718132504.038659) can0 080#3301
(1718132504.049045) can0 425#0000
(1718132504.049209) can0 080#3301
(1718132504.058539) can0 425#0000
(1718132504.058659) can0 080#3301
(1718132504.069049) can0 425#0000
(1718132504.069205) can0 080#3301
(1718132504.078546) can0 425#0000
(1718132504.078659) can0 080#3301
(1718132504.089046) can0 425#0000
(1718132504.089208) can0 080#3301
(1718132504.098549) can0 425#0000
(1718132504.098663) can0 080#3201
(1718132504.109046) can0 425#0000
(1718132504.109183) can0 080#3201
(1718132504.118536) can0 425#0000
(1718132504.118654) can0 080#3201
(1718132504.129037) can0 425#0000
(1718132504.129208) can0 080#3201
(1718132504.138536) can0 425#0000
(1718132504.138657) can0 080#3401
(1718132504.149047) can0 425#0000
(1718132504.149208) can0 080#3401
(1718132504.158543) can0 425#0000
(1718132504.158658) can0 080#2F01
(1718132504.169043) can0 425#0000
(1718132504.169207) can0 080#2F01
(1718132504.178536) can0 425#0000
(1718132504.178657) can0 080#2101
(1718132504.189037) can0 425#0000
(1718132504.189213) can0 080#2101
(1718132504.198536) can0 425#0000
(1718132504.198657) can0 080#1101
(1718132504.209061) can0 425#0000
(1718132504.209206) can0 080#1101
(1718132504.218539) can0 425#0000
(1718132504.218657) can0 080#1001
(1718132504.229038) can0 425#0000
(1718132504.229208) can0 080#1001
(1718132504.238538) can0 425#0000
(1718132504.238656) can0 080#0E01
(1718132504.249041) can0 425#0000
(1718132504.249206) can0 080#0E01
(1718132504.258534) can0 425#0000
(1718132504.258681) can0 080#0401
(1718132504.269038) can0 425#0000
(1718132504.269181) can0 080#0401
(1718132504.278539) can0 425#0000
(1718132504.278656) can0 080#FF00
(1718132504.289035) can0 425#0000
(1718132504.289209) can0 080#FF00
(1718132504.298533) can0 425#0000
(1718132504.298655) can0 080#FF00
(1718132504.309043) can0 425#0000
(1718132504.309176) can0 080#FF00
(1718132504.318532) can0 425#0000
(1718132504.318655) can0 080#0001
(1718132504.329035) can0 425#0000
(1718132504.329180) can0 080#0001
(1718132504.338533) can0 425#0000
(1718132504.338655) can0 080#0001
(1718132504.349037) can0 425#0000
(1718132504.349181) can0 080#0001
(1718132504.358538) can0 425#0000
(1718132504.358654) can0 080#0001
(1718132504.369034) can0 425#0000
(1718132504.369180) can0 080#0001
(1718132504.378532) can0 425#0000
(1718132504.378654) can0 080#0001
(1718132504.389041) can0 425#0000
(1718132504.389204) can0 080#0001
(1718132504.398538) can0 425#0000
(1718132504.398656) can0 080#0001
(1718132504.409033) can0 425#0000
(1718132504.409178) can0 080#0001
(1718132504.418534) can0 425#0000
(1718132504.418655) can0 080#0101
(1718132504.429041) can0 425#0000
(1718132504.429174) can0 080#0101
(1718132504.438505) can0 425#0000
(1718132504.438652) can0 080#0101
(1718132504.449043) can0 425#0000
(1718132504.449203) can0 080#0101
(1718132504.458530) can0 425#0000
(1718132504.458653) can0 080#0001
(1718132504.469033) can0 425#0000
(1718132504.469178) can0 080#0001
(1718132504.478531) can0 425#0000
(1718132504.478652) can0 080#0001
(1718132504.489032) can0 425#0000
(1718132504.489178) can0 080#0001
(1718132504.498538) can0 425#0000
(1718132504.498652) can0 080#0001
(1718132504.509052) can0 425#0000
(1718132504.509180) can0 080#0001
(1718132504.518505) can0 425#0000
(1718132504.518651) can0 080#0001
(1718132504.529031) can0 425#0000
(1718132504.529177) can0 080#0001
(1718132504.538531) can0 425#0000
(1718132504.538648) can0 080#0001
(1718132504.549035) can0 425#0000
(1718132504.549173) can0 080#0001
(1718132504.558532) can0 425#0000
(1718132504.558651) can0 080#F700
(1718132504.569034) can0 425#0000
(1718132504.569177) can0 080#F700
(1718132504.578529) can0 425#0000
(1718132504.578651) can0 080#E800
(1718132504.589035) can0 425#0000
(1718132504.589177) can0 080#E800
(1718132504.598528) can0 425#0000
(1718132504.598650) can0 080#DC00
(1718132504.609031) can0 425#0000
(1718132504.609175) can0 080#DC00
(1718132504.618529) can0 425#0000
(1718132504.618651) can0 080#D600
(1718132504.629037) can0 425#0000
(1718132504.629175) can0 080#D600
(1718132504.638502) can0 425#0000
(1718132504.638649) can0 080#D000
(1718132504.649046) can0 425#0000
(1718132504.649176) can0 080#D000
(1718132504.658532) can0 425#0000
(1718132504.658646) can0 080#CB00
(1718132504.669035) can0 425#0000
(1718132504.669200) can0 080#CB00
(1718132504.678527) can0 425#0000
(1718132504.678650) can0 080#CB00
(1718132504.689029) can0 425#0000
(1718132504.689175) can0 080#CB00
(1718132504.698533) can0 425#0000
(1718132504.698649) can0 080#CB00
(1718132504.709030) can0 425#0000
(1718132504.709175) can0 080#CB00
(1718132504.718532) can0 425#0000
(1718132504.718649) can0 080#CC00
(1718132504.729033) can0 425#0000
(1718132504.729199) can0 080#CC00
(1718132504.738531) can0 425#0000
(1718132504.738650) can0 080#CC00
(1718132504.749027) can0 425#0000
(1718132504.749174) can0 080#CC00
(1718132504.758527) can0 425#0000
(1718132504.758649) can0 080#CB00
(1718132504.769032) can0 425#0000
(1718132504.769198) can0 080#CB00
(1718132504.778499) can0 425#0000
(1718132504.778644) can0 080#CC00
(1718132504.789035) can0 425#0000
(1718132504.789198) can0 080#CC00
(1718132504.798524) can0 425#0000
(1718132504.798648) can0 080#CC00
(1718132504.809037) can0 425#0000
(1718132504.809173) can0 080#CC00
(1718132504.818529) can0 425#0000
(1718132504.818647) can0 080#CC00
(1718132504.829037) can0 425#0000
(1718132504.829198) can0 080#CC00
(1718132504.838498) can0 425#0000
(1718132504.838646) can0 080#C300
(1718132504.849040) can0 425#0000
(1718132504.849173) can0 080#C300
(1718132504.858524) can0 425#0000
(1718132504.858647) can0 080#B500
(1718132504.869032) can0 425#0000
(1718132504.869172) can0 080#B500
(1718132504.878508) can0 425#0000
(1718132504.878648) can0 080#A700
(1718132504.889028) can0 425#0000
(1718132504.889172) can0 080#A700
(1718132504.898526) can0 425#0000
(1718132504.898656) can0 080#A000
(1718132504.909025) can0 425#0000
(1718132504.909196) can0 080#A000
(1718132504.918529) can0 425#0000
(1718132504.918647) can0 080#9A00
(1718132504.929024) can0 425#0000
(1718132504.929171) can0 080#9A00
(1718132504.938524) can0 425#0000
(1718132504.938646) can0 080#9300
(1718132504.949034) can0 425#0000
(1718132504.949196) can0 080#9300
(1718132504.958499) can0 425#0000
(1718132504.958644) can0 080#9100
(1718132504.969021) can0 425#0000
(1718132504.969185) can0 080#9100
(1718132504.978546) can0 425#0000
(1718132504.978645) can0 080#9200
(1718132504.989026) can0 425#0000
(1718132504.989195) can0 080#9200
(1718132504.998491) can0 425#0000
(1718132504.998636) can0 080#9200
(1718132505.009031) can0 425#0000
(1718132505.009170) can0 080#9200
(1718132505.018527) can0 425#0000
(1718132505.018645) can0 080#9300
(1718132505.029023) can0 425#0000
(1718132505.029196) can0 080#9300
(1718132505.038499) can0 425#0000
(1718132505.038643) can0 080#9200
(1718132505.049029) can0 425#0000
(1718132505.049194) can0 080#9200
(1718132505.058524) can0 425#0000
(1718132505.058644) can0 080#9200
(1718132505.069030) can0 425#0000
(1718132505.069169) can0 080#9200
(1718132505.078499) can0 425#0000
(1718132505.078645) can0 080#9300
(1718132505.089020) can0 425#0000
(1718132505.089194) can0 080#9300
(1718132505.098520) can0 425#0000
(1718132505.098644) can0 080#9100
(1718132505.109024) can0 425#0000
(1718132505.109193) can0 080#9100
(1718132505.118489) can0 425#0000
(1718132505.118637) can0 080#8600
(1718132505.129033) can0 425#0000
(1718132505.129168) can0 080#8600
(1718132505.138520) can0 425#0000
(1718132505.138643) can0 080#7700
(1718132505.149022) can0 425#0000
(1718132505.149143) can0 080#7700
(1718132505.158496) can0 425#0000
(1718132505.158642) can0 080#6C00
(1718132505.169024) can0 425#0000
(1718132505.169193) can0 080#6C00
(1718132505.178518) can0 425#0000
(1718132505.178642) can0 080#6300
(1718132505.189023) can0 425#0000
(1718132505.189193) can0 080#6300
(1718132505.198495) can0 425#0000
(1718132505.198640) can0 080#5D00
(1718132505.209020) can0 425#0000
(1718132505.209167) can0 080#5D00
(1718132505.218497) can0 425#0000
(1718132505.218642) can0 080#5B00
(1718132505.229030) can0 425#0000
(1718132505.229166) can0 080#5B00
(1718132505.238501) can0 425#0000
(1718132505.238640) can0 080#5700
(1718132505.249028) can0 425#0000
(1718132505.249191) can0 080#5700
(1718132505.258528) can0 425#0000
(1718132505.258641) can0 080#5500
(1718132505.269032) can0 425#0000
(1718132505.269191) can0 080#5500
(1718132505.278500) can0 425#0000
(1718132505.278640) can0 080#5500
(1718132505.289017) can0 425#0000
(1718132505.289166) can0 080#5500
(1718132505.298520) can0 425#0000
(1718132505.298642) can0 080#5300
(1718132505.309023) can0 425#0000
(1718132505.309165) can0 080#5300
(1718132505.318496) can0 425#0000
(1718132505.318639) can0 080#5500
(1718132505.329026) can0 425#0000
(1718132505.329193) can0 080#5500
(1718132505.338521) can0 425#0000
(1718132505.338640) can0 080#5400
(1718132505.349031) can0 425#0000
(1718132505.349142) can0 080#5400
(1718132505.358498) can0 425#0000
(1718132505.358639) can0 080#5500
(1718132505.369029) can0 425#0000
(1718132505.369164) can0 080#5500
(1718132505.378499) can0 425#0000
(1718132505.378639) can0 080#5500
(1718132505.389025) can0 425#0000
(1718132505.389189) can0 080#5500
(1718132505.398493) can0 425#0000
(1718132505.398639) can0 080#5500
(1718132505.409019) can0 425#0000
(1718132505.409139) can0 080#5500
(1718132505.418492) can0 425#0000
(1718132505.418639) can0 080#5700
(1718132505.429029) can0 425#0000
(1718132505.429189) can0 080#5700
(1718132505.438489) can0 425#0000
(1718132505.438637) can0 080#5500
(1718132505.449026) can0 425#0000
(1718132505.449138) can0 080#5500
(1718132505.458494) can0 425#0000
(1718132505.458639) can0 080#4E00
(1718132505.469029) can0 425#0000
(1718132505.469188) can0 080#4E00
(1718132505.478488) can0 425#0000
(1718132505.478629) can0 080#3F00
(1718132505.489026) can0 425#0000
(1718132505.489184) can0 080#3F00
(1718132505.498515) can0 425#0000
(1718132505.498637) can0 080#3000
(1718132505.509028) can0 425#0000
(1718132505.509138) can0 080#3000
(1718132505.518486) can0 425#0000
(1718132505.518637) can0 080#2300
(1718132505.529031) can0 425#0000
(1718132505.529138) can0 080#2300
(1718132505.538482) can0 425#0000
(1718132505.538628) can0 080#1A00
(1718132505.549019) can0 425#0000
(1718132505.549187) can0 080#1A00
(1718132505.558489) can0 425#0000
(1718132505.558642) can0 080#1300
(1718132505.569013) can0 425#0000
(1718132505.569186) can0 080#1300
(1718132505.578488) can0 425#0000
(1718132505.578627) can0 080#1200
(1718132505.589014) can0 425#0000
(1718132505.589186) can0 080#1200
(1718132505.598482) can0 425#0000
(1718132505.598627) can0 080#0E00
(1718132505.609024) can0 425#0000
(1718132505.609160) can0 080#0E00
(1718132505.618487) can0 425#0000
(1718132505.618635) can0 080#0800
(1718132505.629023) can0 425#0000
(1718132505.629160) can0 080#0800
(1718132505.638476) can0 425#0000
(1718132505.638626) can0 080#0500
(1718132505.649018) can0 425#0000
(1718132505.649186) can0 080#0500
(1718132505.658512) can0 425#0000
(1718132505.658635) can0 080#0400
(1718132505.669017) can0 425#0000
(1718132505.669160) can0 080#0400
(1718132505.678488) can0 425#0000
(1718132505.678627) can0 080#0400
(1718132505.689024) can0 425#0000
(1718132505.689160) can0 080#0400
(1718132505.698481) can0 425#0000
(1718132505.698625) can0 080#0300
(1718132505.709013) can0 425#0000
(1718132505.709159) can0 080#0300
(1718132505.718494) can0 425#0000
(1718132505.718634) can0 080#0300
(1718132505.729020) can0 425#0000
(1718132505.729134) can0 080#0300
(1718132505.738488) can0 425#0000
(1718132505.738636) can0 080#0300
(1718132505.749022) can0 425#0000
(1718132505.749159) can0 080#0300
(1718132505.758480) can0 425#0000
(1718132505.758625) can0 080#0500
(1718132505.769009) can0 425#0000
(1718132505.769133) can0 080#0500
(1718132505.778511) can0 425#0000
(1718132505.778637) can0 080#0100
(1718132505.789010) can0 425#0000
(1718132505.789158) can0 080#0100
(1718132505.798484) can0 425#0000
(1718132505.798632) can0 080#0000
(1718132505.809023) can0 425#0000
(1718132505.809183) can0 080#0000
(1718132505.818509) can0 425#0000
(1718132505.818632) can0 080#0000
(1718132505.829021) can0 425#0000
(1718132505.829183) can0 080#0000
(1718132505.838478) can0 425#0000
(1718132505.838624) can0 080#0000
(1718132505.849017) can0 425#0000
(1718132505.849183) can0 080#0000
(1718132505.858483) can0 425#0000
(1718132505.858631) can0 080#0000
(1718132505.869014) can0 425#0000
(1718132505.869182) can0 080#0000
(1718132505.878493) can0 425#0000
(1718132505.878623) can0 080#0000
(1718132505.889016) can0 425#0000
(1718132505.889182) can0 080#0000
(1718132505.898481) can0 425#0000
(1718132505.898623) can0 080#0000
(1718132505.909010) can0 425#0000
(1718132505.909181) can0 080#0000
(1718132505.918484) can0 425#0000
(1718132505.918623) can0 080#0000
(1718132505.929011) can0 425#0000
(1718132505.929182) can0 080#0000
(1718132505.938506) can0 425#0000
(1718132505.938630) can0 080#0000
(1718132505.949010) can0 425#0000
(1718132505.949181) can0 080#0000
(1718132505.958492) can0 425#0000
(1718132505.958629) can0 080#0000
(1718132505.969018) can0 425#0000
(1718132505.969181) can0 080#0000
(1718132505.978475) can0 425#0000
(1718132505.978621) can0 080#0000
(1718132505.989019) can0 425#0000
(1718132505.989180) can0 080#0000
(1718132505.998480) can0 425#0000
(1718132505.998621) can0 080#0000
(1718132506.009026) can0 425#0000
(1718132506.009132) can0 080#0000
(1718132506.018487) can0 425#0000
(1718132506.018629) can0 080#0000
(1718132506.029017) can0 425#0000
(1718132506.029180) can0 080#0000
(1718132506.038477) can0 425#0000
(1718132506.038621) can0 080#0000
(1718132506.049007) can0 425#0000
(1718132506.049179) can0 080#0000
(1718132506.058478) can0 425#0000
(1718132506.058620) can0 080#0000
(1718132506.069015) can0 425#0000
(1718132506.069179) can0 080#0000
(1718132506.078480) can0 425#0000
(1718132506.078620) can0 080#0000
(1718132506.089008) can0 425#0000
(1718132506.089179) can0 080#0000
(1718132506.098478) can0 425#0000
(1718132506.098620) can0 080#0000
(1718132506.109004) can0 425#0000
(1718132506.109178) can0 080#0000
(1718132506.118479) can0 425#0000
(1718132506.118621) can0 080#0000
(1718132506.129004) can0 425#0000
(1718132506.129178) can0 080#0000
(1718132506.138479) can0 425#0000
(1718132506.138619) can0 080#0000
(1718132506.149011) can0 425#0000
(1718132506.149178) can0 080#0000
(1718132506.158478) can0 425#0000
(1718132506.158619) can0 080#0000
(1718132506.169008) can0 425#0000
(1718132506.169186) can0 080#0000
(1718132506.178480) can0 425#0000
(1718132506.178620) can0 080#0000
(1718132506.189010) can0 425#0000
(1718132506.189178) can0 080#0000
(1718132506.198472) can0 425#0000
(1718132506.198614) can0 080#0000
(1718132506.209005) can0 425#0000
(1718132506.209177) can0 080#0000
(1718132506.218474) can0 425#0000
(1718132506.218619) can0 080#0000
(1718132506.229005) can0 425#0000
(1718132506.229177) can0 080#0000
(1718132506.238477) can0 425#0000
(1718132506.238618) can0 080#0000
(1718132506.249014) can0 425#0000
(1718132506.249178) can0 080#0000
(1718132506.258471) can0 425#0000
(1718132506.258618) can0 080#0000
(1718132506.269006) can0 425#0000
(1718132506.269176) can0 080#0000
(1718132506.278470) can0 425#0000
(1718132506.278617) can0 080#0000
(1718132506.289007) can0 425#0000
(1718132506.289179) can0 080#0000
(1718132506.298481) can0 425#0000
(1718132506.298625) can0 080#0000
(1718132506.309020) can0 425#0000
(1718132506.309176) can0 080#0000
(1718132506.318470) can0 425#0000
(1718132506.318618) can0 080#0000
(1718132506.329006) can0 425#0000
(1718132506.329122) can0 080#0000
(1718132506.338476) can0 425#0000
(1718132506.338616) can0 080#0000
(1718132506.349009) can0 425#0000
(1718132506.349176) can0 080#0000
(1718132506.358469) can0 425#0000
(1718132506.358616) can0 080#0000
(1718132506.369012) can0 425#0000
(1718132506.369175) can0 080#0000
(1718132506.378470) can0 425#0000
(1718132506.378616) can0 080#0000
(1718132506.389009) can0 425#0000
(1718132506.389150) can0 080#0000
(1718132506.398473) can0 425#0000
(1718132506.398615) can0 080#0000
(1718132506.409006) can0 425#0000
(1718132506.409178) can0 080#0000
(1718132506.418476) can0 425#0000
(1718132506.418627) can0 080#0000
(1718132506.429016) can0 425#0000
(1718132506.429174) can0 080#0000
(1718132506.438474) can0 425#0000
(1718132506.438624) can0 080#0000
(1718132506.449000) can0 425#0000
(1718132506.449174) can0 080#0000
(1718132506.458482) can0 425#0000
(1718132506.458622) can0 080#0000
(1718132506.468980) can0 425#0000
(1718132506.469173) can0 080#0000
(1718132506.478468) can0 425#0000
(1718132506.478614) can0 080#0000
(1718132506.489011) can0 425#0000
(1718132506.489173) can0 080#0000
(1718132506.498467) can0 425#0000
(1718132506.498617) can0 080#0000
(1718132506.509001) can0 425#0000
(1718132506.509174) can0 080#0000
(1718132506.518468) can0 425#0000
(1718132506.518613) can0 080#0000
(1718132506.529007) can0 425#0000
(1718132506.529174) can0 080#0000
(1718132506.538469) can0 425#0000
(1718132506.538613) can0 080#0000
(1718132506.549005) can0 425#0000
(1718132506.549172) can0 080#0000
(1718132506.558472) can0 425#0000
(1718132506.558615) can0 080#0000
(1718132506.569010) can0 425#0000
(1718132506.569172) can0 080#0000
(1718132506.578485) can0 425#0000
(1718132506.578614) can0 080#0000
(1718132506.589004) can0 425#0000
(1718132506.589171) can0 080#0000
(1718132506.598468) can0 425#0000
(1718132506.598613) can0 080#0000
(1718132506.609002) can0 425#0000
(1718132506.609181) can0 080#0000
(1718132506.609378) can0 100#00000000
(1718132506.618468) can0 425#0000
(1718132506.618612) can0 080#0000
(1718132506.629008) can0 425#0000
(1718132506.629121) can0 080#0000
(1718132506.638468) can0 425#0000
(1718132506.638615) can0 080#0000
(1718132506.648987) can0 425#0000
(1718132506.649121) can0 080#0000
(1718132506.658467) can0 425#0000
(1718132506.658612) can0 080#0000
(1718132506.669002) can0 425#0000
(1718132506.669170) can0 080#0000
(1718132506.678467) can0 425#0000
(1718132506.678611) can0 080#0000
(1718132506.688976) can0 425#0000
(1718132506.689170) can0 080#0000
(1718132506.698471) can0 425#0000
(1718132506.698611) can0 080#0000
(1718132506.708982) can0 425#0000
(1718132506.709145) can0 080#0000
(1718132506.711463) can0 100#00000000
(1718132506.718466) can0 425#0000
(1718132506.718611) can0 080#0000
(1718132506.729002) can0 425#0000
(1718132506.729145) can0 080#0000
(1718132506.738468) can0 425#0000
(1718132506.738610) can0 080#0000
(1718132506.748971) can0 425#0000
(1718132506.749119) can0 080#0000
(1718132506.758464) can0 425#0000
(1718132506.758611) can0 080#0000
(1718132506.768975) can0 425#0000
(1718132506.769169) can0 080#0000
(1718132506.778471) can0 425#0000
(1718132506.778610) can0 080#0000
(1718132506.788980) can0 425#0000
(1718132506.789166) can0 080#0000
(1718132506.798467) can0 425#0000
(1718132506.798609) can0 080#0000
(1718132506.808981) can0 425#0000
(1718132506.809168) can0 080#0000
(1718132506.813089) can0 100#00000000
(1718132506.818470) can0 425#0000
(1718132506.818609) can0 080#0000
(1718132506.828997) can0 425#0000
(1718132506.829143) can0 080#0000
(1718132506.838469) can0 425#0000
(1718132506.838612) can0 080#0000
(1718132506.848980) can0 425#0000
(1718132506.849119) can0 080#0000
(1718132506.858465) can0 425#0000
(1718132506.858608) can0 080#0000
(1718132506.868973) can0 425#0000
(1718132506.869167) can0 080#0000
(1718132506.878464) can0 425#0000
(1718132506.878604) can0 080#0000
(1718132506.888973) can0 425#0000
(1718132506.889142) can0 080#0000
(1718132506.898464) can0 425#0000
(1718132506.898608) can0 080#0000
(1718132506.909003) can0 425#0000
(1718132506.909163) can0 080#0000
(1718132506.914995) can0 100#00000000
(1718132506.918468) can0 425#0000
(1718132506.918587) can0 080#0000
(1718132506.928977) can0 425#0000
(1718132506.929141) can0 080#0000
(1718132506.938463) can0 425#0000
(1718132506.938607) can0 080#0000
(1718132506.948988) can0 425#0000
(1718132506.949116) can0 080#0000
(1718132506.958461) can0 425#0000
(1718132506.958607) can0 080#0000
(1718132506.968995) can0 425#0000
(1718132506.969141) can0 080#0000
(1718132506.978462) can0 425#0000
(1718132506.978607) can0 080#0000
(1718132506.989003) can0 425#0000
(1718132506.989141) can0 080#0000
(1718132506.998461) can0 425#0000
(1718132506.998609) can0 080#0000
(1718132507.008977) can0 425#0000
(1718132507.009167) can0 080#0000
(1718132507.016903) can0 100#00000000
(1718132507.018461) can0 425#0000
(1718132507.018606) can0 080#0000
(1718132507.028972) can0 425#0000
(1718132507.029115) can0 080#0000
(1718132507.038462) can0 425#0000
(1718132507.038606) can0 080#0000
(1718132507.048977) can0 425#0000
(1718132507.049115) can0 080#0000
(1718132507.058459) can0 425#0000
(1718132507.058606) can0 080#0000
(1718132507.068963) can0 425#0000
(1718132507.069180) can0 080#0000
(1718132507.078472) can0 425#0000
(1718132507.078606) can0 080#0000
(1718132507.088975) can0 425#0000
(1718132507.089164) can0 080#0000
(1718132507.098465) can0 425#0000
(1718132507.098605) can0 080#0000
(1718132507.108978) can0 425#0000
(1718132507.109139) can0 080#0000
(1718132507.118462) can0 425#0000
(1718132507.118624) can0 080#0000
(1718132507.118823) can0 100#00000000
(1718132507.128976) can0 425#0000
(1718132507.129139) can0 080#0000
(1718132507.138460) can0 425#0000
(1718132507.138605) can0 080#0000
(1718132507.148971) can0 425#0000
(1718132507.149114) can0 080#0000
(1718132507.158465) can0 425#0000
(1718132507.158604) can0 080#0000
(1718132507.168972) can0 425#0000
(1718132507.169116) can0 080#0000
(1718132507.178453) can0 425#0000
(1718132507.178604) can0 080#0000
(1718132507.188960) can0 425#0000
(1718132507.189163) can0 080#0000
(1718132507.198461) can0 425#0000
(1718132507.198603) can0 080#0000
(1718132507.208996) can0 425#0000
(1718132507.209137) can0 080#0000
(1718132507.218461) can0 425#0000
(1718132507.218606) can0 080#0000
(1718132507.220456) can0 100#00000000
(1718132507.228975) can0 425#0000
(1718132507.229112) can0 080#0000
(1718132507.238461) can0 425#0000
(1718132507.238604) can0 080#0000
(1718132507.248966) can0 425#0000
(1718132507.249112) can0 080#0000
(1718132507.258463) can0 425#0000
(1718132507.258604) can0 080#0000
(1718132507.268990) can0 425#0000
(1718132507.269133) can0 080#0000
(1718132507.278463) can0 425#0000
(1718132507.278603) can0 080#0000
(1718132507.288972) can0 425#0000
(1718132507.289136) can0 080#0000
(1718132507.298453) can0 425#0000
(1718132507.298602) can0 080#0000
(1718132507.309002) can0 425#0000
(1718132507.309136) can0 080#0000
(1718132507.318458) can0 425#0000
(1718132507.318605) can0 080#0000
(1718132507.322130) can0 100#00000000
(1718132507.328992) can0 425#0000
(1718132507.329115) can0 080#0000
(1718132507.338456) can0 425#0000
(1718132507.338601) can0 080#0000
(1718132507.348974) can0 425#0000
(1718132507.349110) can0 080#0000
(1718132507.358457) can0 425#0000
(1718132507.358601) can0 080#0000
(1718132507.368965) can0 425#0000
(1718132507.369137) can0 080#0000
(1718132507.378460) can0 425#0000
(1718132507.378602) can0 080#0000
(1718132507.388974) can0 425#0000
(1718132507.389131) can0 080#0000
(1718132507.398455) can0 425#0000
(1718132507.398602) can0 080#0000
(1718132507.408972) can0 425#0000
(1718132507.409134) can0 080#0000
(1718132507.418467) can0 425#0000
(1718132507.418601) can0 080#0000
(1718132507.423845) can0 100#00000000
(1718132507.428974) can0 425#0000
(1718132507.429109) can0 080#0000
(1718132507.438456) can0 425#0000
(1718132507.438575) can0 080#0000
(1718132507.448973) can0 425#0000
(1718132507.449109) can0 080#0000
(1718132507.458455) can0 425#0000
(1718132507.458600) can0 080#0000
(1718132507.468971) can0 425#0000
(1718132507.469133) can0 080#0000
(1718132507.478455) can0 425#0000
(1718132507.478600) can0 080#0000
(1718132507.488972) can0 425#0000
(1718132507.489133) can0 080#0000
(1718132507.498454) can0 425#0000
(1718132507.498599) can0 080#0000
(1718132507.508971) can0 425#0000
(1718132507.509143) can0 080#0000
(1718132507.518455) can0 425#0000
(1718132507.518574) can0 080#0000
