(1718132430.855587) can0 425#0000
(1718132430.855683) can0 080#B407
(1718132430.866160) can0 425#0000
(1718132430.866307) can0 080#B407
(1718132430.875585) can0 425#0000
(1718132430.875706) can0 080#B507
(1718132430.886168) can0 425#0000
(1718132430.886306) can0 080#B507
(1718132430.895585) can0 425#0000
(1718132430.895685) can0 080#B607
(1718132430.906160) can0 425#0000
(1718132430.906305) can0 080#B607
(1718132430.915585) can0 425#0000
(1718132430.915706) can0 080#B407
(1718132430.926171) can0 425#0000
(1718132430.926306) can0 080#B407
(1718132430.935585) can0 425#0000
(1718132430.935706) can0 080#B507
(1718132430.946160) can0 425#0000
(1718132430.946306) can0 080#B507
(1718132430.955588) can0 425#0000
(1718132430.955705) can0 080#B307
(1718132430.966156) can0 425#0000
(1718132430.966305) can0 080#B307
(1718132430.975589) can0 425#0000
(1718132430.975680) can0 080#B307
(1718132430.986165) can0 425#0000
(1718132430.986280) can0 080#B307
(1718132430.995590) can0 425#0000
(1718132430.995705) can0 080#B407
(1718132431.006158) can0 425#0000
(1718132431.006305) can0 080#B407
(1718132431.015589) can0 425#0000
(1718132431.015705) can0 080#B607
(1718132431.026164) can0 425#0000
(1718132431.026279) can0 080#B607
(1718132431.035589) can0 425#0000
(1718132431.035704) can0 080#B407
(1718132431.046163) can0 425#0000
(1718132431.046304) can0 080#B407
(1718132431.055588) can0 425#0000
(1718132431.055679) can0 080#B507
(1718132431.066163) can0 425#0000
(1718132431.066279) can0 080#B507
(1718132431.075587) can0 425#0000
(1718132431.075704) can0 080#B507
(1718132431.086162) can0 425#0000
(1718132431.086303) can0 080#B507
(1718132431.095581) can0 425#0000
(1718132431.095703) can0 080#B507
(1718132431.106137) can0 425#0000
(1718132431.106278) can0 080#B507
(1718132431.115581) can0 425#0000
(1718132431.115703) can0 080#B507
(1718132431.126157) can0 425#0000
(1718132431.126278) can0 080#B507
(1718132431.135597) can0 425#0000
(1718132431.135678) can0 080#B507
(1718132431.146156) can0 425#0000
(1718132431.146278) can0 080#B507
(1718132431.155587) can0 425#0000
(1718132431.155702) can0 080#B407
(1718132431.166162) can0 425#0000
(1718132431.166301) can0 080#B407
(1718132431.175581) can0 425#0000
(1718132431.175701) can0 080#B507
(1718132431.186163) can0 425#0000
(1718132431.186302) can0 080#B507
(1718132431.195588) can0 425#0000
(1718132431.195701) can0 080#B507
(1718132431.206155) can0 425#0000
(1718132431.206301) can0 080#B507
(1718132431.215579) can0 425#0000
(1718132431.215704) can0 080#B507
(1718132431.226130) can0 425#0000
(1718132431.226276) can0 080#B507
(1718132431.235587) can0 425#0000
(1718132431.235721) can0 080#B407
(1718132431.246161) can0 425#0000
(1718132431.246301) can0 080#B407
(1718132431.255579) can0 425#0000
(1718132431.255676) can0 080#B407
(1718132431.266163) can0 425#0000
(1718132431.266276) can0 080#B407
(1718132431.275585) can0 425#0000
(1718132431.275700) can0 080#B407
(1718132431.286160) can0 425#0000
(1718132431.286296) can0 080#B407
(1718132431.295587) can0 425#0000
(1718132431.295696) can0 080#B407
(1718132431.306135) can0 425#0000
(1718132431.306275) can0 080#B407
(1718132431.315584) can0 425#0000
(1718132431.315700) can0 080#B407
(1718132431.326141) can0 425#0000
(1718132431.326300) can0 080#B407
(1718132431.335584) can0 425#0000
(1718132431.335700) can0 080#B407
(1718132431.346128) can0 425#0000
(1718132431.346275) can0 080#B407
(1718132431.355578) can0 425#0000
(1718132431.355699) can0 080#B407
(1718132431.366158) can0 425#0000
(1718132431.366274) can0 080#B407
(1718132431.375578) can0 425#0000
(1718132431.375674) can0 080#B507
(1718132431.386135) can0 425#0000
(1718132431.386299) can0 080#B507
(1718132431.395582) can0 425#0000
(1718132431.395699) can0 080#B507
(1718132431.406153) can0 425#0000
(1718132431.406295) can0 080#B507
(1718132431.415588) can0 425#0000
(1718132431.415673) can0 080#B507
(1718132431.426134) can0 425#0000
(1718132431.426274) can0 080#B507
(1718132431.435589) can0 425#0000
(1718132431.435698) can0 080#B407
(1718132431.446154) can0 425#0000
(1718132431.446298) can0 080#B407
(1718132431.455578) can0 425#0000
(1718132431.455698) can0 080#B507
(1718132431.466132) can0 425#0000
(1718132431.466272) can0 080#B507
(1718132431.475576) can0 425#0000
(1718132431.475698) can0 080#B407
(1718132431.486151) can0 425#0000
(1718132431.486297) can0 080#B407
(1718132431.495582) can0 425#0000
(1718132431.495697) can0 080#B507
(1718132431.506131) can0 425#0000
(1718132431.506272) can0 080#B507
(1718132431.515581) can0 425#0000
(1718132431.515696) can0 080#B507
(1718132431.526126) can0 425#0000
(1718132431.526306) can0 080#B507
(1718132431.535582) can0 425#0000
(1718132431.535671) can0 080#B507
(1718132431.546131) can0 425#0000
(1718132431.546272) can0 080#B507
(1718132431.555585) can0 425#0000
(1718132431.555696) can0 080#B407
(1718132431.566130) can0 425#0000
(1718132431.566271) can0 080#B407
(1718132431.575575) can0 425#0000
(1718132431.575671) can0 080#B407
(1718132431.586130) can0 425#0000
(1718132431.586271) can0 080#B407
(1718132431.595580) can0 425#0000
(1718132431.595696) can0 080#B407
(1718132431.606129) can0 425#0000
(1718132431.606271) can0 080#B407
(1718132431.615573) can0 425#0000
(1718132431.615670) can0 080#B407
(1718132431.626124) can0 425#0000
(1718132431.626270) can0 080#B407
(1718132431.635573) can0 425#0000
(1718132431.635695) can0 080#B407
(1718132431.646130) can0 425#0000
(1718132431.646295) can0 080#B407
(1718132431.655579) can0 425#0000
(1718132431.655666) can0 080#B407
(1718132431.666154) can0 425#0000
(1718132431.666270) can0 080#B407
(1718132431.675575) can0 425#0000
(1718132431.675695) can0 080#B407
(1718132431.686128) can0 425#0000
(1718132431.686269) can0 080#B407
(1718132431.695572) can0 425#0000
(1718132431.695673) can0 080#B507
(1718132431.706128) can0 425#0000
(1718132431.706269) can0 080#B507
(1718132431.715572) can0 425#0000
(1718132431.715669) can0 080#B407
(1718132431.726127) can0 425#0000
(1718132431.726269) can0 080#B407
(1718132431.735572) can0 425#0000
(1718132431.735672) can0 080#B407
(1718132431.746122) can0 425#0000
(1718132431.746269) can0 080#B407
(1718132431.755572) can0 425#0000
(1718132431.755694) can0 080#B407
(1718132431.766146) can0 425#0000
(1718132431.766293) can0 080#B407
(1718132431.775577) can0 425#0000
(1718132431.775664) can0 080#B307
(1718132431.786137) can0 425#0000
(1718132431.786268) can0 080#B307
(1718132431.795573) can0 425#0000
(1718132431.795693) can0 080#B507
(1718132431.806127) can0 425#0000
(1718132431.806268) can0 080#B507
(1718132431.815579) can0 425#0000
(1718132431.815668) can0 080#B507
(1718132431.826126) can0 425#0000
(1718132431.826267) can0 080#B507
(1718132431.835577) can0 425#0000
(1718132431.835692) can0 080#B407
(1718132431.846121) can0 425#0000
(1718132431.846270) can0 080#B407
(1718132431.855571) can0 425#0000
(1718132431.855667) can0 080#B407
(1718132431.866120) can0 425#0000
(1718132431.866267) can0 080#B407
(1718132431.875570) can0 425#0000
(1718132431.875692) can0 080#B507
(1718132431.886119) can0 425#0000
(1718132431.886263) can0 080#B507
(1718132431.895577) can0 425#0000
(1718132431.895663) can0 080#B507
(1718132431.906120) can0 425#0000
(1718132431.906266) can0 080#B507
(1718132431.915571) can0 425#0000
(1718132431.915691) can0 080#B507
(1718132431.926124) can0 425#0000
(1718132431.926267) can0 080#B507
(1718132431.935575) can0 425#0000
(1718132431.935666) can0 080#B407
(1718132431.946119) can0 425#0000
(1718132431.946266) can0 080#B407
(1718132431.955575) can0 425#0000
(1718132431.955690) can0 080#B407
(1718132431.966119) can0 425#0000
(1718132431.966265) can0 080#B407
(1718132431.975574) can0 425#0000
(1718132431.975665) can0 080#B507
(1718132431.986118) can0 425#0000
(1718132431.986265) can0 080#B507
(1718132431.995568) can0 425#0000
(1718132431.995665) can0 080#B507
(1718132432.006118) can0 425#0000
(1718132432.006290) can0 080#B507
(1718132432.015567) can0 425#0000
(1718132432.015671) can0 080#B407
(1718132432.026122) can0 425#0000
(1718132432.026264) can0 080#B407
(1718132432.035578) can0 425#0000
(1718132432.035689) can0 080#B307
(1718132432.046123) can0 425#0000
(1718132432.046289) can0 080#B307
(1718132432.055572) can0 425#0000
(1718132432.055666) can0 080#B407
(1718132432.066123) can0 425#0000
(1718132432.066264) can0 080#B407
(1718132432.075572) can0 425#0000
(1718132432.075688) can0 080#B507
(1718132432.086117) can0 425#0000
(1718132432.086289) can0 080#B507
(1718132432.095572) can0 425#0000
(1718132432.095664) can0 080#B407
(1718132432.106123) can0 425#0000
(1718132432.106263) can0 080#B407
(1718132432.115581) can0 425#0000
(1718132432.115662) can0 080#B407
(1718132432.126122) can0 425#0000
(1718132432.126263) can0 080#B407
(1718132432.135567) can0 425#0000
(1718132432.135665) can0 080#B507
(1718132432.146117) can0 425#0000
(1718132432.146262) can0 080#B507
(1718132432.155566) can0 425#0000
(1718132432.155663) can0 080#B407
(1718132432.166116) can0 425#0000
(1718132432.166287) can0 080#B407
(1718132432.175571) can0 425#0000
(1718132432.175662) can0 080#B607
(1718132432.186116) can0 425#0000
(1718132432.186262) can0 080#B607
(1718132432.195571) can0 425#0000
(1718132432.195662) can0 080#B407
(1718132432.206121) can0 425#0000
(1718132432.206287) can0 080#B407
(1718132432.215576) can0 425#0000
(1718132432.215661) can0 080#B407
(1718132432.226120) can0 425#0000
(1718132432.226261) can0 080#B407
(1718132432.235570) can0 425#0000
(1718132432.235686) can0 080#B407
(1718132432.246120) can0 425#0000
(1718132432.246283) can0 080#B407
(1718132432.255564) can0 425#0000
(1718132432.255661) can0 080#B607
(1718132432.266120) can0 425#0000
(1718132432.266260) can0 080#B607
(1718132432.275564) can0 425#0000
(1718132432.275686) can0 080#B407
(1718132432.286114) can0 425#0000
(1718132432.286261) can0 080#B407
(1718132432.295564) can0 425#0000
(1718132432.295661) can0 080#B507
(1718132432.306120) can0 425#0000
(1718132432.306261) can0 080#B507
(1718132432.315563) can0 425#0000
(1718132432.315685) can0 080#B407
(1718132432.326131) can0 425#0000
(1718132432.326285) can0 080#B407
(1718132432.335563) can0 425#0000
(1718132432.335660) can0 080#B307
(1718132432.346113) can0 425#0000
(1718132432.346259) can0 080#B307
(1718132432.355564) can0 425#0000
(1718132432.355659) can0 080#B407
(1718132432.366113) can0 425#0000
(1718132432.366259) can0 080#B407
(1718132432.375568) can0 425#0000
(1718132432.375660) can0 080#B507
(1718132432.386113) can0 425#0000
(1718132432.386259) can0 080#B507
(1718132432.395567) can0 425#0000
(1718132432.395659) can0 080#B307
(1718132432.406117) can0 425#0000
(1718132432.406259) can0 080#B307
(1718132432.415567) can0 425#0000
(1718132432.415659) can0 080#B407
(1718132432.426117) can0 425#0000
(1718132432.426259) can0 080#B407
(1718132432.435567) can0 425#0000
(1718132432.435659) can0 080#B407
(1718132432.446117) can0 425#0000
(1718132432.446257) can0 080#B407
(1718132432.455576) can0 425#0000
(1718132432.455657) can0 080#B407
(1718132432.466110) can0 425#0000
(1718132432.466258) can0 080#B407
(1718132432.475567) can0 425#0000
(1718132432.475684) can0 080#B507
(1718132432.486117) can0 425#0000
(1718132432.486269) can0 080#B507
(1718132432.495517) can0 425#0000
(1718132432.495660) can0 080#B407
(1718132432.503990) can0 100#00000060
(1718132432.506107) can0 425#0000
(1718132432.506282) can0 080#B407
(1718132432.515569) can0 425#0000
(1718132432.515657) can0 080#B507
(1718132432.526110) can0 425#0000
(1718132432.526282) can0 080#B507
(1718132432.535562) can0 425#0000
(1718132432.535657) can0 080#B307
(1718132432.546111) can0 425#0000
(1718132432.546257) can0 080#B307
(1718132432.555566) can0 425#0000
(1718132432.555682) can0 080#B507
(1718132432.566116) can0 425#0000
(1718132432.566256) can0 080#B507
(1718132432.575565) can0 425#0000
(1718132432.575657) can0 080#B407
(1718132432.586114) can0 425#0000
(1718132432.586282) can0 080#B407
(1718132432.595565) can0 425#0000
(1718132432.595656) can0 080#B407
(1718132432.605912) can0 100#00000060
(1718132432.606110) can0 425#0000
(1718132432.606281) can0 080#B407
(1718132432.615515) can0 425#0000
(1718132432.615659) can0 080#B307
(1718132432.626110) can0 425#0000
(1718132432.626256) can0 080#B307
(1718132432.635559) can0 425#0000
(1718132432.635680) can0 080#B307
(1718132432.646109) can0 425#0000
(1718132432.646255) can0 080#B307
(1718132432.655515) can0 425#0000
(1718132432.655658) can0 080#B407
(1718132432.666114) can0 425#0000
(1718132432.666255) can0 080#B407
(1718132432.675564) can0 425#0000
(1718132432.675680) can0 080#B707
(1718132432.686110) can0 425#0000
(1718132432.686255) can0 080#B707
(1718132432.695508) can0 425#0000
(1718132432.695658) can0 080#B507
(1718132432.706108) can0 425#0000
(1718132432.706255) can0 080#B507
(1718132432.707279) can0 100#00000060
(1718132432.715563) can0 425#0000
(1718132432.715654) can0 080#B407
(1718132432.726116) can0 425#0000
(1718132432.726254) can0 080#B407
(1718132432.735557) can0 425#0000
(1718132432.735654) can0 080#B407
(1718132432.746109) can0 425#0000
(1718132432.746252) can0 080#B407
(1718132432.755562) can0 425#0000
(1718132432.755654) can0 080#B507
(1718132432.766112) can0 425#0000
(1718132432.766279) can0 080#B507
(1718132432.775512) can0 425#0000
(1718132432.775657) can0 080#B407
(1718132432.786112) can0 425#0000
(1718132432.786253) can0 080#B407
(1718132432.795561) can0 425#0000
(1718132432.795653) can0 080#B407
(1718132432.806112) can0 425#0000
(1718132432.806254) can0 080#B407
(1718132432.808655) can0 100#00000060
(1718132432.815519) can0 425#0000
(1718132432.815656) can0 080#B607
(1718132432.826111) can0 425#0000
(1718132432.826274) can0 080#B607
(1718132432.835556) can0 425#0000
(1718132432.835653) can0 080#B407
(1718132432.846111) can0 425#0000
(1718132432.846278) can0 080#B407
(1718132432.855506) can0 425#0000
(1718132432.855655) can0 080#B407
(1718132432.866115) can0 425#0000
(1718132432.866257) can0 080#B407
(1718132432.875555) can0 425#0000
(1718132432.875658) can0 080#B307
(1718132432.886105) can0 425#0000
(1718132432.886277) can0 080#B307
(1718132432.895510) can0 425#0000
(1718132432.895654) can0 080#B607
(1718132432.906105) can0 425#0000
(1718132432.906252) can0 080#B607
(1718132432.909926) can0 100#00000060
(1718132432.915560) can0 425#0000
(1718132432.915651) can0 080#B607
(1718132432.926110) can0 425#0000
(1718132432.926276) can0 080#B607
(1718132432.935569) can0 425#0000
(1718132432.935651) can0 080#B507
(1718132432.946104) can0 425#0000
(1718132432.946272) can0 080#B507
(1718132432.955559) can0 425#0000
(1718132432.955650) can0 080#B407
(1718132432.966104) can0 425#0000
(1718132432.966277) can0 080#B407
(1718132432.975509) can0 425#0000
(1718132432.975654) can0 080#B407
(1718132432.986104) can0 425#0000
(1718132432.986250) can0 080#B407
(1718132432.995559) can0 425#0000
(1718132432.995650) can0 080#B307
(1718132433.006109) can0 425#0000
(1718132433.006250) can0 080#B307
(1718132433.011229) can0 100#00000060
(1718132433.015507) can0 425#0000
(1718132433.015652) can0 080#B507
(1718132433.026109) can0 425#0000
(1718132433.026275) can0 080#B507
(1718132433.035558) can0 425#0000
(1718132433.035650) can0 080#B307
(1718132433.046107) can0 425#0000
(1718132433.046274) can0 080#B307
(1718132433.055507) can0 425#0000
(1718132433.055652) can0 080#B407
(1718132433.066108) can0 425#0000
(1718132433.066245) can0 080#B407
(1718132433.075507) can0 425#0000
(1718132433.075648) can0 080#B407
(1718132433.086102) can0 425#0000
(1718132433.086249) can0 080#B407
(1718132433.095509) can0 425#0000
(1718132433.095652) can0 080#B507
(1718132433.106107) can0 425#0000
(1718132433.106249) can0 080#B507
(1718132433.112576) can0 100#00000060
(1718132433.115509) can0 425#0000
(1718132433.115651) can0 080#B507
(1718132433.126109) can0 425#0000
(1718132433.126276) can0 080#B507
(1718132433.135502) can0 425#0000
(1718132433.135651) can0 080#B607
(1718132433.146101) can0 425#0000
(1718132433.146273) can0 080#B607
(1718132433.155572) can0 425#0000
(1718132433.155647) can0 080#B407
(1718132433.166105) can0 425#0000
(1718132433.166247) can0 080#B407
(1718132433.175505) can0 425#0000
(1718132433.175650) can0 080#B407
(1718132433.186105) can0 425#0000
(1718132433.186244) can0 080#B407
(1718132433.195550) can0 425#0000
(1718132433.195643) can0 080#B407
(1718132433.206100) can0 425#0000
(1718132433.206247) can0 080#B407
(1718132433.213871) can0 100#00000060
(1718132433.215500) can0 425#0000
(1718132433.215651) can0 080#B607
(1718132433.226100) can0 425#0000
(1718132433.226276) can0 080#B607
(1718132433.235500) can0 425#0000
(1718132433.235649) can0 080#B407
(1718132433.246105) can0 425#0000
(1718132433.246271) can0 080#B407
(1718132433.255505) can0 425#0000
(1718132433.255649) can0 080#B407
(1718132433.266100) can0 425#0000
(1718132433.266246) can0 080#B407
(1718132433.275559) can0 425#0000
(1718132433.275646) can0 080#B507
(1718132433.286101) can0 425#0000
(1718132433.286246) can0 080#B507
(1718132433.295507) can0 425#0000
(1718132433.295649) can0 080#B507
(1718132433.306107) can0 425#0000
(1718132433.306242) can0 080#B507
(1718132433.315303) can0 100#00000060
(1718132433.315548) can0 425#0000
(1718132433.315620) can0 080#B507
(1718132433.326098) can0 425#0000
(1718132433.326221) can0 080#B507
(1718132433.335498) can0 425#0000
(1718132433.335648) can0 080#B407
(1718132433.346105) can0 425#0000
(1718132433.346244) can0 080#B407
(1718132433.355554) can0 425#0000
(1718132433.355645) can0 080#B507
(1718132433.366098) can0 425#0000
(1718132433.366270) can0 080#B507
(1718132433.375497) can0 425#0000
(1718132433.375647) can0 080#B407
(1718132433.386098) can0 425#0000
(1718132433.386244) can0 080#B407
(1718132433.395503) can0 425#0000
(1718132433.395647) can0 080#B307
(1718132433.406103) can0 425#0000
(1718132433.406244) can0 080#B307
(1718132433.415502) can0 425#0000
(1718132433.415625) can0 080#B307
(1718132433.416696) can0 100#00000060
(1718132433.426104) can0 425#0000
(1718132433.426265) can0 080#B307
(1718132433.435552) can0 425#0000
(1718132433.435653) can0 080#B307
(1718132433.446102) can0 425#0000
(1718132433.446268) can0 080#B307
(1718132433.455501) can0 425#0000
(1718132433.455647) can0 080#B407
(1718132433.466096) can0 425#0000
(1718132433.466243) can0 080#B407
(1718132433.475502) can0 425#0000
(1718132433.475646) can0 080#B407
(1718132433.486096) can0 425#0000
(1718132433.486242) can0 080#B407
(1718132433.495500) can0 425#0000
(1718132433.495656) can0 080#B407
(1718132433.506101) can0 425#0000
(1718132433.506242) can0 080#B407
(1718132433.515550) can0 425#0000
(1718132433.515642) can0 080#B507
(1718132433.517974) can0 100#00000060
(1718132433.526102) can0 425#0000
(1718132433.526267) can0 080#B507
(1718132433.535496) can0 425#0000
(1718132433.535648) can0 080#B507
(1718132433.546102) can0 425#0000
(1718132433.546266) can0 080#B507
(1718132433.555551) can0 425#0000
(1718132433.555642) can0 080#B507
(1718132433.566101) can0 425#0000
(1718132433.566242) can0 080#B507
(1718132433.575500) can0 425#0000
(1718132433.575645) can0 080#B407
(1718132433.586100) can0 425#0000
(1718132433.586241) can0 080#B407
(1718132433.595550) can0 425#0000
(1718132433.595641) can0 080#B307
(1718132433.606094) can0 425#0000
(1718132433.606241) can0 080#B307
(1718132433.615494) can0 425#0000
(1718132433.615644) can0 080#B507
(1718132433.619465) can0 100#00000060
(1718132433.626100) can0 425#0000
(1718132433.626265) can0 080#B507
(1718132433.635499) can0 425#0000
(1718132433.635643) can0 080#B307
(1718132433.646099) can0 425#0000
(1718132433.646265) can0 080#B307
(1718132433.655498) can0 425#0000
(1718132433.655618) can0 080#B507
(1718132433.666093) can0 425#0000
(1718132433.666244) can0 080#B507
(1718132433.675493) can0 425#0000
(1718132433.675643) can0 080#B507
(1718132433.686093) can0 425#0000
(1718132433.686240) can0 080#B507
(1718132433.695493) can0 425#0000
(1718132433.695643) can0 080#B507
(1718132433.706098) can0 425#0000
(1718132433.706239) can0 080#B507
(1718132433.715543) can0 425#0000
(1718132433.715639) can0 080#B407
(1718132433.720803) can0 100#00000060
(1718132433.726095) can0 425#0000
(1718132433.726243) can0 080#B407
(1718132433.735493) can0 425#0000
(1718132433.735617) can0 080#B607
(1718132433.746099) can0 425#0000
(1718132433.746239) can0 080#B607
(1718132433.755547) can0 425#0000
(1718132433.755639) can0 080#B307
(1718132433.766092) can0 425#0000
(1718132433.766239) can0 080#B307
(1718132433.775491) can0 425#0000
(1718132433.775641) can0 080#B207
(1718132433.786092) can0 425#0000
(1718132433.786239) can0 080#B207
(1718132433.795491) can0 425#0000
(1718132433.795641) can0 080#B407
(1718132433.806092) can0 425#0000
(1718132433.806239) can0 080#B407
(1718132433.815497) can0 425#0000
(1718132433.815616) can0 080#B407
(1718132433.822141) can0 100#00000060
(1718132433.826091) can0 425#0000
(1718132433.826238) can0 080#B407
(1718132433.835546) can0 425#0000
(1718132433.835637) can0 080#B507
(1718132433.846097) can0 425#0000
(1718132433.846238) can0 080#B507
(1718132433.855496) can0 425#0000
(1718132433.855640) can0 080#B307
(1718132433.866098) can0 425#0000
(1718132433.866237) can0 080#B307
(1718132433.875496) can0 425#0000
(1718132433.875640) can0 080#B407
(1718132433.886095) can0 425#0000
(1718132433.886236) can0 080#B407
(1718132433.895496) can0 425#0000
(1718132433.895615) can0 080#B407
(1718132433.906095) can0 425#0000
(1718132433.906237) can0 080#B407
(1718132433.915495) can0 425#0000
(1718132433.915640) can0 080#B407
(1718132433.923564) can0 100#00000060
(1718132433.926092) can0 425#0000
(1718132433.926261) can0 080#B407
(1718132433.935491) can0 425#0000
(1718132433.935615) can0 080#B307
(1718132433.946095) can0 425#0000
(1718132433.946236) can0 080#B307
(1718132433.955493) can0 425#0000
(1718132433.955639) can0 080#B307
(1718132433.966092) can0 425#0000
(1718132433.966236) can0 080#B307
(1718132433.975489) can0 425#0000
(1718132433.975648) can0 080#B407
(1718132433.986093) can0 425#0000
(1718132433.986236) can0 080#B407
(1718132433.995497) can0 425#0000
(1718132433.995638) can0 080#B407
(1718132434.006094) can0 425#0000
(1718132434.006235) can0 080#B407
(1718132434.015493) can0 425#0000
(1718132434.015638) can0 080#B407
(1718132434.024939) can0 100#00000060
(1718132434.026091) can0 425#0000
(1718132434.026235) can0 080#B407
(1718132434.035543) can0 425#0000
(1718132434.035650) can0 080#B307
(1718132434.046089) can0 425#0000
(1718132434.046234) can0 080#B307
(1718132434.055484) can0 425#0000
(1718132434.055613) can0 080#B307
(1718132434.066087) can0 425#0000
(1718132434.066235) can0 080#B307
(1718132434.075492) can0 425#0000
(1718132434.075637) can0 080#B307
(1718132434.086092) can0 425#0000
(1718132434.086234) can0 080#B307
(1718132434.095493) can0 425#0000
(1718132434.095637) can0 080#B307
(1718132434.106092) can0 425#0000
(1718132434.106233) can0 080#B307
(1718132434.115487) can0 425#0000
(1718132434.115637) can0 080#B307
(1718132434.126076) can0 425#0000
(1718132434.126248) can0 100#00000060
(1718132434.126398) can0 080#B307
(1718132434.135487) can0 425#0000
(1718132434.135611) can0 080#B307
(1718132434.146087) can0 425#0000
(1718132434.146233) can0 080#B307
(1718132434.155492) can0 425#0000
(1718132434.155636) can0 080#B407
(1718132434.166082) can0 425#0000
(1718132434.166207) can0 080#B407
(1718132434.175487) can0 425#0000
(1718132434.175611) can0 080#B307
(1718132434.186091) can0 425#0000
(1718132434.186232) can0 080#B307
(1718132434.195491) can0 425#0000
(1718132434.195635) can0 080#B307
(1718132434.206091) can0 425#0000
(1718132434.206232) can0 080#B307
(1718132434.215494) can0 425#0000
(1718132434.215635) can0 080#B507
(1718132434.226091) can0 425#0000
(1718132434.226232) can0 080#B507
(1718132434.227548) can0 100#00000060
(1718132434.235490) can0 425#0000
(1718132434.235635) can0 080#B307
(1718132434.246091) can0 425#0000
(1718132434.246231) can0 080#B307
(1718132434.255485) can0 425#0000
(1718132434.255609) can0 080#B207
(1718132434.266085) can0 425#0000
(1718132434.266231) can0 080#B207
(1718132434.275484) can0 425#0000
(1718132434.275636) can0 080#B307
(1718132434.286088) can0 425#0000
(1718132434.286231) can0 080#B307
(1718132434.295487) can0 425#0000
(1718132434.295609) can0 080#B407
(1718132434.306089) can0 425#0000
(1718132434.306230) can0 080#B407
(1718132434.315485) can0 425#0000
(1718132434.315633) can0 080#B407
(1718132434.326089) can0 425#0000
(1718132434.326230) can0 080#B407
(1718132434.329036) can0 100#00000060
(1718132434.335484) can0 425#0000
(1718132434.335633) can0 080#B307
(1718132434.346089) can0 425#0000
(1718132434.346230) can0 080#B307
(1718132434.355489) can0 425#0000
(1718132434.355633) can0 080#B307
(1718132434.366083) can0 425#0000
(1718132434.366242) can0 080#B307
(1718132434.375489) can0 425#0000
(1718132434.375632) can0 080#B507
(1718132434.386084) can0 425#0000
(1718132434.386230) can0 080#B507
(1718132434.395482) can0 425#0000
(1718132434.395610) can0 080#B307
(1718132434.406079) can0 425#0000
(1718132434.406229) can0 080#B307
(1718132434.415483) can0 425#0000
(1718132434.415607) can0 080#B307
(1718132434.426082) can0 425#0000
(1718132434.426228) can0 080#B307
(1718132434.430534) can0 100#00000060
(1718132434.435489) can0 425#0000
(1718132434.435658) can0 080#B307
(1718132434.446089) can0 425#0000
(1718132434.446234) can0 080#B307
(1718132434.455482) can0 425#0000
(1718132434.455606) can0 080#B207
(1718132434.466082) can0 425#0000
(1718132434.466228) can0 080#B207
(1718132434.475481) can0 425#0000
(1718132434.475606) can0 080#B307
(1718132434.486087) can0 425#0000
(1718132434.486227) can0 080#B307
(1718132434.495491) can0 425#0000
(1718132434.495606) can0 080#B407
(1718132434.506062) can0 425#0000
(1718132434.506227) can0 080#B407
(1718132434.515491) can0 425#0000
(1718132434.515630) can0 080#B207
(1718132434.526086) can0 425#0000
(1718132434.526227) can0 080#B207
(1718132434.531795) can0 100#00000060
(1718132434.535489) can0 425#0000
(1718132434.535605) can0 080#B307
(1718132434.546081) can0 425#0000
(1718132434.546227) can0 080#B307
(1718132434.555480) can0 425#0000
(1718132434.555629) can0 080#B307
(1718132434.566055) can0 425#0000
(1718132434.566227) can0 080#B307
(1718132434.575486) can0 425#0000
(1718132434.575605) can0 080#B207
(1718132434.586085) can0 425#0000
(1718132434.586227) can0 080#B207
(1718132434.595494) can0 425#0000
(1718132434.595629) can0 080#B307
(1718132434.606079) can0 425#0000
(1718132434.606222) can0 080#B307
(1718132434.615485) can0 425#0000
(1718132434.615604) can0 080#B407
(1718132434.626060) can0 425#0000
(1718132434.626226) can0 080#B407
(1718132434.633194) can0 100#00000060
(1718132434.635479) can0 425#0000
(1718132434.635628) can0 080#B207
(1718132434.646079) can0 425#0000
(1718132434.646225) can0 080#B207
(1718132434.655479) can0 425#0000
(1718132434.655603) can0 080#B307
(1718132434.666089) can0 425#0000
(1718132434.666225) can0 080#B307
(1718132434.675484) can0 425#0000
(1718132434.675628) can0 080#B307
(1718132434.686059) can0 425#0000
(1718132434.686225) can0 080#B307
(1718132434.695478) can0 425#0000
(1718132434.695603) can0 080#B307
(1718132434.706077) can0 425#0000
(1718132434.706225) can0 080#B307
(1718132434.715486) can0 425#0000
(1718132434.715628) can0 080#B307
(1718132434.726082) can0 425#0000
(1718132434.726220) can0 080#B307
(1718132434.734526) can0 100#00000060
(1718132434.735480) can0 425#0000
(1718132434.735602) can0 080#B207
(1718132434.746059) can0 425#0000
(1718132434.746224) can0 080#B207
(1718132434.755484) can0 425#0000
(1718132434.755627) can0 080#B307
(1718132434.766083) can0 425#0000
(1718132434.766223) can0 080#B307
(1718132434.775482) can0 425#0000
(1718132434.775602) can0 080#B407
(1718132434.786052) can0 425#0000
(1718132434.786223) can0 080#B407
(1718132434.795476) can0 425#0000
(1718132434.795601) can0 080#B307
(1718132434.806052) can0 425#0000
(1718132434.806223) can0 080#B307
(1718132434.815482) can0 425#0000
(1718132434.815601) can0 080#B307
(1718132434.826057) can0 425#0000
(1718132434.826222) can0 080#B307
(1718132434.835482) can0 425#0000
(1718132434.835622) can0 080#B307
(1718132434.835897) can0 100#00000060
(1718132434.846056) can0 425#0000
(1718132434.846228) can0 080#B307
(1718132434.855476) can0 425#0000
(1718132434.855601) can0 080#B307
(1718132434.866050) can0 425#0000
(1718132434.866222) can0 080#B307
(1718132434.875475) can0 425#0000
(1718132434.875600) can0 080#B407
(1718132434.886081) can0 425#0000
(1718132434.886222) can0 080#B407
(1718132434.895475) can0 425#0000
(1718132434.895599) can0 080#B307
(1718132434.906081) can0 425#0000
(1718132434.906222) can0 080#B307
(1718132434.915480) can0 425#0000
(1718132434.915600) can0 080#B307
(1718132434.926080) can0 425#0000
(1718132434.926221) can0 080#B307
(1718132434.935475) can0 425#0000
(1718132434.935606) can0 080#B307
(1718132434.937238) can0 100#00000060
(1718132434.946077) can0 425#0000
(1718132434.946221) can0 080#B307
(1718132434.955480) can0 425#0000
(1718132434.955624) can0 080#B307
(1718132434.966059) can0 425#0000
(1718132434.966220) can0 080#B307
(1718132434.975480) can0 425#0000
(1718132434.975594) can0 080#B307
(1718132434.986051) can0 425#0000
(1718132434.986196) can0 080#B307
(1718132434.995480) can0 425#0000
(1718132434.995624) can0 080#B307
(1718132435.006054) can0 425#0000
(1718132435.006220) can0 080#B307
(1718132435.015481) can0 425#0000
(1718132435.015598) can0 080#B407
(1718132435.026078) can0 425#0000
(1718132435.026220) can0 080#B407
(1718132435.035485) can0 425#0000
(1718132435.035623) can0 080#B407
(1718132435.038807) can0 100#00000060
(1718132435.046049) can0 425#0000
(1718132435.046220) can0 080#B407
(1718132435.055478) can0 425#0000
(1718132435.055597) can0 080#B507
(1718132435.066052) can0 425#0000
(1718132435.066219) can0 080#B507
(1718132435.075477) can0 425#0000
(1718132435.075597) can0 080#B307
(1718132435.086053) can0 425#0000
(1718132435.086219) can0 080#B307
(1718132435.095473) can0 425#0000
(1718132435.095593) can0 080#B307
(1718132435.106078) can0 425#0000
(1718132435.106218) can0 080#B307
(1718132435.115479) can0 425#0000
(1718132435.115600) can0 080#B307
(1718132435.126081) can0 425#0000
(1718132435.126218) can0 080#B307
(1718132435.135479) can0 425#0000
(1718132435.135596) can0 080#B207
(1718132435.140312) can0 100#00000060
(1718132435.146052) can0 425#0000
(1718132435.146219) can0 080#B207
(1718132435.155471) can0 425#0000
(1718132435.155621) can0 080#B407
(1718132435.166051) can0 425#0000
(1718132435.166217) can0 080#B407
(1718132435.175476) can0 425#0000
(1718132435.175595) can0 080#B307
(1718132435.186046) can0 425#0000
(1718132435.186225) can0 080#B307
(1718132435.195476) can0 425#0000
(1718132435.195595) can0 080#B407
(1718132435.206051) can0 425#0000
(1718132435.206222) can0 080#B407
(1718132435.215470) can0 425#0000
(1718132435.215601) can0 080#B407
(1718132435.226051) can0 425#0000
(1718132435.226217) can0 080#B407
(1718132435.235476) can0 425#0000
(1718132435.235595) can0 080#B307
(1718132435.241545) can0 100#00000060
(1718132435.246076) can0 425#0000
(1718132435.246216) can0 080#B307
(1718132435.255483) can0 425#0000
(1718132435.255594) can0 080#B307
(1718132435.266045) can0 425#0000
(1718132435.266216) can0 080#B307
(1718132435.275471) can0 425#0000
(1718132435.275594) can0 080#B407
(1718132435.286069) can0 425#0000
(1718132435.286216) can0 080#B407
(1718132435.295469) can0 425#0000
(1718132435.295594) can0 080#B207
(1718132435.306050) can0 425#0000
(1718132435.306190) can0 080#B207
(1718132435.315473) can0 425#0000
(1718132435.315594) can0 080#B307
(1718132435.326049) can0 425#0000
(1718132435.326215) can0 080#B307
(1718132435.335473) can0 425#0000
(1718132435.335593) can0 080#B207
(1718132435.343033) can0 100#00000060
(1718132435.346072) can0 425#0000
(1718132435.346216) can0 080#B207
(1718132435.355473) can0 425#0000
(1718132435.355593) can0 080#B307
(1718132435.366049) can0 425#0000
(1718132435.366215) can0 080#B307
(1718132435.375468) can0 425#0000
(1718132435.375593) can0 080#B307
(1718132435.386045) can0 425#0000
(1718132435.386215) can0 080#B307
(1718132435.395474) can0 425#0000
(1718132435.395618) can0 080#B307
(1718132435.406043) can0 425#0000
(1718132435.406189) can0 080#B307
(1718132435.415472) can0 425#0000
(1718132435.415592) can0 080#B407
(1718132435.426048) can0 425#0000
(1718132435.426188) can0 080#B407
(1718132435.435473) can0 425#0000
(1718132435.435592) can0 080#B307
(1718132435.444595) can0 100#00000060
(1718132435.446042) can0 425#0000
(1718132435.446210) can0 080#B307
(1718132435.455467) can0 425#0000
(1718132435.455595) can0 080#B307
(1718132435.466047) can0 425#0000
(1718132435.466213) can0 080#B307
(1718132435.475468) can0 425#0000
(1718132435.475591) can0 080#B507
(1718132435.486041) can0 425#0000
(1718132435.486213) can0 080#B507
(1718132435.495466) can0 425#0000
(1718132435.495591) can0 080#B307
(1718132435.506049) can0 425#0000
(1718132435.506213) can0 080#B307
(1718132435.515471) can0 425#0000
(1718132435.515590) can0 080#B407
(1718132435.526046) can0 425#0000
(1718132435.526212) can0 080#B407
(1718132435.535471) can0 425#0000
(1718132435.535590) can0 080#B207
(1718132435.546054) can0 425#0000
(1718132435.546227) can0 100#00000060
(1718132435.546349) can0 080#B207
(1718132435.555466) can0 425#0000
(1718132435.555590) can0 080#B207
(1718132435.566045) can0 425#0000
(1718132435.566212) can0 080#B207
(1718132435.575471) can0 425#0000
(1718132435.575590) can0 080#B307
(1718132435.586047) can0 425#0000
(1718132435.586212) can0 080#B307
(1718132435.595466) can0 425#0000
(1718132435.595590) can0 080#B307
(1718132435.606039) can0 425#0000
(1718132435.606187) can0 080#B307
(1718132435.615444) can0 425#0000
(1718132435.615589) can0 080#B307
(1718132435.626045) can0 425#0000
(1718132435.626211) can0 080#B307
(1718132435.635470) can0 425#0000
(1718132435.635588) can0 080#B207
(1718132435.646039) can0 425#0000
(1718132435.646214) can0 080#B207
(1718132435.647540) can0 100#00000060
(1718132435.655439) can0 425#0000
(1718132435.655589) can0 080#B207
(1718132435.666044) can0 425#0000
(1718132435.666186) can0 080#B207
(1718132435.675468) can0 425#0000
(1718132435.675589) can0 080#B207
(1718132435.686044) can0 425#0000
(1718132435.686210) can0 080#B207
(1718132435.695464) can0 425#0000
(1718132435.695594) can0 080#B207
(1718132435.706038) can0 425#0000
(1718132435.706185) can0 080#B207
(1718132435.715463) can0 425#0000
(1718132435.715588) can0 080#B407
(1718132435.726043) can0 425#0000
(1718132435.726184) can0 080#B407
(1718132435.735443) can0 425#0000
(1718132435.735611) can0 080#B207
(1718132435.746043) can0 425#0000
(1718132435.746185) can0 080#B207
(1718132435.748940) can0 100#00000060
(1718132435.755468) can0 425#0000
(1718132435.755587) can0 080#B307
(1718132435.766044) can0 425#0000
(1718132435.766209) can0 080#B307
(1718132435.775443) can0 425#0000
(1718132435.775587) can0 080#B207
(1718132435.786043) can0 425#0000
(1718132435.786208) can0 080#B207
(1718132435.795467) can0 425#0000
(1718132435.795586) can0 080#B307
(1718132435.806042) can0 425#0000
(1718132435.806208) can0 080#B307
(1718132435.815467) can0 425#0000
(1718132435.815586) can0 080#B207
(1718132435.826038) can0 425#0000
(1718132435.826183) can0 080#B207
(1718132435.835472) can0 425#0000
(1718132435.835586) can0 080#B207
(1718132435.846036) can0 425#0000
(1718132435.846208) can0 080#B207
(1718132435.850245) can0 100#00000060
(1718132435.855437) can0 425#0000
(1718132435.855586) can0 080#B207
(1718132435.866041) can0 425#0000
(1718132435.866207) can0 080#B207
(1718132435.875461) can0 425#0000
(1718132435.875586) can0 080#B407
(1718132435.886041) can0 425#0000
(1718132435.886207) can0 080#B407
(1718132435.895436) can0 425#0000
(1718132435.895585) can0 080#B207
(1718132435.906035) can0 425#0000
(1718132435.906182) can0 080#B207
(1718132435.915476) can0 425#0000
(1718132435.915585) can0 080#B407
(1718132435.926040) can0 425#0000
(1718132435.926181) can0 080#B407
(1718132435.935435) can0 425#0000
(1718132435.935585) can0 080#B207
(1718132435.946036) can0 425#0000
(1718132435.946206) can0 080#B207
(1718132435.951512) can0 100#00000060
(1718132435.955459) can0 425#0000
(1718132435.955606) can0 080#B407
(1718132435.966040) can0 425#0000
(1718132435.966229) can0 080#B407
(1718132435.975440) can0 425#0000
(1718132435.975584) can0 080#B107
(1718132435.986030) can0 425#0000
(1718132435.986209) can0 080#B107
(1718132435.995459) can0 425#0000
(1718132435.995583) can0 080#B207
(1718132436.006040) can0 425#0000
(1718132436.006205) can0 080#B207
(1718132436.015458) can0 425#0000
(1718132436.015583) can0 080#B207
(1718132436.026033) can0 425#0000
(1718132436.026204) can0 080#B207
(1718132436.035458) can0 425#0000
(1718132436.035582) can0 080#B207
(1718132436.046038) can0 425#0000
(1718132436.046205) can0 080#B207
(1718132436.052870) can0 100#00000060
(1718132436.055438) can0 425#0000
(1718132436.055583) can0 080#B307
(1718132436.066034) can0 425#0000
(1718132436.066180) can0 080#B307
(1718132436.075463) can0 425#0000
(1718132436.075582) can0 080#B207
(1718132436.086038) can0 425#0000
(1718132436.086204) can0 080#B207
(1718132436.095432) can0 425#0000
(1718132436.095582) can0 080#B207
(1718132436.106038) can0 425#0000
(1718132436.106179) can0 080#B207
(1718132436.115457) can0 425#0000
(1718132436.115582) can0 080#B407
(1718132436.126037) can0 425#0000
(1718132436.126200) can0 080#B407
(1718132436.135433) can0 425#0000
(1718132436.135582) can0 080#B307
(1718132436.146037) can0 425#0000
(1718132436.146178) can0 080#B307
(1718132436.154278) can0 100#00000060
(1718132436.155471) can0 425#0000
(1718132436.155581) can0 080#B207
(1718132436.166036) can0 425#0000
(1718132436.166178) can0 080#B207
(1718132436.175437) can0 425#0000
(1718132436.175581) can0 080#B307
(1718132436.186037) can0 425#0000
(1718132436.186203) can0 080#B307
(1718132436.195455) can0 425#0000
(1718132436.195580) can0 080#B407
(1718132436.206031) can0 425#0000
(1718132436.206177) can0 080#B407
(1718132436.215430) can0 425#0000
(1718132436.215581) can0 080#B307
(1718132436.226032) can0 425#0000
(1718132436.226202) can0 080#B307
(1718132436.235455) can0 425#0000
(1718132436.235580) can0 080#B207
(1718132436.246035) can0 425#0000
(1718132436.246202) can0 080#B207
(1718132436.255504) can0 425#0000
(1718132436.255576) can0 080#B207
(1718132436.255756) can0 100#00000060
(1718132436.266035) can0 425#0000
(1718132436.266198) can0 080#B207
(1718132436.275460) can0 425#0000
(1718132436.275580) can0 080#B307
(1718132436.286029) can0 425#0000
(1718132436.286202) can0 080#B307
(1718132436.295430) can0 425#0000
(1718132436.295579) can0 080#B307
(1718132436.306029) can0 425#0000
(1718132436.306176) can0 080#B307
(1718132436.315459) can0 425#0000
(1718132436.315579) can0 080#B207
(1718132436.326029) can0 425#0000
(1718132436.326200) can0 080#B207
(1718132436.335433) can0 425#0000
(1718132436.335584) can0 080#B207
(1718132436.346034) can0 425#0000
(1718132436.346176) can0 080#B207
(1718132436.355460) can0 425#0000
(1718132436.355578) can0 080#B407
(1718132436.357035) can0 100#00000060
(1718132436.366034) can0 425#0000
(1718132436.366200) can0 080#B407
(1718132436.375442) can0 425#0000
(1718132436.375581) can0 080#B207
(1718132436.386034) can0 425#0000
(1718132436.386196) can0 080#B207
(1718132436.395458) can0 425#0000
(1718132436.395573) can0 080#B307
(1718132436.406041) can0 425#0000
(1718132436.406200) can0 080#B307
(1718132436.415432) can0 425#0000
(1718132436.415577) can0 080#B207
(1718132436.426032) can0 425#0000
(1718132436.426174) can0 080#B207
(1718132436.435452) can0 425#0000
(1718132436.435577) can0 080#B207
(1718132436.446027) can0 425#0000
(1718132436.446199) can0 080#B207
(1718132436.455427) can0 425#0000
(1718132436.455576) can0 080#B207
(1718132436.459128) can0 100#00000060
(1718132436.466032) can0 425#0000
(1718132436.466199) can0 080#B207
(1718132436.475468) can0 425#0000
(1718132436.475581) can0 080#B207
(1718132436.486032) can0 425#0000
(1718132436.486198) can0 080#B207
(1718132436.495427) can0 425#0000
(1718132436.495576) can0 080#B207
(1718132436.506032) can0 425#0000
(1718132436.506169) can0 080#B207
(1718132436.515452) can0 425#0000
(1718132436.515572) can0 080#B307
(1718132436.526026) can0 425#0000
(1718132436.526173) can0 080#B307
(1718132436.535426) can0 425#0000
(1718132436.535575) can0 080#B207
(1718132436.546026) can0 425#0000
(1718132436.546173) can0 080#B207
(1718132436.555457) can0 425#0000
(1718132436.555575) can0 080#B307
(1718132436.560525) can0 100#00000060
(1718132436.566025) can0 425#0000
(1718132436.566202) can0 080#B307
(1718132436.575430) can0 425#0000
(1718132436.575575) can0 080#B107
(1718132436.586026) can0 425#0000
(1718132436.586172) can0 080#B107
(1718132436.595425) can0 425#0000
(1718132436.595574) can0 080#B207
(1718132436.606030) can0 425#0000
(1718132436.606196) can0 080#B207
(1718132436.615430) can0 425#0000
(1718132436.615574) can0 080#B107
(1718132436.626029) can0 425#0000
(1718132436.626167) can0 080#B107
(1718132436.635454) can0 425#0000
(1718132436.635582) can0 080#B107
(1718132436.646024) can0 425#0000
(1718132436.646192) can0 080#B107
(1718132436.655429) can0 425#0000
(1718132436.655574) can0 080#AF07
(1718132436.661845) can0 100#00000060
(1718132436.666025) can0 425#0000
(1718132436.666170) can0 080#AF07
(1718132436.675436) can0 425#0000
(1718132436.675574) can0 080#B207
(1718132436.686026) can0 425#0000
(1718132436.686195) can0 080#B207
(1718132436.695423) can0 425#0000
(1718132436.695573) can0 080#B107
(1718132436.706023) can0 425#0000
(1718132436.706169) can0 080#B107
(1718132436.715448) can0 425#0000
(1718132436.715573) can0 080#B207
(1718132436.726030) can0 425#0000
(1718132436.726169) can0 080#B207
(1718132436.735444) can0 425#0000
(1718132436.735554) can0 080#B007
(1718132436.746028) can0 425#0000
(1718132436.746173) can0 080#B007
(1718132436.755453) can0 425#0000
(1718132436.755572) can0 080#B107
(1718132436.763443) can0 100#00000060
(1718132436.766049) can0 425#0000
(1718132436.766194) can0 080#B107
(1718132436.775422) can0 425#0000
(1718132436.775572) can0 080#B107
(1718132436.786022) can0 425#0000
(1718132436.786194) can0 080#B107
(1718132436.795447) can0 425#0000
(1718132436.795594) can0 080#B207
(1718132436.806022) can0 425#0000
(1718132436.806194) can0 080#B207
(1718132436.815427) can0 425#0000
(1718132436.815573) can0 080#B207
(1718132436.826038) can0 425#0000
(1718132436.826169) can0 080#B207
(1718132436.835446) can0 425#0000
(1718132436.835571) can0 080#B107
(1718132436.846027) can0 425#0000
(1718132436.846188) can0 080#B107
(1718132436.855427) can0 425#0000
(1718132436.855570) can0 080#B107
(1718132436.864748) can0 100#00000060
(1718132436.866026) can0 425#0000
(1718132436.866192) can0 080#B107
(1718132436.875446) can0 425#0000
(1718132436.875573) can0 080#B107
(1718132436.886029) can0 425#0000
(1718132436.886192) can0 080#B107
(1718132436.895420) can0 425#0000
(1718132436.895571) can0 080#B307
(1718132436.906025) can0 425#0000
(1718132436.906167) can0 080#B307
(1718132436.915459) can0 425#0000
(1718132436.915570) can0 080#B207
(1718132436.926026) can0 425#0000
(1718132436.926167) can0 080#B207
(1718132436.935425) can0 425#0000
(1718132436.935569) can0 080#B107
(1718132436.946019) can0 425#0000
(1718132436.946167) can0 080#B107
(1718132436.955450) can0 425#0000
(1718132436.955570) can0 080#B107
(1718132436.966001) can0 425#0000
(1718132436.966173) can0 100#00000060
(1718132436.966320) can0 080#B107
(1718132436.975426) can0 425#0000
(1718132436.975569) can0 080#B107
(1718132436.986019) can0 425#0000
(1718132436.986166) can0 080#B107
(1718132436.995444) can0 425#0000
(1718132436.995574) can0 080#B107
(1718132437.006024) can0 425#0000
(1718132437.006166) can0 080#B107
(1718132437.015424) can0 425#0000
(1718132437.015568) can0 080#B207
(1718132437.026024) can0 425#0000
(1718132437.026165) can0 080#B207
(1718132437.035418) can0 425#0000
(1718132437.035568) can0 080#B207
(1718132437.046018) can0 425#0000
(1718132437.046167) can0 080#B207
(1718132437.055418) can0 425#0000
(1718132437.055568) can0 080#B007
(1718132437.066017) can0 425#0000
(1718132437.066164) can0 080#B007
(1718132437.067309) can0 100#00000060
(1718132437.075423) can0 425#0000
(1718132437.075567) can0 080#B107
(1718132437.086023) can0 425#0000
(1718132437.086164) can0 080#B107
(1718132437.095429) can0 425#0000
(1718132437.095567) can0 080#AF07
(1718132437.106021) can0 425#0000
(1718132437.106164) can0 080#AF07
(1718132437.115448) can0 425#0000
(1718132437.115570) can0 080#AB07
(1718132437.126022) can0 425#0000
(1718132437.126164) can0 080#AB07
(1718132437.135423) can0 425#0000
(1718132437.135567) can0 080#AA07
(1718132437.146017) can0 425#0000
(1718132437.146163) can0 080#AA07
(1718132437.155422) can0 425#0000
(1718132437.155566) can0 080#A907
(1718132437.166022) can0 425#0000
(1718132437.166138) can0 080#A907
(1718132437.168566) can0 100#00000060
(1718132437.175423) can0 425#0000
(1718132437.175541) can0 080#AA07
(1718132437.186021) can0 425#0000
(1718132437.186188) can0 080#AA07
(1718132437.195416) can0 425#0000
(1718132437.195565) can0 080#A807
(1718132437.206021) can0 425#0000
(1718132437.206188) can0 080#A807
(1718132437.215416) can0 425#0000
(1718132437.215565) can0 080#A807
(1718132437.226021) can0 425#0000
(1718132437.226162) can0 080#A807
(1718132437.235420) can0 425#0000
(1718132437.235565) can0 080#A807
(1718132437.246017) can0 425#0000
(1718132437.246162) can0 080#A807
(1718132437.255417) can0 425#0000
(1718132437.255565) can0 080#A907
(1718132437.266014) can0 425#0000
(1718132437.266162) can0 080#A907
(1718132437.269850) can0 100#00000060
(1718132437.275419) can0 425#0000
(1718132437.275540) can0 080#A907
(1718132437.286015) can0 425#0000
(1718132437.286161) can0 080#A907
(1718132437.295422) can0 425#0000
(1718132437.295561) can0 080#A707
(1718132437.306020) can0 425#0000
(1718132437.306186) can0 080#A707
(1718132437.315421) can0 425#0000
(1718132437.315564) can0 080#A807
(1718132437.326014) can0 425#0000
(1718132437.326157) can0 080#A807
(1718132437.335416) can0 425#0000
(1718132437.335539) can0 080#A707
(1718132437.346014) can0 425#0000
(1718132437.346161) can0 080#A707
(1718132437.355415) can0 425#0000
(1718132437.355563) can0 080#A707
(1718132437.366009) can0 425#0000
(1718132437.366160) can0 080#A707
(1718132437.371487) can0 100#00000060
(1718132437.375409) can0 425#0000
(1718132437.375538) can0 080#A707
(1718132437.386020) can0 425#0000
(1718132437.386160) can0 080#A707
(1718132437.395413) can0 425#0000
(1718132437.395562) can0 080#A707
(1718132437.406018) can0 425#0000
(1718132437.406185) can0 080#A707
(1718132437.415419) can0 425#0000
(1718132437.415563) can0 080#A707
(1718132437.426018) can0 425#0000
(1718132437.426159) can0 080#A707
(1718132437.435418) can0 425#0000
(1718132437.435567) can0 080#A707
(1718132437.446018) can0 425#0000
(1718132437.446159) can0 080#A707
(1718132437.455417) can0 425#0000
(1718132437.455562) can0 080#A707
(1718132437.466017) can0 425#0000
(1718132437.466159) can0 080#A707
(1718132437.472908) can0 100#00000060
(1718132437.475417) can0 425#0000
(1718132437.475561) can0 080#A607
(1718132437.486008) can0 425#0000
(1718132437.486158) can0 080#A607
(1718132437.495408) can0 425#0000
(1718132437.495537) can0 080#A707
(1718132437.506036) can0 425#0000
(1718132437.506183) can0 080#A707
(1718132437.515411) can0 425#0000
(1718132437.515561) can0 080#A707
(1718132437.526011) can0 425#0000
(1718132437.526158) can0 080#A707
(1718132437.535421) can0 425#0000
(1718132437.535542) can0 080#A607
(1718132437.546016) can0 425#0000
(1718132437.546157) can0 080#A607
(1718132437.555418) can0 425#0000
(1718132437.555561) can0 080#A607
(1718132437.565986) can0 425#0000
(1718132437.566157) can0 080#A607
(1718132437.574187) can0 100#00000060
(1718132437.575416) can0 425#0000
(1718132437.575535) can0 080#A907
(1718132437.586016) can0 425#0000
(1718132437.586157) can0 080#A907
(1718132437.595410) can0 425#0000
(1718132437.595560) can0 080#A707
(1718132437.606019) can0 425#0000
(1718132437.606157) can0 080#A707
(1718132437.615423) can0 425#0000
(1718132437.615535) can0 080#A607
(1718132437.625984) can0 425#0000
(1718132437.626156) can0 080#A607
(1718132437.635410) can0 425#0000
(1718132437.635560) can0 080#A707
(1718132437.646015) can0 425#0000
(1718132437.646156) can0 080#A707
(1718132437.655435) can0 425#0000
(1718132437.655540) can0 080#A807
(1718132437.666015) can0 425#0000
(1718132437.666155) can0 080#A807
(1718132437.675423) can0 100#00000060
(1718132437.675558) can0 425#0000
(1718132437.675708) can0 080#A807
(1718132437.686009) can0 425#0000
(1718132437.686158) can0 080#A807
(1718132437.695416) can0 425#0000
(1718132437.695533) can0 080#A807
(1718132437.706009) can0 425#0000
(1718132437.706155) can0 080#A807
(1718132437.715408) can0 425#0000
(1718132437.715558) can0 080#A707
(1718132437.725979) can0 425#0000
(1718132437.726155) can0 080#A707
(1718132437.735414) can0 425#0000
(1718132437.735532) can0 080#A607
(1718132437.746013) can0 425#0000
(1718132437.746155) can0 080#A607
(1718132437.755413) can0 425#0000
(1718132437.755558) can0 080#A507
(1718132437.766007) can0 425#0000
(1718132437.766154) can0 080#A507
(1718132437.775407) can0 425#0000
(1718132437.775532) can0 080#A607
(1718132437.776838) can0 100#00000060
(1718132437.786013) can0 425#0000
(1718132437.786153) can0 080#A607
(1718132437.795407) can0 425#0000
(1718132437.795556) can0 080#A607
(1718132437.806012) can0 425#0000
(1718132437.806152) can0 080#A607
(1718132437.815407) can0 425#0000
(1718132437.815532) can0 080#A307
(1718132437.826012) can0 425#0000
(1718132437.826153) can0 080#A307
(1718132437.835412) can0 425#0000
(1718132437.835556) can0 080#A407
(1718132437.846006) can0 425#0000
(1718132437.846153) can0 080#A407
(1718132437.855406) can0 425#0000
(1718132437.855556) can0 080#A107
(1718132437.866012) can0 425#0000
(1718132437.866153) can0 080#A107
(1718132437.875406) can0 425#0000
(1718132437.875555) can0 080#A207
(1718132437.878133) can0 100#00000060
(1718132437.885981) can0 425#0000
(1718132437.886153) can0 080#A207
(1718132437.895406) can0 425#0000
(1718132437.895530) can0 080#A207
(1718132437.906029) can0 425#0000
(1718132437.906169) can0 080#A207
(1718132437.915410) can0 425#0000
(1718132437.915555) can0 080#A207
(1718132437.926006) can0 425#0000
(1718132437.926149) can0 080#A207
(1718132437.935410) can0 425#0000
(1718132437.935530) can0 080#A207
(1718132437.946010) can0 425#0000
(1718132437.946152) can0 080#A207
(1718132437.955411) can0 425#0000
(1718132437.955555) can0 080#A207
(1718132437.965986) can0 425#0000
(1718132437.966151) can0 080#A207
(1718132437.975428) can0 425#0000
(1718132437.975535) can0 080#A107
(1718132437.979533) can0 100#00000060
(1718132437.986009) can0 425#0000
(1718132437.986151) can0 080#A107
(1718132437.995410) can0 425#0000
(1718132437.995554) can0 080#A007
(1718132438.006010) can0 425#0000
(1718132438.006176) can0 080#A007
(1718132438.015404) can0 425#0000
(1718132438.015554) can0 080#A007
(1718132438.025979) can0 425#0000
(1718132438.026150) can0 080#A007
(1718132438.035403) can0 425#0000
(1718132438.035553) can0 080#9C07
(1718132438.045978) can0 425#0000
(1718132438.046173) can0 080#9C07
(1718132438.055409) can0 425#0000
(1718132438.055528) can0 080#9807
(1718132438.065978) can0 425#0000
(1718132438.066150) can0 080#9807
(1718132438.075408) can0 425#0000
(1718132438.075552) can0 080#9307
(1718132438.080764) can0 100#00000060
(1718132438.085985) can0 425#0000
(1718132438.086149) can0 080#9307
(1718132438.095403) can0 425#0000
(1718132438.095527) can0 080#9007
(1718132438.105985) can0 425#0000
(1718132438.106149) can0 080#9007
(1718132438.115418) can0 425#0000
(1718132438.115533) can0 080#8E07
(1718132438.125982) can0 425#0000
(1718132438.126148) can0 080#8E07
(1718132438.135402) can0 425#0000
(1718132438.135527) can0 080#8B07
(1718132438.145977) can0 425#0000
(1718132438.146148) can0 080#8B07
(1718132438.155402) can0 425#0000
(1718132438.155552) can0 080#8A07
(1718132438.165976) can0 425#0000
(1718132438.166123) can0 080#8A07
(1718132438.175407) can0 425#0000
(1718132438.175524) can0 080#8A07
(1718132438.182379) can0 100#00000060
(1718132438.185984) can0 425#0000
(1718132438.186147) can0 080#8A07
(1718132438.195401) can0 425#0000
(1718132438.195550) can0 080#8B07
(1718132438.206001) can0 425#0000
(1718132438.206148) can0 080#8B07
(1718132438.215401) can0 425#0000
(1718132438.215525) can0 080#8B07
(1718132438.225976) can0 425#0000
(1718132438.226150) can0 080#8B07
(1718132438.235406) can0 425#0000
(1718132438.235525) can0 080#8A07
(1718132438.246000) can0 425#0000
(1718132438.246147) can0 080#8A07
(1718132438.255406) can0 425#0000
(1718132438.255526) can0 080#8A07
(1718132438.265975) can0 425#0000
(1718132438.266147) can0 080#8A07
(1718132438.275406) can0 425#0000
(1718132438.275525) can0 080#8907
(1718132438.283673) can0 100#00000060
(1718132438.285981) can0 425#0000
(1718132438.286146) can0 080#8907
(1718132438.295400) can0 425#0000
(1718132438.295520) can0 080#8D07
(1718132438.305974) can0 425#0000
(1718132438.306146) can0 080#8D07
(1718132438.315399) can0 425#0000
(1718132438.315524) can0 080#8A07
(1718132438.325974) can0 425#0000
(1718132438.326146) can0 080#8A07
(1718132438.335404) can0 425#0000
(1718132438.335524) can0 080#8807
(1718132438.345974) can0 425#0000
(1718132438.346146) can0 080#8807
(1718132438.355399) can0 425#0000
(1718132438.355523) can0 080#8607
(1718132438.365974) can0 425#0000
(1718132438.366145) can0 080#8607
(1718132438.375405) can0 425#0000
(1718132438.375523) can0 080#8607
(1718132438.385109) can0 100#00000060
(1718132438.385981) can0 425#0000
(1718132438.386145) can0 080#8607
(1718132438.395398) can0 425#0000
(1718132438.395523) can0 080#8607
(1718132438.405979) can0 425#0000
(1718132438.406144) can0 080#8607
(1718132438.415398) can0 425#0000
(1718132438.415519) can0 080#8507
(1718132438.425998) can0 425#0000
(1718132438.426145) can0 080#8507
(1718132438.435398) can0 425#0000
(1718132438.435547) can0 080#8507
(1718132438.445980) can0 425#0000
(1718132438.446144) can0 080#8507
(1718132438.455403) can0 425#0000
(1718132438.455523) can0 080#8607
(1718132438.465972) can0 425#0000
(1718132438.466144) can0 080#8607
(1718132438.475403) can0 425#0000
(1718132438.475522) can0 080#8607
(1718132438.485972) can0 425#0000
(1718132438.486144) can0 080#8607
(1718132438.486521) can0 100#00000060
(1718132438.495403) can0 425#0000
(1718132438.495521) can0 080#8507
(1718132438.505971) can0 425#0000
(1718132438.506143) can0 080#8507
(1718132438.515396) can0 425#0000
(1718132438.515521) can0 080#8707
(1718132438.525979) can0 425#0000
(1718132438.526143) can0 080#8707
(1718132438.535402) can0 425#0000
(1718132438.535526) can0 080#8407
(1718132438.545971) can0 425#0000
(1718132438.546146) can0 080#8407
(1718132438.555402) can0 425#0000
(1718132438.555546) can0 080#8507
(1718132438.565976) can0 425#0000
(1718132438.566142) can0 080#8507
(1718132438.575401) can0 425#0000
(1718132438.575520) can0 080#8207
(1718132438.585976) can0 425#0000
(1718132438.586143) can0 080#8207
(1718132438.588071) can0 100#00000060
(1718132438.595395) can0 425#0000
(1718132438.595545) can0 080#8207
(1718132438.605970) can0 425#0000
(1718132438.606145) can0 080#8207
(1718132438.615370) can0 425#0000
(1718132438.615520) can0 080#8107
(1718132438.625994) can0 425#0000
(1718132438.626141) can0 080#8107
(1718132438.635395) can0 425#0000
(1718132438.635544) can0 080#8007
(1718132438.645969) can0 425#0000
(1718132438.646141) can0 080#8007
(1718132438.655400) can0 425#0000
(1718132438.655519) can0 080#8107
(1718132438.665975) can0 425#0000
(1718132438.666141) can0 080#8107
(1718132438.675393) can0 425#0000
(1718132438.675519) can0 080#8007
(1718132438.685968) can0 425#0000
(1718132438.686145) can0 080#8007
(1718132438.689547) can0 100#00000060
(1718132438.695400) can0 425#0000
(1718132438.695519) can0 080#8007
(1718132438.705968) can0 425#0000
(1718132438.706140) can0 080#8007
(1718132438.715399) can0 425#0000
(1718132438.715544) can0 080#7E07
(1718132438.725974) can0 425#0000
(1718132438.726140) can0 080#7E07
(1718132438.735393) can0 425#0000
(1718132438.735518) can0 080#7B07
(1718132438.745974) can0 425#0000
(1718132438.746139) can0 080#7B07
(1718132438.755393) can0 425#0000
(1718132438.755518) can0 080#7A07
(1718132438.765973) can0 425#0000
(1718132438.766114) can0 080#7A07
(1718132438.775392) can0 425#0000
(1718132438.775517) can0 080#7A07
(1718132438.785972) can0 425#0000
(1718132438.786139) can0 080#7A07
(1718132438.790923) can0 100#00000060
(1718132438.795393) can0 425#0000
(1718132438.795517) can0 080#7907
(1718132438.805968) can0 425#0000
(1718132438.806138) can0 080#7907
(1718132438.815397) can0 425#0000
(1718132438.815521) can0 080#7B07
(1718132438.825972) can0 425#0000
(1718132438.826138) can0 080#7B07
(1718132438.835397) can0 425#0000
(1718132438.835517) can0 080#7907
(1718132438.845966) can0 425#0000
(1718132438.846138) can0 080#7907
(1718132438.855396) can0 425#0000
(1718132438.855516) can0 080#7A07
(1718132438.865966) can0 425#0000
(1718132438.866113) can0 080#7A07
(1718132438.875397) can0 425#0000
(1718132438.875516) can0 080#7A07
(1718132438.885967) can0 425#0000
(1718132438.886138) can0 080#7A07
(1718132438.892262) can0 100#00000060
(1718132438.895397) can0 425#0000
(1718132438.895515) can0 080#7B07
(1718132438.905965) can0 425#0000
(1718132438.906138) can0 080#7B07
(1718132438.915386) can0 425#0000
(1718132438.915515) can0 080#7907
(1718132438.925971) can0 425#0000
(1718132438.926136) can0 080#7907
(1718132438.935392) can0 425#0000
(1718132438.935515) can0 080#7C07
(1718132438.945965) can0 425#0000
(1718132438.946112) can0 080#7C07
(1718132438.955390) can0 425#0000
(1718132438.955515) can0 080#7907
(1718132438.965970) can0 425#0000
(1718132438.966137) can0 080#7907
(1718132438.975395) can0 425#0000
(1718132438.975514) can0 080#7907
(1718132438.985965) can0 425#0000
(1718132438.986111) can0 080#7907
(1718132438.993614) can0 100#00000060
(1718132438.995389) can0 425#0000
(1718132438.995514) can0 080#7A07
(1718132439.005972) can0 425#0000
(1718132439.006136) can0 080#7A07
(1718132439.015389) can0 425#0000
(1718132439.015516) can0 080#7A07
(1718132439.025970) can0 425#0000
(1718132439.026142) can0 080#7A07
(1718132439.035390) can0 425#0000
(1718132439.035513) can0 080#7A07
(1718132439.045969) can0 425#0000
(1718132439.046135) can0 080#7A07
(1718132439.055393) can0 425#0000
(1718132439.055513) can0 080#7907
(1718132439.065968) can0 425#0000
(1718132439.066138) can0 080#7907
(1718132439.075393) can0 425#0000
(1718132439.075513) can0 080#7907
(1718132439.085963) can0 425#0000
(1718132439.086135) can0 080#7907
(1718132439.094939) can0 100#00000060
(1718132439.095365) can0 425#0000
(1718132439.095513) can0 080#7807
(1718132439.105963) can0 425#0000
(1718132439.106134) can0 080#7807
(1718132439.115395) can0 425#0000
(1718132439.115513) can0 080#7607
(1718132439.125968) can0 425#0000
(1718132439.126133) can0 080#7607
(1718132439.135391) can0 425#0000
(1718132439.135511) can0 080#7407
(1718132439.145958) can0 425#0000
(1718132439.146133) can0 080#7407
(1718132439.155392) can0 425#0000
(1718132439.155511) can0 080#7307
(1718132439.165967) can0 425#0000
(1718132439.166108) can0 080#7307
(1718132439.175392) can0 425#0000
(1718132439.175511) can0 080#7507
(1718132439.185962) can0 425#0000
(1718132439.186109) can0 080#7507
(1718132439.195386) can0 425#0000
(1718132439.195511) can0 080#7407
(1718132439.196511) can0 100#00000060
(1718132439.205961) can0 425#0000
(1718132439.206133) can0 080#7407
(1718132439.215361) can0 425#0000
(1718132439.215510) can0 080#7407
(1718132439.225966) can0 425#0000
(1718132439.226133) can0 080#7407
(1718132439.235392) can0 425#0000
(1718132439.235511) can0 080#7307
(1718132439.245966) can0 425#0000
(1718132439.246116) can0 080#7307
(1718132439.255365) can0 425#0000
(1718132439.255510) can0 080#7307
(1718132439.265961) can0 425#0000
(1718132439.266106) can0 080#7307
(1718132439.275385) can0 425#0000
(1718132439.275510) can0 080#7407
(1718132439.285960) can0 425#0000
(1718132439.286132) can0 080#7407
(1718132439.295392) can0 425#0000
(1718132439.295509) can0 080#7607
(1718132439.297906) can0 100#00000060
(1718132439.305959) can0 425#0000
(1718132439.306131) can0 080#7607
(1718132439.315391) can0 425#0000
(1718132439.315509) can0 080#7407
(1718132439.325959) can0 425#0000
(1718132439.326131) can0 080#7407
(1718132439.335360) can0 425#0000
(1718132439.335509) can0 080#7307
(1718132439.345964) can0 425#0000
(1718132439.346126) can0 080#7307
(1718132439.355390) can0 425#0000
(1718132439.355508) can0 080#7407
(1718132439.365966) can0 425#0000
(1718132439.366131) can0 080#7407
(1718132439.375358) can0 425#0000
(1718132439.375508) can0 080#7307
(1718132439.385965) can0 425#0000
(1718132439.386130) can0 080#7307
(1718132439.395389) can0 425#0000
(1718132439.395508) can0 080#7307
(1718132439.399285) can0 100#00000060
(1718132439.405965) can0 425#0000
(1718132439.406130) can0 080#7307
(1718132439.415383) can0 425#0000
(1718132439.415511) can0 080#7307
(1718132439.425958) can0 425#0000
(1718132439.426130) can0 080#7307
(1718132439.435383) can0 425#0000
(1718132439.435507) can0 080#7307
(1718132439.445963) can0 425#0000
(1718132439.446129) can0 080#7307
(1718132439.455358) can0 425#0000
(1718132439.455507) can0 080#7207
(1718132439.465962) can0 425#0000
(1718132439.466125) can0 080#7207
(1718132439.475387) can0 425#0000
(1718132439.475507) can0 080#7307
(1718132439.485963) can0 425#0000
(1718132439.486129) can0 080#7307
(1718132439.495394) can0 425#0000
(1718132439.495507) can0 080#7407
(1718132439.500631) can0 100#00000060
(1718132439.505962) can0 425#0000
(1718132439.506129) can0 080#7407
(1718132439.515387) can0 425#0000
(1718132439.515506) can0 080#7307
(1718132439.525962) can0 425#0000
(1718132439.526128) can0 080#7307
(1718132439.535362) can0 425#0000
(1718132439.535506) can0 080#7407
(1718132439.545961) can0 425#0000
(1718132439.546128) can0 080#7407
(1718132439.555381) can0 425#0000
(1718132439.555509) can0 080#7207
(1718132439.565956) can0 425#0000
(1718132439.566128) can0 080#7207
(1718132439.575357) can0 425#0000
(1718132439.575505) can0 080#7107
(1718132439.585956) can0 425#0000
(1718132439.586102) can0 080#7107
(1718132439.595403) can0 425#0000
(1718132439.595507) can0 080#6F07
(1718132439.602160) can0 100#00000060
(1718132439.605962) can0 425#0000
(1718132439.606127) can0 080#6F07
(1718132439.615360) can0 425#0000
(1718132439.615506) can0 080#6C07
(1718132439.625955) can0 425#0000
(1718132439.626126) can0 080#6C07
(1718132439.635385) can0 425#0000
(1718132439.635505) can0 080#6907
(1718132439.645960) can0 425#0000
(1718132439.646101) can0 080#6907
(1718132439.655359) can0 425#0000
(1718132439.655504) can0 080#6A07
(1718132439.665959) can0 425#0000
(1718132439.666104) can0 080#6A07
(1718132439.675379) can0 425#0000
(1718132439.675504) can0 080#6807
(1718132439.685954) can0 425#0000
(1718132439.686129) can0 080#6807
(1718132439.695384) can0 425#0000
(1718132439.695503) can0 080#6707
(1718132439.703578) can0 100#00000060
(1718132439.705959) can0 425#0000
(1718132439.706131) can0 080#6707
(1718132439.715378) can0 425#0000
(1718132439.715499) can0 080#6707
(1718132439.725954) can0 425#0000
(1718132439.726128) can0 080#6707
(1718132439.735353) can0 425#0000
(1718132439.735502) can0 080#6507
(1718132439.745949) can0 425#0000
(1718132439.746099) can0 080#6507
(1718132439.755378) can0 425#0000
(1718132439.755503) can0 080#6507
(1718132439.765958) can0 425#0000
(1718132439.766124) can0 080#6507
(1718132439.775358) can0 425#0000
(1718132439.775503) can0 080#6507
(1718132439.785952) can0 425#0000
(1718132439.786099) can0 080#6507
(1718132439.795382) can0 425#0000
(1718132439.795502) can0 080#6507
(1718132439.805040) can0 100#00000060
(1718132439.805958) can0 425#0000
(1718132439.806099) can0 080#6507
(1718132439.815357) can0 425#0000
(1718132439.815502) can0 080#6507
(1718132439.825951) can0 425#0000
(1718132439.826123) can0 080#6507
(1718132439.835380) can0 425#0000
(1718132439.835501) can0 080#6407
(1718132439.845951) can0 425#0000
(1718132439.846098) can0 080#6407
(1718132439.855356) can0 425#0000
(1718132439.855501) can0 080#6507
(1718132439.865948) can0 425#0000
(1718132439.866098) can0 080#6507
(1718132439.875357) can0 425#0000
(1718132439.875501) can0 080#6507
(1718132439.885958) can0 425#0000
(1718132439.886098) can0 080#6507
(1718132439.895351) can0 425#0000
(1718132439.895501) can0 080#6407
(1718132439.905951) can0 425#0000
(1718132439.906124) can0 080#6407
(1718132439.906330) can0 100#00000060
(1718132439.915355) can0 425#0000
(1718132439.915501) can0 080#6407
(1718132439.925956) can0 425#0000
(1718132439.926097) can0 080#6407
(1718132439.935350) can0 425#0000
(1718132439.935503) can0 080#6407
(1718132439.945949) can0 425#0000
(1718132439.946121) can0 080#6407
(1718132439.955381) can0 425#0000
(1718132439.955508) can0 080#6407
(1718132439.965955) can0 425#0000
(1718132439.966122) can0 080#6407
(1718132439.975355) can0 425#0000
(1718132439.975499) can0 080#6507
(1718132439.985954) can0 425#0000
(1718132439.986096) can0 080#6507
(1718132439.995379) can0 425#0000
(1718132439.995499) can0 080#6307
(1718132440.005949) can0 425#0000
(1718132440.006096) can0 080#6307
(1718132440.007599) can0 100#00000060
(1718132440.015352) can0 425#0000
(1718132440.015474) can0 080#6407
(1718132440.025954) can0 425#0000
(1718132440.026095) can0 080#6407
(1718132440.035353) can0 425#0000
(1718132440.035498) can0 080#6407
(1718132440.045953) can0 425#0000
(1718132440.046099) can0 080#6407
(1718132440.055349) can0 425#0000
(1718132440.055501) can0 080#6307
(1718132440.065948) can0 425#0000
(1718132440.066099) can0 080#6307
(1718132440.075348) can0 425#0000
(1718132440.075498) can0 080#6307
(1718132440.085976) can0 425#0000
(1718132440.086091) can0 080#6307
(1718132440.095354) can0 425#0000
(1718132440.095497) can0 080#6407
(1718132440.105962) can0 425#0000
(1718132440.106095) can0 080#6407
(1718132440.108910) can0 100#00000060
(1718132440.115351) can0 425#0000
(1718132440.115497) can0 080#6407
(1718132440.125947) can0 425#0000
(1718132440.126124) can0 080#6407
(1718132440.135352) can0 425#0000
(1718132440.135498) can0 080#6307
(1718132440.145953) can0 425#0000
(1718132440.146094) can0 080#6307
(1718132440.155378) can0 425#0000
(1718132440.155497) can0 080#6307
(1718132440.165951) can0 425#0000
(1718132440.166094) can0 080#6307
(1718132440.175352) can0 425#0000
(1718132440.175471) can0 080#6307
(1718132440.185952) can0 425#0000
(1718132440.186093) can0 080#6307
(1718132440.195352) can0 425#0000
(1718132440.195496) can0 080#6407
(1718132440.205952) can0 425#0000
(1718132440.206093) can0 080#6407
(1718132440.210173) can0 100#00000060
(1718132440.215347) can0 425#0000
(1718132440.215496) can0 080#6407
(1718132440.225946) can0 425#0000
(1718132440.226092) can0 080#6407
(1718132440.235346) can0 425#0000
(1718132440.235496) can0 080#6307
(1718132440.245946) can0 425#0000
(1718132440.246117) can0 080#6307
(1718132440.255347) can0 425#0000
(1718132440.255495) can0 080#6407
(1718132440.265953) can0 425#0000
(1718132440.266092) can0 080#6407
(1718132440.275364) can0 425#0000
(1718132440.275495) can0 080#6307
(1718132440.285950) can0 425#0000
(1718132440.286092) can0 080#6307
(1718132440.295354) can0 425#0000
(1718132440.295469) can0 080#6407
(1718132440.305951) can0 425#0000
(1718132440.306088) can0 080#6407
(1718132440.311618) can0 100#00000060
(1718132440.315352) can0 425#0000
(1718132440.315495) can0 080#6407
(1718132440.325952) can0 425#0000
(1718132440.326092) can0 080#6407
(1718132440.335344) can0 425#0000
(1718132440.335484) can0 080#6307
(1718132440.345949) can0 425#0000
(1718132440.346116) can0 080#6307
(1718132440.355350) can0 425#0000
(1718132440.355494) can0 080#6307
(1718132440.365950) can0 425#0000
(1718132440.366091) can0 080#6307
(1718132440.375344) can0 425#0000
(1718132440.375494) can0 080#6407
(1718132440.385944) can0 425#0000
(1718132440.386091) can0 080#6407
(1718132440.395375) can0 425#0000
(1718132440.395493) can0 080#6307
(1718132440.405943) can0 425#0000
(1718132440.406090) can0 080#6307
(1718132440.413139) can0 100#00000060
(1718132440.415344) can0 425#0000
(1718132440.415493) can0 080#6307
(1718132440.425948) can0 425#0000
(1718132440.426086) can0 080#6307
(1718132440.435342) can0 425#0000
(1718132440.435495) can0 080#6307
(1718132440.445942) can0 425#0000
(1718132440.446090) can0 080#6307
(1718132440.455342) can0 425#0000
(1718132440.455492) can0 080#6307
(1718132440.465947) can0 425#0000
(1718132440.466089) can0 080#6307
(1718132440.475367) can0 425#0000
(1718132440.475492) can0 080#6207
(1718132440.485948) can0 425#0000
(1718132440.486089) can0 080#6207
(1718132440.495348) can0 425#0000
(1718132440.495492) can0 080#6307
(1718132440.505948) can0 425#0000
(1718132440.506088) can0 080#6307
(1718132440.514491) can0 100#00000060
(1718132440.515339) can0 425#0000
(1718132440.515502) can0 080#6307
(1718132440.525941) can0 425#0000
(1718132440.526088) can0 080#6307
(1718132440.535346) can0 425#0000
(1718132440.535491) can0 080#6307
(1718132440.545942) can0 425#0000
(1718132440.546088) can0 080#6307
(1718132440.555347) can0 425#0000
(1718132440.555491) can0 080#6407
(1718132440.565937) can0 425#0000
(1718132440.566088) can0 080#6407
(1718132440.575343) can0 425#0000
(1718132440.575466) can0 080#6307
(1718132440.585947) can0 425#0000
(1718132440.586088) can0 080#6307
(1718132440.595370) can0 425#0000
(1718132440.595490) can0 080#6307
(1718132440.605946) can0 425#0000
(1718132440.606087) can0 080#6307
(1718132440.615340) can0 425#0000
(1718132440.615465) can0 080#6307
(1718132440.615802) can0 100#00000060
(1718132440.625946) can0 425#0000
(1718132440.626087) can0 080#6307
(1718132440.635345) can0 425#0000
(1718132440.635490) can0 080#6207
(1718132440.645939) can0 425#0000
(1718132440.646111) can0 080#6207
(1718132440.655346) can0 425#0000
(1718132440.655464) can0 080#6307
(1718132440.665945) can0 425#0000
(1718132440.666096) can0 080#6307
(1718132440.675344) can0 425#0000
(1718132440.675497) can0 080#6307
(1718132440.685940) can0 425#0000
(1718132440.686082) can0 080#6307
(1718132440.695335) can0 425#0000
(1718132440.695489) can0 080#6307
(1718132440.705939) can0 425#0000
(1718132440.706085) can0 080#6307
(1718132440.715340) can0 425#0000
(1718132440.715489) can0 080#6207
(1718132440.717093) can0 100#00000060
(1718132440.725938) can0 425#0000
(1718132440.726086) can0 080#6207
(1718132440.735338) can0 425#0000
(1718132440.735463) can0 080#6207
(1718132440.745939) can0 425#0000
(1718132440.746085) can0 080#6207
(1718132440.755344) can0 425#0000
(1718132440.755487) can0 080#6307
(1718132440.765938) can0 425#0000
(1718132440.766085) can0 080#6307
(1718132440.775355) can0 425#0000
(1718132440.775462) can0 080#6407
(1718132440.785942) can0 425#0000
(1718132440.786084) can0 080#6407
(1718132440.795343) can0 425#0000
(1718132440.795491) can0 080#6307
(1718132440.805939) can0 425#0000
(1718132440.806084) can0 080#6307
(1718132440.815333) can0 425#0000
(1718132440.815487) can0 080#6307
(1718132440.818440) can0 100#00000060
(1718132440.825942) can0 425#0000
(1718132440.826084) can0 080#6307
(1718132440.835342) can0 425#0000
(1718132440.835486) can0 080#6207
(1718132440.845941) can0 425#0000
(1718132440.846083) can0 080#6207
(1718132440.855342) can0 425#0000
(1718132440.855490) can0 080#6407
(1718132440.865942) can0 425#0000
(1718132440.866083) can0 080#6407
(1718132440.875336) can0 425#0000
(1718132440.875489) can0 080#6207
(1718132440.885936) can0 425#0000
(1718132440.886083) can0 080#6207
(1718132440.895336) can0 425#0000
(1718132440.895502) can0 080#6307
(1718132440.905936) can0 425#0000
(1718132440.906083) can0 080#6307
(1718132440.915341) can0 425#0000
(1718132440.915485) can0 080#6307
(1718132440.919687) can0 100#00000060
(1718132440.925938) can0 425#0000
(1718132440.926083) can0 080#6307
(1718132440.935335) can0 425#0000
(1718132440.935460) can0 080#6307
(1718132440.945940) can0 425#0000
(1718132440.946082) can0 080#6307
(1718132440.955335) can0 425#0000
(1718132440.955485) can0 080#6307
(1718132440.965941) can0 425#0000
(1718132440.966081) can0 080#6307
(1718132440.975335) can0 425#0000
(1718132440.975460) can0 080#6307
(1718132440.985915) can0 425#0000
(1718132440.986082) can0 080#6307
(1718132440.995334) can0 425#0000
(1718132440.995485) can0 080#6307
(1718132441.005940) can0 425#0000
(1718132441.006081) can0 080#6307
(1718132441.015334) can0 425#0000
(1718132441.015459) can0 080#6207
(1718132441.021091) can0 100#00000060
(1718132441.025939) can0 425#0000
(1718132441.026081) can0 080#6207
(1718132441.035339) can0 425#0000
(1718132441.035493) can0 080#6207
(1718132441.045934) can0 425#0000
(1718132441.046108) can0 080#6207
(1718132441.055340) can0 425#0000
(1718132441.055459) can0 080#6307
(1718132441.065933) can0 425#0000
(1718132441.066083) can0 080#6307
(1718132441.075333) can0 425#0000
(1718132441.075462) can0 080#6307
(1718132441.085933) can0 425#0000
(1718132441.086080) can0 080#6307
(1718132441.095338) can0 425#0000
(1718132441.095483) can0 080#6107
(1718132441.105938) can0 425#0000
(1718132441.106080) can0 080#6107
(1718132441.115338) can0 425#0000
(1718132441.115482) can0 080#5B07
(1718132441.122432) can0 100#00000060
(1718132441.125913) can0 425#0000
(1718132441.126077) can0 080#5B07
(1718132441.135338) can0 425#0000
(1718132441.135457) can0 080#5307
(1718132441.145932) can0 425#0000
(1718132441.146089) can0 080#5307
(1718132441.155332) can0 425#0000
(1718132441.155485) can0 080#4F07
(1718132441.165909) can0 425#0000
(1718132441.166054) can0 080#4F07
(1718132441.175338) can0 425#0000
(1718132441.175457) can0 080#4B07
(1718132441.185937) can0 425#0000
(1718132441.186079) can0 080#4B07
(1718132441.195332) can0 425#0000
(1718132441.195481) can0 080#4B07
(1718132441.205936) can0 425#0000
(1718132441.206086) can0 080#4B07
(1718132441.215334) can0 425#0000
(1718132441.215456) can0 080#4A07
(1718132441.223947) can0 100#00000060
(1718132441.225931) can0 425#0000
(1718132441.226083) can0 080#4A07
(1718132441.235331) can0 425#0000
(1718132441.235481) can0 080#4907
(1718132441.245930) can0 425#0000
(1718132441.246077) can0 080#4907
(1718132441.255331) can0 425#0000
(1718132441.255456) can0 080#4A07
(1718132441.265905) can0 425#0000
(1718132441.266080) can0 080#4A07
(1718132441.275341) can0 425#0000
(1718132441.275480) can0 080#4907
(1718132441.285915) can0 425#0000
(1718132441.286076) can0 080#4907
(1718132441.295344) can0 425#0000
(1718132441.295454) can0 080#4A07
(1718132441.305939) can0 425#0000
(1718132441.306077) can0 080#4A07
(1718132441.315333) can0 425#0000
(1718132441.315458) can0 080#4907
(1718132441.325260) can0 100#00000060
(1718132441.325680) can0 425#0000
(1718132441.325826) can0 080#4907
(1718132441.335305) can0 425#0000
(1718132441.335455) can0 080#4907
(1718132441.345929) can0 425#0000
(1718132441.346101) can0 080#4907
(1718132441.355336) can0 425#0000
(1718132441.355457) can0 080#4907
(1718132441.365936) can0 425#0000
(1718132441.366072) can0 080#4907
(1718132441.375335) can0 425#0000
(1718132441.375475) can0 080#4907
(1718132441.385904) can0 425#0000
(1718132441.386075) can0 080#4907
(1718132441.395334) can0 425#0000
(1718132441.395453) can0 080#4907
(1718132441.405926) can0 425#0000
(1718132441.406075) can0 080#4907
(1718132441.415328) can0 425#0000
(1718132441.415478) can0 080#4907
(1718132441.425903) can0 425#0000
(1718132441.426074) can0 080#4907
(1718132441.426683) can0 100#00000060
(1718132441.435344) can0 425#0000
(1718132441.435453) can0 080#4707
(1718132441.445905) can0 425#0000
(1718132441.446075) can0 080#4707
(1718132441.455333) can0 425#0000
(1718132441.455477) can0 080#4907
(1718132441.465909) can0 425#0000
(1718132441.466074) can0 080#4907
(1718132441.475332) can0 425#0000
(1718132441.475452) can0 080#4807
(1718132441.485927) can0 425#0000
(1718132441.486079) can0 080#4807
(1718132441.495333) can0 425#0000
(1718132441.495484) can0 080#4907
(1718132441.505927) can0 425#0000
(1718132441.506074) can0 080#4907
(1718132441.515327) can0 425#0000
(1718132441.515452) can0 080#4807
(1718132441.525902) can0 425#0000
(1718132441.526073) can0 080#4807
(1718132441.528248) can0 100#00000060
(1718132441.535326) can0 425#0000
(1718132441.535476) can0 080#4607
(1718132441.545927) can0 425#0000
(1718132441.546073) can0 080#4607
(1718132441.555333) can0 425#0000
(1718132441.555451) can0 080#4907
(1718132441.565931) can0 425#0000
(1718132441.566072) can0 080#4907
(1718132441.575331) can0 425#0000
(1718132441.575466) can0 080#4907
(1718132441.585925) can0 425#0000
(1718132441.586072) can0 080#4907
(1718132441.595331) can0 425#0000
(1718132441.595451) can0 080#4707
(1718132441.605906) can0 425#0000
(1718132441.606072) can0 080#4707
(1718132441.615325) can0 425#0000
(1718132441.615475) can0 080#4807
(1718132441.625900) can0 425#0000
(1718132441.626077) can0 080#4807
(1718132441.629779) can0 100#00000060
(1718132441.635325) can0 425#0000
(1718132441.635449) can0 080#4807
(1718132441.645925) can0 425#0000
(1718132441.646072) can0 080#4807
(1718132441.655330) can0 425#0000
(1718132441.655474) can0 080#4807
(1718132441.665930) can0 425#0000
(1718132441.666071) can0 080#4807
(1718132441.675330) can0 425#0000
(1718132441.675449) can0 080#4907
(1718132441.685932) can0 425#0000
(1718132441.686071) can0 080#4907
(1718132441.695329) can0 425#0000
(1718132441.695474) can0 080#4707
(1718132441.705904) can0 425#0000
(1718132441.706071) can0 080#4707
(1718132441.715329) can0 425#0000
(1718132441.715449) can0 080#4707
(1718132441.725904) can0 425#0000
(1718132441.726073) can0 080#4707
(1718132441.731036) can0 100#00000060
(1718132441.735333) can0 425#0000
(1718132441.735445) can0 080#4807
(1718132441.745903) can0 425#0000
(1718132441.746070) can0 080#4807
(1718132441.755323) can0 425#0000
(1718132441.755448) can0 080#4807
(1718132441.765923) can0 425#0000
(1718132441.766070) can0 080#4807
(1718132441.775323) can0 425#0000
(1718132441.775448) can0 080#4707
(1718132441.785928) can0 425#0000
(1718132441.786070) can0 080#4707
(1718132441.795323) can0 425#0000
(1718132441.795448) can0 080#4707
(1718132441.805898) can0 425#0000
(1718132441.806072) can0 080#4707
(1718132441.815322) can0 425#0000
(1718132441.815475) can0 080#4807
(1718132441.825922) can0 425#0000
(1718132441.826085) can0 080#4807
(1718132441.832422) can0 100#00000060
(1718132441.835329) can0 425#0000
(1718132441.835447) can0 080#4607
(1718132441.845910) can0 425#0000
(1718132441.846069) can0 080#4607
(1718132441.855327) can0 425#0000
(1718132441.855452) can0 080#4807
(1718132441.865902) can0 425#0000
(1718132441.866069) can0 080#4807
(1718132441.875327) can0 425#0000
(1718132441.875446) can0 080#4707
(1718132441.885902) can0 425#0000
(1718132441.886068) can0 080#4707
(1718132441.895327) can0 425#0000
(1718132441.895471) can0 080#4607
(1718132441.905902) can0 425#0000
(1718132441.906068) can0 080#4607
(1718132441.915326) can0 425#0000
(1718132441.915445) can0 080#4807
(1718132441.925901) can0 425#0000
(1718132441.926068) can0 080#4807
(1718132441.933672) can0 100#00000060
(1718132441.935321) can0 425#0000
(1718132441.935445) can0 080#4607
(1718132441.945901) can0 425#0000
(1718132441.946067) can0 080#4607
(1718132441.955333) can0 425#0000
(1718132441.955445) can0 080#4707
(1718132441.965895) can0 425#0000
(1718132441.966069) can0 080#4707
(1718132441.975320) can0 425#0000
(1718132441.975444) can0 080#4607
(1718132441.985900) can0 425#0000
(1718132441.986066) can0 080#4607
(1718132441.995323) can0 425#0000
(1718132441.995444) can0 080#4707
(1718132442.005902) can0 425#0000
(1718132442.006066) can0 080#4707
(1718132442.015325) can0 425#0000
(1718132442.015444) can0 080#4707
(1718132442.025901) can0 425#0000
(1718132442.026041) can0 080#4707
(1718132442.034915) can0 100#00000060
(1718132442.035315) can0 425#0000
(1718132442.035444) can0 080#4607
(1718132442.045900) can0 425#0000
(1718132442.046066) can0 080#4607
(1718132442.055319) can0 425#0000
(1718132442.055444) can0 080#4807
(1718132442.065900) can0 425#0000
(1718132442.066065) can0 080#4807
(1718132442.075318) can0 425#0000
(1718132442.075443) can0 080#4707
(1718132442.085901) can0 425#0000
(1718132442.086040) can0 080#4707
(1718132442.095318) can0 425#0000
(1718132442.095443) can0 080#4207
(1718132442.105900) can0 425#0000
(1718132442.106093) can0 080#4207
(1718132442.115319) can0 425#0000
(1718132442.115442) can0 080#3907
(1718132442.125899) can0 425#0000
(1718132442.126039) can0 080#3907
(1718132442.135318) can0 425#0000
(1718132442.135442) can0 080#3407
(1718132442.136094) can0 100#00000060
(1718132442.145893) can0 425#0000
(1718132442.146064) can0 080#3407
(1718132442.155318) can0 425#0000
(1718132442.155442) can0 080#3307
(1718132442.165892) can0 425#0000
(1718132442.166039) can0 080#3307
(1718132442.175322) can0 425#0000
(1718132442.175441) can0 080#3007
(1718132442.185892) can0 425#0000
(1718132442.186064) can0 080#3007
(1718132442.195322) can0 425#0000
(1718132442.195441) can0 080#2F07
(1718132442.205907) can0 425#0000
(1718132442.206063) can0 080#2F07
(1718132442.215322) can0 425#0000
(1718132442.215441) can0 080#2F07
(1718132442.225898) can0 425#0000
(1718132442.226063) can0 080#2F07
(1718132442.235317) can0 425#0000
(1718132442.235441) can0 080#2F07
(1718132442.237490) can0 100#00000060
(1718132442.245892) can0 425#0000
(1718132442.246064) can0 080#2F07
(1718132442.255321) can0 425#0000
(1718132442.255441) can0 080#2F07
(1718132442.265897) can0 425#0000
(1718132442.266063) can0 080#2F07
(1718132442.275295) can0 425#0000
(1718132442.275441) can0 080#3007
(1718132442.285891) can0 425#0000
(1718132442.286062) can0 080#3007
(1718132442.295315) can0 425#0000
(1718132442.295439) can0 080#3107
(1718132442.305901) can0 425#0000
(1718132442.306062) can0 080#3107
(1718132442.315315) can0 425#0000
(1718132442.315440) can0 080#3007
(1718132442.325891) can0 425#0000
(1718132442.326062) can0 080#3007
(1718132442.335315) can0 425#0000
(1718132442.335440) can0 080#2E07
(1718132442.338755) can0 100#00000060
(1718132442.345896) can0 425#0000
(1718132442.346062) can0 080#2E07
(1718132442.355322) can0 425#0000
(1718132442.355439) can0 080#2F07
(1718132442.365897) can0 425#0000
(1718132442.366061) can0 080#2F07
(1718132442.375314) can0 425#0000
(1718132442.375439) can0 080#2F07
(1718132442.385895) can0 425#0000
(1718132442.386061) can0 080#2F07
(1718132442.395314) can0 425#0000
(1718132442.395444) can0 080#3007
(1718132442.405895) can0 425#0000
(1718132442.406060) can0 080#3007
(1718132442.415314) can0 425#0000
(1718132442.415438) can0 080#2F07
(1718132442.425895) can0 425#0000
(1718132442.426060) can0 080#2F07
(1718132442.435313) can0 425#0000
(1718132442.435438) can0 080#2E07
(1718132442.440134) can0 100#00000060
(1718132442.445893) can0 425#0000
(1718132442.446061) can0 080#2E07
(1718132442.455318) can0 425#0000
(1718132442.455437) can0 080#2F07
(1718132442.465889) can0 425#0000
(1718132442.466059) can0 080#2F07
(1718132442.475283) can0 425#0000
(1718132442.475440) can0 080#2E07
(1718132442.485887) can0 425#0000
(1718132442.486059) can0 080#2E07
(1718132442.495312) can0 425#0000
(1718132442.495437) can0 080#2F07
(1718132442.505887) can0 425#0000
(1718132442.506059) can0 080#2F07
(1718132442.515312) can0 425#0000
(1718132442.515437) can0 080#2E07
(1718132442.525894) can0 425#0000
(1718132442.526059) can0 080#2E07
(1718132442.535318) can0 425#0000
(1718132442.535436) can0 080#2F07
(1718132442.541486) can0 100#00000060
(1718132442.545894) can0 425#0000
(1718132442.546059) can0 080#2F07
(1718132442.555286) can0 425#0000
(1718132442.555436) can0 080#2E07
(1718132442.565892) can0 425#0000
(1718132442.566058) can0 080#2E07
(1718132442.575311) can0 425#0000
(1718132442.575435) can0 080#2F07
(1718132442.585887) can0 425#0000
(1718132442.586057) can0 080#2F07
(1718132442.595316) can0 425#0000
(1718132442.595435) can0 080#2F07
(1718132442.605888) can0 425#0000
(1718132442.606057) can0 080#2F07
(1718132442.615311) can0 425#0000
(1718132442.615435) can0 080#2F07
(1718132442.625893) can0 425#0000
(1718132442.626035) can0 080#2F07
(1718132442.635285) can0 425#0000
(1718132442.635438) can0 080#2E07
(1718132442.642764) can0 100#00000060
(1718132442.645885) can0 425#0000
(1718132442.646056) can0 080#2E07
(1718132442.655338) can0 425#0000
(1718132442.655435) can0 080#2D07
(1718132442.665885) can0 425#0000
(1718132442.666057) can0 080#2D07
(1718132442.675285) can0 425#0000
(1718132442.675434) can0 080#2E07
(1718132442.685884) can0 425#0000
(1718132442.686056) can0 080#2E07
(1718132442.695309) can0 425#0000
(1718132442.695434) can0 080#2E07
(1718132442.705881) can0 425#0000
(1718132442.706057) can0 080#2E07
(1718132442.715298) can0 425#0000
(1718132442.715433) can0 080#3007
(1718132442.725884) can0 425#0000
(1718132442.726030) can0 080#3007
(1718132442.735316) can0 425#0000
(1718132442.735433) can0 080#2D07
(1718132442.744120) can0 100#00000060
(1718132442.745890) can0 425#0000
(1718132442.746055) can0 080#2D07
(1718132442.755289) can0 425#0000
(1718132442.755433) can0 080#2F07
(1718132442.765891) can0 425#0000
(1718132442.766055) can0 080#2F07
(1718132442.775313) can0 425#0000
(1718132442.775433) can0 080#2E07
(1718132442.785890) can0 425#0000
(1718132442.786051) can0 080#2E07
(1718132442.795288) can0 425#0000
(1718132442.795433) can0 080#2E07
(1718132442.805890) can0 425#0000
(1718132442.806055) can0 080#2E07
(1718132442.815314) can0 425#0000
(1718132442.815432) can0 080#2C07
(1718132442.825890) can0 425#0000
(1718132442.826055) can0 080#2C07
(1718132442.835282) can0 425#0000
(1718132442.835432) can0 080#2E07
(1718132442.845456) can0 100#00000060
(1718132442.845678) can0 425#0000
(1718132442.845829) can0 080#2E07
(1718132442.855312) can0 425#0000
(1718132442.855432) can0 080#2E07
(1718132442.865882) can0 425#0000
(1718132442.866054) can0 080#2E07
(1718132442.875281) can0 425#0000
(1718132442.875432) can0 080#2E07
(1718132442.885888) can0 425#0000
(1718132442.886028) can0 080#2E07
(1718132442.895306) can0 425#0000
(1718132442.895432) can0 080#2E07
(1718132442.905882) can0 425#0000
(1718132442.906061) can0 080#2E07
(1718132442.915286) can0 425#0000
(1718132442.915431) can0 080#2D07
(1718132442.925887) can0 425#0000
(1718132442.926052) can0 080#2D07
(1718132442.935311) can0 425#0000
(1718132442.935431) can0 080#2D07
(1718132442.945887) can0 425#0000
(1718132442.946027) can0 080#2D07
(1718132442.946682) can0 100#00000060
(1718132442.955285) can0 425#0000
(1718132442.955430) can0 080#2E07
(1718132442.965881) can0 425#0000
(1718132442.966052) can0 080#2E07
(1718132442.975311) can0 425#0000
(1718132442.975436) can0 080#2B07
(1718132442.985880) can0 425#0000
(1718132442.986027) can0 080#2B07
(1718132442.995280) can0 425#0000
(1718132442.995430) can0 080#2D07
(1718132443.005881) can0 425#0000
(1718132443.006052) can0 080#2D07
(1718132443.015305) can0 425#0000
(1718132443.015430) can0 080#2D07
(1718132443.025879) can0 425#0000
(1718132443.026052) can0 080#2D07
(1718132443.035285) can0 425#0000
(1718132443.035425) can0 080#2D07
(1718132443.045886) can0 425#0000
(1718132443.046051) can0 080#2D07
(1718132443.048016) can0 100#00000060
(1718132443.055309) can0 425#0000
(1718132443.055428) can0 080#2E07
(1718132443.065882) can0 425#0000
(1718132443.066051) can0 080#2E07
(1718132443.075279) can0 425#0000
(1718132443.075429) can0 080#2E07
(1718132443.085885) can0 425#0000
(1718132443.086050) can0 080#2E07
(1718132443.095309) can0 425#0000
(1718132443.095428) can0 080#2E07
(1718132443.105878) can0 425#0000
(1718132443.106025) can0 080#2E07
(1718132443.115283) can0 425#0000
(1718132443.115428) can0 080#2D07
(1718132443.125884) can0 425#0000
(1718132443.126025) can0 080#2D07
(1718132443.135308) can0 425#0000
(1718132443.135427) can0 080#2D07
(1718132443.145883) can0 425#0000
(1718132443.146021) can0 080#2D07
(1718132443.149324) can0 100#00000060
(1718132443.155277) can0 425#0000
(1718132443.155423) can0 080#2F07
(1718132443.165878) can0 425#0000
(1718132443.166024) can0 080#2F07
(1718132443.175302) can0 425#0000
(1718132443.175427) can0 080#2C07
(1718132443.185877) can0 425#0000
(1718132443.186048) can0 080#2C07
(1718132443.195280) can0 425#0000
(1718132443.195426) can0 080#2E07
(1718132443.205882) can0 425#0000
(1718132443.206024) can0 080#2E07
(1718132443.215307) can0 425#0000
(1718132443.215426) can0 080#2D07
(1718132443.225876) can0 425#0000
(1718132443.226048) can0 080#2D07
(1718132443.235282) can0 425#0000
(1718132443.235426) can0 080#2D07
(1718132443.245882) can0 425#0000
(1718132443.246023) can0 080#2D07
(1718132443.250655) can0 100#00000060
(1718132443.255306) can0 425#0000
(1718132443.255426) can0 080#2F07
(1718132443.265876) can0 425#0000
(1718132443.266019) can0 080#2F07
(1718132443.275281) can0 425#0000
(1718132443.275421) can0 080#2D07
(1718132443.285882) can0 425#0000
(1718132443.286047) can0 080#2D07
(1718132443.295307) can0 425#0000
(1718132443.295425) can0 080#2E07
(1718132443.305876) can0 425#0000
(1718132443.306022) can0 080#2E07
(1718132443.315282) can0 425#0000
(1718132443.315425) can0 080#2D07
(1718132443.325876) can0 425#0000
(1718132443.326022) can0 080#2D07
(1718132443.335302) can0 425#0000
(1718132443.335424) can0 080#2D07
(1718132443.345881) can0 425#0000
(1718132443.346046) can0 080#2D07
(1718132443.352238) can0 100#00000060
(1718132443.355280) can0 425#0000
(1718132443.355425) can0 080#2D07
(1718132443.365881) can0 425#0000
(1718132443.366046) can0 080#2D07
(1718132443.375280) can0 425#0000
(1718132443.375424) can0 080#2D07
(1718132443.385882) can0 425#0000
(1718132443.386042) can0 080#2D07
(1718132443.395281) can0 425#0000
(1718132443.395424) can0 080#2E07
(1718132443.405874) can0 425#0000
(1718132443.406021) can0 080#2E07
(1718132443.415305) can0 425#0000
(1718132443.415423) can0 080#2D07
(1718132443.425881) can0 425#0000
(1718132443.426046) can0 080#2D07
(1718132443.435279) can0 425#0000
(1718132443.435398) can0 080#2C07
(1718132443.445878) can0 425#0000
(1718132443.446020) can0 080#2C07
(1718132443.453656) can0 100#00000060
(1718132443.455278) can0 425#0000
(1718132443.455423) can0 080#2D07
(1718132443.465873) can0 425#0000
(1718132443.466045) can0 080#2D07
(1718132443.475278) can0 425#0000
(1718132443.475398) can0 080#2C07
(1718132443.485878) can0 425#0000
(1718132443.486045) can0 080#2C07
(1718132443.495277) can0 425#0000
(1718132443.495422) can0 080#2D07
(1718132443.505878) can0 425#0000
(1718132443.506040) can0 080#2D07
(1718132443.515272) can0 425#0000
(1718132443.515422) can0 080#2D07
(1718132443.525872) can0 425#0000
(1718132443.526019) can0 080#2D07
(1718132443.535294) can0 425#0000
(1718132443.535421) can0 080#2D07
(1718132443.545878) can0 425#0000
(1718132443.546018) can0 080#2D07
(1718132443.555159) can0 100#00000060
(1718132443.555306) can0 425#0000
(1718132443.555449) can0 080#2E07
(1718132443.565874) can0 425#0000
(1718132443.566018) can0 080#2E07
(1718132443.575279) can0 425#0000
(1718132443.575421) can0 080#2E07
(1718132443.585873) can0 425#0000
(1718132443.586043) can0 080#2E07
(1718132443.595278) can0 425#0000
(1718132443.595395) can0 080#2F07
(1718132443.605871) can0 425#0000
(1718132443.606018) can0 080#2F07
(1718132443.615276) can0 425#0000
(1718132443.615420) can0 080#2B07
(1718132443.625870) can0 425#0000
(1718132443.626018) can0 080#2B07
(1718132443.635270) can0 425#0000
(1718132443.635420) can0 080#2107
(1718132443.645875) can0 425#0000
(1718132443.646032) can0 080#2107
(1718132443.655270) can0 425#0000
(1718132443.655420) can0 080#1407
(1718132443.656545) can0 100#00000060
(1718132443.665878) can0 425#0000
(1718132443.666042) can0 080#1407
(1718132443.675277) can0 425#0000
(1718132443.675420) can0 080#0C07
(1718132443.685870) can0 425#0000
(1718132443.686045) can0 080#0C07
(1718132443.695274) can0 425#0000
(1718132443.695419) can0 080#0807
(1718132443.705875) can0 425#0000
(1718132443.706016) can0 080#0807
(1718132443.715275) can0 425#0000
(1718132443.715419) can0 080#0707
(1718132443.725875) can0 425#0000
(1718132443.726016) can0 080#0707
(1718132443.735269) can0 425#0000
(1718132443.735419) can0 080#0507
(1718132443.745874) can0 425#0000
(1718132443.746015) can0 080#0507
(1718132443.755286) can0 425#0000
(1718132443.755418) can0 080#0707
(1718132443.757870) can0 100#00000060
(1718132443.765874) can0 425#0000
(1718132443.766015) can0 080#0707
(1718132443.775273) can0 425#0000
(1718132443.775418) can0 080#0707
(1718132443.785873) can0 425#0000
(1718132443.786040) can0 080#0707
(1718132443.795274) can0 425#0000
(1718132443.795418) can0 080#0707
(1718132443.805870) can0 425#0000
(1718132443.806015) can0 080#0707
(1718132443.815273) can0 425#0000
(1718132443.815417) can0 080#0607
(1718132443.825867) can0 425#0000
(1718132443.826014) can0 080#0607
(1718132443.835273) can0 425#0000
(1718132443.835417) can0 080#0607
(1718132443.845872) can0 425#0000
(1718132443.846014) can0 080#0607
(1718132443.855272) can0 425#0000
(1718132443.855417) can0 080#0607
(1718132443.859218) can0 100#00000060
(1718132443.865873) can0 425#0000
(1718132443.866039) can0 080#0607
(1718132443.875272) can0 425#0000
(1718132443.875416) can0 080#0607
(1718132443.885863) can0 425#0000
(1718132443.886018) can0 080#0607
(1718132443.895297) can0 425#0000
(1718132443.895416) can0 080#0607
(1718132443.905866) can0 425#0000
(1718132443.906013) can0 080#0607
(1718132443.915272) can0 425#0000
(1718132443.915415) can0 080#0707
(1718132443.925871) can0 425#0000
(1718132443.926013) can0 080#0707
(1718132443.935271) can0 425#0000
(1718132443.935415) can0 080#0607
(1718132443.945872) can0 425#0000
(1718132443.946013) can0 080#0607
(1718132443.955271) can0 425#0000
(1718132443.955416) can0 080#0607
(1718132443.960565) can0 100#00000060
(1718132443.965873) can0 425#0000
(1718132443.966037) can0 080#0607
(1718132443.975271) can0 425#0000
(1718132443.975415) can0 080#0607
(1718132443.985867) can0 425#0000
(1718132443.986037) can0 080#0607
(1718132443.995279) can0 425#0000
(1718132443.995415) can0 080#0507
(1718132444.005874) can0 425#0000
(1718132444.006070) can0 080#0507
(1718132444.015319) can0 425#0000
(1718132444.015463) can0 080#0707
(1718132444.025877) can0 425#0000
(1718132444.026063) can0 080#0707
(1718132444.035348) can0 425#0000
(1718132444.035394) can0 080#0507
(1718132444.045877) can0 425#0000
(1718132444.046011) can0 080#0507
(1718132444.055277) can0 425#0000
(1718132444.055414) can0 080#0607
(1718132444.061985) can0 100#00000060
(1718132444.065865) can0 425#0000
(1718132444.066012) can0 080#0607
(1718132444.075266) can0 425#0000
(1718132444.075388) can0 080#0707
(1718132444.085875) can0 425#0000
(1718132444.086011) can0 080#0707
(1718132444.095342) can0 425#0000
(1718132444.095413) can0 080#0607
(1718132444.105866) can0 425#0000
(1718132444.106010) can0 080#0607
(1718132444.115264) can0 425#0000
(1718132444.115413) can0 080#0707
(1718132444.125865) can0 425#0000
(1718132444.126009) can0 080#0707
(1718132444.135263) can0 425#0000
(1718132444.135413) can0 080#0407
(1718132444.145864) can0 425#0000
(1718132444.146009) can0 080#0407
(1718132444.155277) can0 425#0000
(1718132444.155413) can0 080#0007
(1718132444.163415) can0 100#00000060
(1718132444.165864) can0 425#0000
(1718132444.166009) can0 080#0007
(1718132444.175263) can0 425#0000
(1718132444.175415) can0 080#0007
(1718132444.185868) can0 425#0000
(1718132444.186034) can0 080#0007
(1718132444.195262) can0 425#0000
(1718132444.195412) can0 080#0007
(1718132444.205869) can0 425#0000
(1718132444.206008) can0 080#0007
(1718132444.215267) can0 425#0000
(1718132444.215412) can0 080#FF06
(1718132444.225867) can0 425#0000
(1718132444.226008) can0 080#FF06
(1718132444.235267) can0 425#0000
(1718132444.235411) can0 080#0007
(1718132444.245874) can0 425#0000
(1718132444.246008) can0 080#0007
(1718132444.255270) can0 425#0000
(1718132444.255410) can0 080#0007
(1718132444.264907) can0 100#00000060
(1718132444.265867) can0 425#0000
(1718132444.266008) can0 080#0007
(1718132444.275261) can0 425#0000
(1718132444.275385) can0 080#0107
(1718132444.285861) can0 425#0000
(1718132444.286007) can0 080#0107
(1718132444.295266) can0 425#0000
(1718132444.295410) can0 080#FF06
(1718132444.305861) can0 425#0000
(1718132444.306008) can0 080#FF06
(1718132444.315269) can0 425#0000
(1718132444.315410) can0 080#FF06
(1718132444.325866) can0 425#0000
(1718132444.326006) can0 080#FF06
(1718132444.335263) can0 425#0000
(1718132444.335410) can0 080#FF06
(1718132444.345859) can0 425#0000
(1718132444.346007) can0 080#FF06
(1718132444.355262) can0 425#0000
(1718132444.355384) can0 080#FE06
(1718132444.365860) can0 425#0000
(1718132444.366024) can0 080#FE06
(1718132444.366255) can0 100#00000060
(1718132444.375272) can0 425#0000
(1718132444.375409) can0 080#FF06
(1718132444.385866) can0 425#0000
(1718132444.386007) can0 080#FF06
(1718132444.395262) can0 425#0000
(1718132444.395384) can0 080#FF06
(1718132444.405865) can0 425#0000
(1718132444.406006) can0 080#FF06
(1718132444.415264) can0 425#0000
(1718132444.415408) can0 080#FF06
(1718132444.425838) can0 425#0000
(1718132444.426006) can0 080#FF06
(1718132444.435258) can0 425#0000
(1718132444.435383) can0 080#FE06
(1718132444.445858) can0 425#0000
(1718132444.446005) can0 080#FE06
(1718132444.455281) can0 425#0000
(1718132444.455383) can0 080#FF06
(1718132444.465857) can0 425#0000
(1718132444.466005) can0 080#FF06
(1718132444.467729) can0 100#00000060
(1718132444.475258) can0 425#0000
(1718132444.475383) can0 080#0007
(1718132444.485857) can0 425#0000
(1718132444.486007) can0 080#0007
(1718132444.495263) can0 425#0000
(1718132444.495408) can0 080#FE06
(1718132444.505857) can0 425#0000
(1718132444.506004) can0 080#FE06
(1718132444.515263) can0 425#0000
(1718132444.515418) can0 080#FE06
(1718132444.525837) can0 425#0000
(1718132444.526004) can0 080#FE06
(1718132444.535256) can0 425#0000
(1718132444.535407) can0 080#FF06
(1718132444.545837) can0 425#0000
(1718132444.546004) can0 080#FF06
(1718132444.555262) can0 425#0000
(1718132444.555381) can0 080#FE06
(1718132444.565862) can0 425#0000
(1718132444.565999) can0 080#FE06
(1718132444.569065) can0 100#00000060
(1718132444.575253) can0 425#0000
(1718132444.575402) can0 080#FE06
(1718132444.585866) can0 425#0000
(1718132444.586028) can0 080#FE06
(1718132444.595262) can0 425#0000
(1718132444.595406) can0 080#0007
(1718132444.605856) can0 425#0000
(1718132444.606027) can0 080#0007
(1718132444.615256) can0 425#0000
(1718132444.615409) can0 080#FF06
(1718132444.625856) can0 425#0000
(1718132444.626002) can0 080#FF06
(1718132444.635261) can0 425#0000
(1718132444.635381) can0 080#FF06
(1718132444.645862) can0 425#0000
(1718132444.646002) can0 080#FF06
(1718132444.655260) can0 425#0000
(1718132444.655405) can0 080#FE06
(1718132444.665860) can0 425#0000
(1718132444.666002) can0 080#FE06
(1718132444.670529) can0 100#00000060
(1718132444.675260) can0 425#0000
(1718132444.675380) can0 080#FE06
(1718132444.685860) can0 425#0000
(1718132444.686003) can0 080#FE06
(1718132444.695255) can0 425#0000
(1718132444.695401) can0 080#FF06
(1718132444.705829) can0 425#0000
(1718132444.706003) can0 080#FF06
(1718132444.715283) can0 425#0000
(1718132444.715379) can0 080#FE06
(1718132444.725840) can0 425#0000
(1718132444.726001) can0 080#FE06
(1718132444.735254) can0 425#0000
(1718132444.735407) can0 080#FD06
(1718132444.745864) can0 425#0000
(1718132444.746000) can0 080#FD06
(1718132444.755254) can0 425#0000
(1718132444.755379) can0 080#FF06
(1718132444.765854) can0 425#0000
(1718132444.766001) can0 080#FF06
(1718132444.775253) can0 425#0000
(1718132444.775403) can0 080#FE06
(1718132444.785828) can0 425#0000
(1718132444.786003) can0 080#FE06
(1718132444.795258) can0 425#0000
(1718132444.795378) can0 080#FF06
(1718132444.805829) can0 425#0000
(1718132444.805996) can0 080#FF06
(1718132444.815259) can0 425#0000
(1718132444.815374) can0 080#FF06
(1718132444.825828) can0 425#0000
(1718132444.825999) can0 080#FF06
(1718132444.835258) can0 425#0000
(1718132444.835376) can0 080#FD06
(1718132444.845831) can0 425#0000
(1718132444.845999) can0 080#FD06
(1718132444.855252) can0 425#0000
(1718132444.855380) can0 080#FE06
(1718132444.865856) can0 425#0000
(1718132444.865999) can0 080#FE06
(1718132444.875252) can0 425#0000
