(1715866826.978970) can0 425#0000
(1715866826.979080) can0 080#9707
(1715866826.989071) can0 425#0000
(1715866826.989217) can0 080#9707
(1715866826.998970) can0 425#0000
(1715866826.999080) can0 080#9707
(1715866827.009068) can0 425#0000
(1715866827.009193) can0 080#9707
(1715866827.018952) can0 425#0000
(1715866827.019084) can0 080#9707
(1715866827.029068) can0 425#0000
(1715866827.029216) can0 080#9707
(1715866827.038986) can0 425#0000
(1715866827.039079) can0 080#9707
(1715866827.049084) can0 425#0000
(1715866827.049216) can0 080#9707
(1715866827.058966) can0 425#0000
(1715866827.059080) can0 080#9707
(1715866827.069068) can0 425#0000
(1715866827.069215) can0 080#9707
(1715866827.078967) can0 425#0000
(1715866827.079079) can0 080#9707
(1715866827.089069) can0 425#0000
(1715866827.089217) can0 080#9707
(1715866827.098968) can0 425#0000
(1715866827.099078) can0 080#9707
(1715866827.109068) can0 425#0000
(1715866827.109216) can0 080#9707
(1715866827.118968) can0 425#0000
(1715866827.119079) can0 080#9707
(1715866827.129067) can0 425#0000
(1715866827.129189) can0 080#9707
(1715866827.138967) can0 425#0000
(1715866827.139078) can0 080#9707
(1715866827.149065) can0 425#0000
(1715866827.149190) can0 080#9707
(1715866827.158967) can0 425#0000
(1715866827.159078) can0 080#9707
(1715866827.169065) can0 425#0000
(1715866827.169214) can0 080#9707
(1715866827.178967) can0 425#0000
(1715866827.179078) can0 080#9707
(1715866827.189066) can0 425#0000
(1715866827.189190) can0 080#9707
(1715866827.198965) can0 425#0000
(1715866827.199077) can0 080#9707
(1715866827.209065) can0 425#0000
(1715866827.209189) can0 080#9707
(1715866827.218966) can0 425#0000
(1715866827.219076) can0 080#9707
(1715866827.229066) can0 425#0000
(1715866827.229212) can0 080#9707
(1715866827.238984) can0 425#0000
(1715866827.239079) can0 080#9707
(1715866827.249084) can0 425#0000
(1715866827.249214) can0 080#9707
(1715866827.258983) can0 425#0000
(1715866827.259076) can0 080#9707
(1715866827.269062) can0 425#0000
(1715866827.269213) can0 080#9707
(1715866827.278963) can0 425#0000
(1715866827.279076) can0 080#9707
(1715866827.289065) can0 425#0000
(1715866827.289188) can0 080#9707
(1715866827.298964) can0 425#0000
(1715866827.299078) can0 080#9707
(1715866827.309064) can0 425#0000
(1715866827.309212) can0 080#9707
(1715866827.318964) can0 425#0000
(1715866827.319076) can0 080#9707
(1715866827.329063) can0 425#0000
(1715866827.329187) can0 080#9707
(1715866827.338963) can0 425#0000
(1715866827.339077) can0 080#9707
(1715866827.349063) can0 425#0000
(1715866827.349213) can0 080#9707
(1715866827.358998) can0 425#0000
(1715866827.359065) can0 080#9707
(1715866827.369063) can0 425#0000
(1715866827.369210) can0 080#9707
(1715866827.378963) can0 425#0000
(1715866827.379074) can0 080#9707
(1715866827.389065) can0 425#0000
(1715866827.389188) can0 080#9707
(1715866827.398963) can0 425#0000
(1715866827.399075) can0 080#9707
(1715866827.409062) can0 425#0000
(1715866827.409185) can0 080#9707
(1715866827.418964) can0 425#0000
(1715866827.419075) can0 080#9707
(1715866827.429060) can0 425#0000
(1715866827.429210) can0 080#9707
(1715866827.438980) can0 425#0000
(1715866827.439073) can0 080#9707
(1715866827.449060) can0 425#0000
(1715866827.449209) can0 080#9707
(1715866827.458960) can0 425#0000
(1715866827.459073) can0 080#9707
(1715866827.469059) can0 425#0000
(1715866827.469210) can0 080#9707
(1715866827.478962) can0 425#0000
(1715866827.479073) can0 080#9707
(1715866827.489080) can0 425#0000
(1715866827.489184) can0 080#9707
(1715866827.498961) can0 425#0000
(1715866827.499072) can0 080#9707
(1715866827.509059) can0 425#0000
(1715866827.509184) can0 080#9707
(1715866827.518976) can0 425#0000
(1715866827.519072) can0 080#9707
(1715866827.529061) can0 425#0000
(1715866827.529208) can0 080#9707
(1715866827.538960) can0 425#0000
(1715866827.539071) can0 080#9707
(1715866827.549058) can0 425#0000
(1715866827.549183) can0 080#9707
(1715866827.559003) can0 425#0000
(1715866827.559071) can0 080#9707
(1715866827.569060) can0 425#0000
(1715866827.569209) can0 080#9707
(1715866827.578960) can0 425#0000
(1715866827.579070) can0 080#9707
(1715866827.589060) can0 425#0000
(1715866827.589183) can0 080#9707
(1715866827.598954) can0 425#0000
(1715866827.599072) can0 080#9707
(1715866827.609059) can0 425#0000
(1715866827.609183) can0 080#9707
(1715866827.618959) can0 425#0000
(1715866827.619069) can0 080#9707
(1715866827.629057) can0 425#0000
(1715866827.629182) can0 080#9707
(1715866827.638958) can0 425#0000
(1715866827.639069) can0 080#9707
(1715866827.649735) can0 425#0000
(1715866827.649883) can0 080#9707
(1715866827.658959) can0 425#0000
(1715866827.659070) can0 080#9907
(1715866827.669058) can0 425#0000
(1715866827.669206) can0 080#9907
(1715866827.678955) can0 425#0000
(1715866827.679069) can0 080#9907
(1715866827.689059) can0 425#0000
(1715866827.689206) can0 080#9907
(1715866827.698956) can0 425#0000
(1715866827.699069) can0 080#9907
(1715866827.709082) can0 425#0000
(1715866827.709206) can0 080#9907
(1715866827.718958) can0 425#0000
(1715866827.719069) can0 080#9907
(1715866827.729057) can0 425#0000
(1715866827.729180) can0 080#9907
(1715866827.738956) can0 425#0000
(1715866827.739069) can0 080#9907
(1715866827.749054) can0 425#0000
(1715866827.749180) can0 080#9907
(1715866827.758933) can0 425#0000
(1715866827.759090) can0 080#9907
(1715866827.769075) can0 425#0000
(1715866827.769206) can0 080#9907
(1715866827.778958) can0 425#0000
(1715866827.779069) can0 080#9907
(1715866827.789064) can0 425#0000
(1715866827.789205) can0 080#9907
(1715866827.798957) can0 425#0000
(1715866827.799068) can0 080#9907
(1715866827.809056) can0 425#0000
(1715866827.809180) can0 080#9907
(1715866827.818931) can0 425#0000
(1715866827.819067) can0 080#9907
(1715866827.829056) can0 425#0000
(1715866827.829203) can0 080#9907
(1715866827.838948) can0 425#0000
(1715866827.839069) can0 080#9907
(1715866827.849054) can0 425#0000
(1715866827.849204) can0 080#9907
(1715866827.858953) can0 425#0000
(1715866827.859070) can0 080#9907
(1715866827.869055) can0 425#0000
(1715866827.869204) can0 080#9907
(1715866827.878931) can0 425#0000
(1715866827.879069) can0 080#9907
(1715866827.889074) can0 425#0000
(1715866827.889179) can0 080#9907
(1715866827.898956) can0 425#0000
(1715866827.899066) can0 080#9907
(1715866827.909055) can0 425#0000
(1715866827.909178) can0 080#9907
(1715866827.918927) can0 425#0000
(1715866827.919065) can0 080#9907
(1715866827.929073) can0 425#0000
(1715866827.929203) can0 080#9907
(1715866827.938936) can0 425#0000
(1715866827.939067) can0 080#9907
(1715866827.949111) can0 425#0000
(1715866827.949201) can0 080#9907
(1715866827.958927) can0 425#0000
(1715866827.959064) can0 080#9907
(1715866827.969051) can0 425#0000
(1715866827.969202) can0 080#9907
(1715866827.978952) can0 425#0000
(1715866827.979063) can0 080#9907
(1715866827.989051) can0 425#0000
(1715866827.989201) can0 080#9907
(1715866827.998952) can0 425#0000
(1715866827.999099) can0 080#9907
(1715866828.009051) can0 425#0000
(1715866828.009202) can0 080#9907
(1715866828.018926) can0 425#0000
(1715866828.019064) can0 080#9907
(1715866828.029052) can0 425#0000
(1715866828.029175) can0 080#9907
(1715866828.038952) can0 425#0000
(1715866828.039065) can0 080#9907
(1715866828.049056) can0 425#0000
(1715866828.049200) can0 080#9907
(1715866828.058913) can0 425#0000
(1715866828.059075) can0 080#9907
(1715866828.069050) can0 425#0000
(1715866828.069201) can0 080#9907
(1715866828.078950) can0 425#0000
(1715866828.079075) can0 080#9907
(1715866828.089050) can0 425#0000
(1715866828.089199) can0 080#9907
(1715866828.098913) can0 425#0000
(1715866828.099075) can0 080#9907
(1715866828.109050) can0 425#0000
(1715866828.109174) can0 080#9907
(1715866828.118916) can0 425#0000
(1715866828.119074) can0 080#9907
(1715866828.129052) can0 425#0000
(1715866828.129173) can0 080#9907
(1715866828.138941) can0 425#0000
(1715866828.139074) can0 080#9907
(1715866828.149067) can0 425#0000
(1715866828.149200) can0 080#9907
(1715866828.158916) can0 425#0000
(1715866828.159074) can0 080#9907
(1715866828.169048) can0 425#0000
(1715866828.169199) can0 080#9907
(1715866828.178941) can0 425#0000
(1715866828.179074) can0 080#9907
(1715866828.189050) can0 425#0000
(1715866828.189209) can0 080#9907
(1715866828.198916) can0 425#0000
(1715866828.199108) can0 080#9907
(1715866828.209071) can0 425#0000
(1715866828.209198) can0 080#9907
(1715866828.218915) can0 425#0000
(1715866828.219072) can0 080#9907
(1715866828.229049) can0 425#0000
(1715866828.229172) can0 080#9907
(1715866828.238915) can0 425#0000
(1715866828.239072) can0 080#9907
(1715866828.249065) can0 425#0000
(1715866828.249198) can0 080#9907
(1715866828.258914) can0 425#0000
(1715866828.259072) can0 080#9907
(1715866828.269049) can0 425#0000
(1715866828.269196) can0 080#9907
(1715866828.278914) can0 425#0000
(1715866828.279072) can0 080#9907
(1715866828.289048) can0 425#0000
(1715866828.289172) can0 080#9907
(1715866828.298913) can0 425#0000
(1715866828.299071) can0 080#9907
(1715866828.309068) can0 425#0000
(1715866828.309174) can0 080#9907
(1715866828.318939) can0 425#0000
(1715866828.319070) can0 080#9907
(1715866828.329045) can0 425#0000
(1715866828.329170) can0 080#9907
(1715866828.338937) can0 425#0000
(1715866828.339072) can0 080#9907
(1715866828.349047) can0 425#0000
(1715866828.349171) can0 080#9907
(1715866828.358913) can0 425#0000
(1715866828.359070) can0 080#9907
(1715866828.369047) can0 425#0000
(1715866828.369169) can0 080#9907
(1715866828.378938) can0 425#0000
(1715866828.379069) can0 080#9907
(1715866828.389067) can0 425#0000
(1715866828.389169) can0 080#9907
(1715866828.398912) can0 425#0000
(1715866828.399070) can0 080#9907
(1715866828.409046) can0 425#0000
(1715866828.409170) can0 080#9907
(1715866828.418909) can0 425#0000
(1715866828.419072) can0 080#9907
(1715866828.429044) can0 425#0000
(1715866828.429194) can0 080#9907
(1715866828.438933) can0 425#0000
(1715866828.439070) can0 080#9907
(1715866828.449044) can0 425#0000
(1715866828.449168) can0 080#9907
(1715866828.458911) can0 425#0000
(1715866828.459069) can0 080#9907
(1715866828.469044) can0 425#0000
(1715866828.469167) can0 080#9907
(1715866828.478936) can0 425#0000
(1715866828.479069) can0 080#9907
(1715866828.489046) can0 425#0000
(1715866828.489169) can0 080#9907
(1715866828.498914) can0 425#0000
(1715866828.499070) can0 080#9907
(1715866828.509045) can0 425#0000
(1715866828.509168) can0 080#9907
(1715866828.518909) can0 425#0000
(1715866828.519068) can0 080#9907
(1715866828.529046) can0 425#0000
(1715866828.529166) can0 080#9907
(1715866828.538910) can0 425#0000
(1715866828.539066) can0 080#9907
(1715866828.549042) can0 425#0000
(1715866828.549166) can0 080#9907
(1715866828.558909) can0 425#0000
(1715866828.559068) can0 080#9907
(1715866828.569044) can0 425#0000
(1715866828.569167) can0 080#9907
(1715866828.578906) can0 425#0000
(1715866828.579067) can0 080#9907
(1715866828.589044) can0 425#0000
(1715866828.589166) can0 080#9907
(1715866828.598935) can0 425#0000
(1715866828.599066) can0 080#9907
(1715866828.609043) can0 425#0000
(1715866828.609165) can0 080#9907
(1715866828.618909) can0 425#0000
(1715866828.619065) can0 080#9907
(1715866828.629044) can0 425#0000
(1715866828.629165) can0 080#9907
(1715866828.638908) can0 425#0000
(1715866828.639065) can0 080#9907
(1715866828.649718) can0 425#0000
(1715866828.649865) can0 080#9907
(1715866828.658909) can0 425#0000
(1715866828.659066) can0 080#9707
(1715866828.669059) can0 425#0000
(1715866828.669165) can0 080#9707
(1715866828.678908) can0 425#0000
(1715866828.679065) can0 080#9707
(1715866828.689040) can0 425#0000
(1715866828.689166) can0 080#9707
(1715866828.698903) can0 425#0000
(1715866828.699064) can0 080#9707
(1715866828.709086) can0 425#0000
(1715866828.709190) can0 080#9707
(1715866828.718907) can0 425#0000
(1715866828.719064) can0 080#9707
(1715866828.729060) can0 425#0000
(1715866828.729167) can0 080#9707
(1715866828.738932) can0 425#0000
(1715866828.739063) can0 080#9707
(1715866828.749040) can0 425#0000
(1715866828.749164) can0 080#9707
(1715866828.758909) can0 425#0000
(1715866828.759064) can0 080#9707
(1715866828.769047) can0 425#0000
(1715866828.769164) can0 080#9707
(1715866828.778902) can0 425#0000
(1715866828.779064) can0 080#9707
(1715866828.789058) can0 425#0000
(1715866828.789162) can0 080#9707
(1715866828.798903) can0 425#0000
(1715866828.799063) can0 080#9707
(1715866828.809057) can0 425#0000
(1715866828.809163) can0 080#9707
(1715866828.818903) can0 425#0000
(1715866828.819063) can0 080#9707
(1715866828.829058) can0 425#0000
(1715866828.829162) can0 080#9707
(1715866828.838903) can0 425#0000
(1715866828.839063) can0 080#9707
(1715866828.849037) can0 425#0000
(1715866828.849162) can0 080#9707
(1715866828.858903) can0 425#0000
(1715866828.859062) can0 080#9707
(1715866828.869038) can0 425#0000
(1715866828.869163) can0 080#9707
(1715866828.878905) can0 425#0000
(1715866828.879106) can0 080#9707
(1715866828.889039) can0 425#0000
(1715866828.889162) can0 080#9707
(1715866828.898905) can0 425#0000
(1715866828.899062) can0 080#9707
(1715866828.909040) can0 425#0000
(1715866828.909162) can0 080#9707
(1715866828.918901) can0 425#0000
(1715866828.919062) can0 080#9707
(1715866828.929040) can0 425#0000
(1715866828.929161) can0 080#9707
(1715866828.938903) can0 425#0000
(1715866828.939060) can0 080#9707
(1715866828.949036) can0 425#0000
(1715866828.949160) can0 080#9707
(1715866828.958901) can0 425#0000
(1715866828.959061) can0 080#9707
(1715866828.969038) can0 425#0000
(1715866828.969161) can0 080#9707
(1715866828.978903) can0 425#0000
(1715866828.979060) can0 080#9707
(1715866828.989112) can0 425#0000
(1715866828.989129) can0 080#9707
(1715866828.999023) can0 425#0000
(1715866828.999057) can0 080#9707
(1715866829.009165) can0 425#0000
(1715866829.009198) can0 080#9707
(1715866829.018999) can0 425#0000
(1715866829.019034) can0 080#9707
(1715866829.029128) can0 425#0000
(1715866829.029159) can0 080#9707
(1715866829.039064) can0 425#0000
(1715866829.039097) can0 080#9707
(1715866829.049038) can0 425#0000
(1715866829.049159) can0 080#9707
(1715866829.058933) can0 425#0000
(1715866829.059064) can0 080#9707
(1715866829.069036) can0 425#0000
(1715866829.069158) can0 080#9707
(1715866829.078901) can0 425#0000
(1715866829.079058) can0 080#9707
(1715866829.089053) can0 425#0000
(1715866829.089147) can0 080#9707
(1715866829.098898) can0 425#0000
(1715866829.099059) can0 080#9707
(1715866829.109054) can0 425#0000
(1715866829.109159) can0 080#9707
(1715866829.118900) can0 425#0000
(1715866829.119032) can0 080#9707
(1715866829.129036) can0 425#0000
(1715866829.129158) can0 080#9707
(1715866829.138900) can0 425#0000
(1715866829.139057) can0 080#9707
(1715866829.149035) can0 425#0000
(1715866829.149156) can0 080#9707
(1715866829.158932) can0 425#0000
(1715866829.159037) can0 080#9707
(1715866829.169032) can0 425#0000
(1715866829.169157) can0 080#9707
(1715866829.178900) can0 425#0000
(1715866829.179056) can0 080#9707
(1715866829.189033) can0 425#0000
(1715866829.189156) can0 080#9707
(1715866829.198899) can0 425#0000
(1715866829.199055) can0 080#9707
(1715866829.209050) can0 425#0000
(1715866829.209156) can0 080#9707
(1715866829.218899) can0 425#0000
(1715866829.219058) can0 080#9707
(1715866829.229051) can0 425#0000
(1715866829.229157) can0 080#9707
(1715866829.230297) can0 100#00000000
(1715866829.231847) can0 100#00000000
(1715866829.233466) can0 100#05000000
(1715866829.235105) can0 100#0A000000
(1715866829.236634) can0 100#0F000000
(1715866829.238258) can0 100#14000000
(1715866829.238908) can0 425#0000
(1715866829.239030) can0 080#9707
(1715866829.239795) can0 100#19000000
(1715866829.241449) can0 100#23000000
(1715866829.243058) can0 100#28000000
(1715866829.244698) can0 100#2D000000
(1715866829.246301) can0 100#32000000
(1715866829.247858) can0 100#37000000
(1715866829.249031) can0 425#0000
(1715866829.249155) can0 080#9707
(1715866829.249507) can0 100#3C000000
(1715866829.251082) can0 100#41000000
(1715866829.252633) can0 100#46000000
(1715866829.254288) can0 100#4B000000
(1715866829.255846) can0 100#50000000
(1715866829.257387) can0 100#50000000
(1715866829.258880) can0 425#0000
(1715866829.259080) can0 100#55000000
(1715866829.259215) can0 080#9707
(1715866829.260683) can0 100#5A000000
(1715866829.262285) can0 100#5F000000
(1715866829.263819) can0 100#64000000
(1715866829.265438) can0 100#69000000
(1715866829.267054) can0 100#6E000000
(1715866829.268661) can0 100#73000000
(1715866829.269020) can0 425#0000
(1715866829.269156) can0 080#9707
(1715866829.270321) can0 100#78000000
(1715866829.271861) can0 100#7D000000
(1715866829.273472) can0 100#82000000
(1715866829.275130) can0 100#87000000
(1715866829.276755) can0 100#8C000000
(1715866829.278435) can0 100#91000000
(1715866829.278901) can0 425#0000
(1715866829.279033) can0 080#9707
(1715866829.279999) can0 100#96000000
(1715866829.281596) can0 100#9B000000
(1715866829.283245) can0 100#A0000000
(1715866829.284793) can0 100#A5000000
(1715866829.286295) can0 100#AA000000
(1715866829.287801) can0 100#AF000000
(1715866829.289018) can0 425#0000
(1715866829.289130) can0 080#9707
(1715866829.289374) can0 100#B4000000
(1715866829.290915) can0 100#B9000000
(1715866829.292446) can0 100#BE000000
(1715866829.293999) can0 100#C3000000
(1715866829.295546) can0 100#C8000000
(1715866829.297080) can0 100#CD000000
(1715866829.298623) can0 100#CD000000
(1715866829.298912) can0 425#0000
(1715866829.299054) can0 080#9707
(1715866829.300180) can0 100#D2000000
(1715866829.301798) can0 100#D7000000
(1715866829.303354) can0 100#DC000000
(1715866829.304895) can0 100#E1000000
(1715866829.306434) can0 100#E6000000
(1715866829.307986) can0 100#EB000000
(1715866829.309029) can0 425#0000
(1715866829.309154) can0 080#9707
(1715866829.309531) can0 100#F0000000
(1715866829.311042) can0 100#F5000000
(1715866829.312704) can0 100#FA000000
(1715866829.314254) can0 100#FF000000
(1715866829.315791) can0 100#04010000
(1715866829.317326) can0 100#09010000
(1715866829.318882) can0 100#0E010000
(1715866829.319029) can0 425#0000
(1715866829.319154) can0 080#9707
(1715866829.320409) can0 100#13010000
(1715866829.321998) can0 100#18010000
(1715866829.323506) can0 100#1D010000
(1715866829.325055) can0 100#22010000
(1715866829.326574) can0 100#27010000
(1715866829.328129) can0 100#2C010000
(1715866829.329031) can0 425#0000
(1715866829.329154) can0 080#9707
(1715866829.329668) can0 100#31010000
(1715866829.331258) can0 100#36010000
(1715866829.332769) can0 100#36010000
(1715866829.334435) can0 100#3B010000
(1715866829.335986) can0 100#40010000
(1715866829.337605) can0 100#45010000
(1715866829.338903) can0 425#0000
(1715866829.339018) can0 080#9707
(1715866829.339252) can0 100#4A010000
(1715866829.340899) can0 100#4F010000
(1715866829.342456) can0 100#54010000
(1715866829.343997) can0 100#59010000
(1715866829.345619) can0 100#5E010000
(1715866829.347287) can0 100#63010000
(1715866829.348906) can0 100#68010000
(1715866829.349054) can0 425#0000
(1715866829.349167) can0 080#9707
(1715866829.350512) can0 100#6D010000
(1715866829.352054) can0 100#72010000
(1715866829.353603) can0 100#77010000
(1715866829.355244) can0 100#7C010000
(1715866829.356887) can0 100#81010000
(1715866829.358480) can0 100#86010000
(1715866829.358905) can0 425#0000
(1715866829.359041) can0 080#9707
(1715866829.360029) can0 100#8B010000
(1715866829.361638) can0 100#90010000
(1715866829.363178) can0 100#95010000
(1715866829.364720) can0 100#9A010000
(1715866829.366262) can0 100#9F010000
(1715866829.367807) can0 100#A4010000
(1715866829.369032) can0 425#0000
(1715866829.369157) can0 080#9707
(1715866829.369368) can0 100#A9010000
(1715866829.370906) can0 100#AE010000
(1715866829.372447) can0 100#B3010000
(1715866829.373987) can0 100#B8010000
(1715866829.375544) can0 100#BD010000
(1715866829.377077) can0 100#BD010000
(1715866829.378646) can0 100#C2010000
(1715866829.378909) can0 425#0000
(1715866829.379055) can0 080#9707
(1715866829.380202) can0 100#C7010000
(1715866829.381802) can0 100#CC010000
(1715866829.383344) can0 100#D1010000
(1715866829.384997) can0 100#D6010000
(1715866829.386580) can0 100#DB010000
(1715866829.388127) can0 100#E0010000
(1715866829.389020) can0 425#0000
(1715866829.389153) can0 080#9707
(1715866829.389660) can0 100#E5010000
(1715866829.391329) can0 100#EA010000
(1715866829.392985) can0 100#EF010000
(1715866829.394553) can0 100#F4010000
(1715866829.396102) can0 100#F9010000
(1715866829.397753) can0 100#FE010000
(1715866829.398894) can0 425#0000
(1715866829.399050) can0 080#9707
(1715866829.399294) can0 100#03020000
(1715866829.400838) can0 100#08020000
(1715866829.402368) can0 100#0D020000
(1715866829.403944) can0 100#12020000
(1715866829.405454) can0 100#17020000
(1715866829.406996) can0 100#1C020000
(1715866829.408541) can0 100#21020000
(1715866829.409027) can0 425#0000
(1715866829.409155) can0 080#9707
(1715866829.410103) can0 100#26020000
(1715866829.411619) can0 100#2B020000
(1715866829.413180) can0 100#30020000
(1715866829.414730) can0 100#30020000
(1715866829.416279) can0 100#35020000
(1715866829.417885) can0 100#3A020000
(1715866829.418902) can0 425#0000
(1715866829.419052) can0 080#9707
(1715866829.419443) can0 100#3F020000
(1715866829.421065) can0 100#44020000
(1715866829.422645) can0 100#49020000
(1715866829.424203) can0 100#4E020000
(1715866829.425880) can0 100#53020000
(1715866829.427470) can0 100#58020000
(1715866829.429027) can0 425#0000
(1715866829.429177) can0 100#5D020000
(1715866829.429327) can0 080#9707
(1715866829.430691) can0 100#62020000
(1715866829.432252) can0 100#67020000
(1715866829.433896) can0 100#6C020000
(1715866829.435493) can0 100#71020000
(1715866829.437143) can0 100#76020000
(1715866829.438713) can0 100#7B020000
(1715866829.438939) can0 425#0000
(1715866829.439078) can0 080#9707
(1715866829.440249) can0 100#80020000
(1715866829.441805) can0 100#85020000
(1715866829.443342) can0 100#8A020000
(1715866829.444886) can0 100#8F020000
(1715866829.446417) can0 100#94020000
(1715866829.447997) can0 100#99020000
(1715866829.449027) can0 425#0000
(1715866829.449152) can0 080#9707
(1715866829.449465) can0 100#9E020000
(1715866829.451026) can0 100#A3020000
(1715866829.452570) can0 100#A8020000
(1715866829.454128) can0 100#AD020000
(1715866829.455707) can0 100#AD020000
(1715866829.457312) can0 100#B2020000
(1715866829.458917) can0 100#B7020000
(1715866829.459052) can0 425#0000
(1715866829.459165) can0 080#9707
(1715866829.460571) can0 100#BC020000
(1715866829.462201) can0 100#C1020000
(1715866829.463761) can0 100#C6020000
(1715866829.465368) can0 100#CB020000
(1715866829.467045) can0 100#D0020000
(1715866829.468661) can0 100#D5020000
(1715866829.469028) can0 425#0000
(1715866829.469140) can0 080#9707
(1715866829.470286) can0 100#DA020000
(1715866829.471833) can0 100#DF020000
(1715866829.473492) can0 100#E4020000
(1715866829.475115) can0 100#E9020000
(1715866829.476744) can0 100#EE020000
(1715866829.478353) can0 100#F3020000
(1715866829.478903) can0 425#0000
(1715866829.479015) can0 080#9707
(1715866829.479902) can0 100#F8020000
(1715866829.481530) can0 100#FD020000
(1715866829.483201) can0 100#02030000
(1715866829.484780) can0 100#07030000
(1715866829.486420) can0 100#0C030000
(1715866829.487995) can0 100#11030000
(1715866829.489026) can0 425#0000
(1715866829.489139) can0 080#9707
(1715866829.489503) can0 100#16030000
(1715866829.491051) can0 100#1B030000
(1715866829.492583) can0 100#20030000
(1715866829.494091) can0 100#25030000
(1715866829.495678) can0 100#2A030000
(1715866829.497251) can0 100#2F030000
(1715866829.498779) can0 100#34030000
(1715866829.498917) can0 425#0000
(1715866829.499051) can0 080#9707
(1715866829.500319) can0 100#39030000
(1715866829.501935) can0 100#39030000
(1715866829.503551) can0 100#3E030000
(1715866829.505250) can0 100#43030000
(1715866829.506842) can0 100#48030000
(1715866829.508384) can0 100#4D030000
(1715866829.509016) can0 425#0000
(1715866829.509151) can0 080#9707
(1715866829.509995) can0 100#52030000
(1715866829.511629) can0 100#57030000
(1715866829.513238) can0 100#5C030000
(1715866829.514852) can0 100#61030000
(1715866829.516394) can0 100#66030000
(1715866829.518025) can0 100#6B030000
(1715866829.518890) can0 425#0000
(1715866829.519026) can0 080#9707
(1715866829.519566) can0 100#70030000
(1715866829.521175) can0 100#75030000
(1715866829.522843) can0 100#7A030000
(1715866829.524400) can0 100#7F030000
(1715866829.526051) can0 100#84030000
(1715866829.527686) can0 100#89030000
(1715866829.528998) can0 425#F5FF
(1715866829.529155) can0 080#9707
(1715866829.529329) can0 100#8E030000
(1715866829.530853) can0 100#93030000
(1715866829.532389) can0 100#98030000
(1715866829.533937) can0 100#9D030000
(1715866829.535477) can0 100#A2030000
(1715866829.537026) can0 100#A7030000
(1715866829.538547) can0 100#AC030000
(1715866829.538911) can0 425#F5FF
(1715866829.539053) can0 080#9707
(1715866829.540100) can0 100#B1030000
(1715866829.541629) can0 100#B6030000
(1715866829.543202) can0 100#BB030000
(1715866829.544730) can0 100#C0030000
(1715866829.546275) can0 100#C5030000
(1715866829.547799) can0 100#CA030000
(1715866829.549029) can0 425#0000
(1715866829.549190) can0 080#9707
(1715866829.549341) can0 100#CA030000
(1715866829.550915) can0 100#CF030000
(1715866829.552541) can0 100#D4030000
(1715866829.554201) can0 100#D9030000
(1715866829.555742) can0 100#DE030000
(1715866829.557366) can0 100#E3030000
(1715866829.558901) can0 425#0000
(1715866829.559075) can0 100#E8030000
(1715866829.559188) can0 080#9707
(1715866829.560616) can0 100#ED030000
(1715866829.562176) can0 100#F2030000
(1715866829.563719) can0 100#F7030000
(1715866829.565259) can0 100#FC030000
(1715866829.566801) can0 100#01040000
(1715866829.568334) can0 100#06040000
(1715866829.569027) can0 425#0000
(1715866829.569138) can0 080#9707
(1715866829.569994) can0 100#0B040000
(1715866829.571505) can0 100#10040000
(1715866829.573050) can0 100#15040000
(1715866829.574575) can0 100#1A040000
(1715866829.576128) can0 100#1F040000
(1715866829.577667) can0 100#24040000
(1715866829.578893) can0 425#0000
(1715866829.579009) can0 080#9707
(1715866829.579254) can0 100#29040000
(1715866829.580754) can0 100#2E040000
(1715866829.582300) can0 100#33040000
(1715866829.583833) can0 100#38040000
(1715866829.585393) can0 100#3D040000
(1715866829.587000) can0 100#3D040000
(1715866829.588627) can0 100#42040000
(1715866829.589014) can0 425#0000
(1715866829.589149) can0 080#9707
(1715866829.590250) can0 100#47040000
(1715866829.591783) can0 100#4C040000
(1715866829.593390) can0 100#51040000
(1715866829.594993) can0 100#56040000
(1715866829.596559) can0 100#5B040000
(1715866829.598099) can0 100#60040000
(1715866829.598891) can0 425#0000
(1715866829.599026) can0 080#9707
(1715866829.599727) can0 100#65040000
(1715866829.601390) can0 100#6A040000
(1715866829.603064) can0 100#6F040000
(1715866829.604684) can0 100#74040000
(1715866829.606249) can0 100#79040000
(1715866829.607761) can0 100#7E040000
(1715866829.608998) can0 425#0000
(1715866829.609151) can0 080#9707
(1715866829.609325) can0 100#83040000
(1715866829.610851) can0 100#88040000
(1715866829.612387) can0 100#8D040000
(1715866829.613933) can0 100#92040000
(1715866829.615482) can0 100#97040000
(1715866829.617023) can0 100#9C040000
(1715866829.618563) can0 100#9C040000
(1715866829.618900) can0 425#0000
(1715866829.619049) can0 080#9707
(1715866829.620124) can0 100#A1040000
(1715866829.621740) can0 100#A6040000
(1715866829.623301) can0 100#AB040000
(1715866829.624848) can0 100#B0040000
(1715866829.626501) can0 100#B5040000
(1715866829.628037) can0 100#BA040000
(1715866829.629026) can0 425#0000
(1715866829.629150) can0 080#9707
(1715866829.629667) can0 100#BF040000
(1715866829.631270) can0 100#C4040000
(1715866829.632910) can0 100#C9040000
(1715866829.634517) can0 100#CE040000
(1715866829.636048) can0 100#D3040000
(1715866829.637710) can0 100#D8040000
(1715866829.638900) can0 425#0000
(1715866829.639024) can0 080#9707
(1715866829.639383) can0 100#DD040000
(1715866829.641012) can0 100#E2040000
(1715866829.642633) can0 100#E7040000
(1715866829.644175) can0 100#EC040000
(1715866829.645718) can0 100#F1040000
(1715866829.647249) can0 100#F6040000
(1715866829.648800) can0 100#FB040000
(1715866829.649126) can0 425#0000
(1715866829.649298) can0 080#9707
(1715866829.650328) can0 100#00050000
(1715866829.651875) can0 100#05050000
(1715866829.653426) can0 100#0A050000
(1715866829.654993) can0 100#0F050000
(1715866829.656496) can0 100#14050000
(1715866829.658048) can0 100#19050000
(1715866829.658899) can0 425#0000
(1715866829.659023) can0 080#9607
(1715866829.659598) can0 100#1E050000
(1715866829.661148) can0 100#1E050000
(1715866829.662779) can0 100#23050000
(1715866829.664326) can0 100#28050000
(1715866829.665928) can0 100#2D050000
(1715866829.667476) can0 100#32050000
(1715866829.669024) can0 425#0000
(1715866829.669172) can0 100#37050000
(1715866829.669310) can0 080#9607
(1715866829.670730) can0 100#3C050000
(1715866829.672270) can0 100#41050000
(1715866829.673879) can0 100#46050000
(1715866829.675477) can0 100#4B050000
(1715866829.677098) can0 100#50050000
(1715866829.678739) can0 100#55050000
(1715866829.678915) can0 425#0000
(1715866829.679061) can0 080#9607
(1715866829.680279) can0 100#5A050000
(1715866829.681905) can0 100#5F050000
(1715866829.683505) can0 100#64050000
(1715866829.685111) can0 100#69050000
(1715866829.686665) can0 100#6E050000
(1715866829.688247) can0 100#73050000
(1715866829.689025) can0 425#0B00
(1715866829.689137) can0 080#9607
(1715866829.689814) can0 100#78050000
(1715866829.691426) can0 100#7D050000
(1715866829.693098) can0 100#82050000
(1715866829.694703) can0 100#87050000
(1715866829.696257) can0 100#8C050000
(1715866829.697925) can0 100#91050000
(1715866829.698900) can0 425#0B00
(1715866829.699040) can0 080#9607
(1715866829.699517) can0 100#96050000
(1715866829.701072) can0 100#9B050000
(1715866829.702600) can0 100#A0050000
(1715866829.704136) can0 100#A5050000
(1715866829.705679) can0 100#AA050000
(1715866829.707258) can0 100#AF050000
(1715866829.708760) can0 100#B4050000
(1715866829.709038) can0 425#0000
(1715866829.709173) can0 080#9607
(1715866829.710300) can0 100#B9050000
(1715866829.711848) can0 100#BE050000
(1715866829.713377) can0 100#C3050000
(1715866829.714933) can0 100#C8050000
(1715866829.716474) can0 100#CD050000
(1715866829.718022) can0 100#CD050000
(1715866829.718889) can0 425#0000
(1715866829.719022) can0 080#9607
(1715866829.719655) can0 100#D2050000
(1715866829.721276) can0 100#D7050000
(1715866829.722920) can0 100#DC050000
(1715866829.724547) can0 100#E1050000
(1715866829.726071) can0 100#E6050000
(1715866829.727750) can0 100#EB050000
(1715866829.729014) can0 425#0B00
(1715866829.729132) can0 080#9607
(1715866829.729399) can0 100#F0050000
(1715866829.730938) can0 100#F5050000
(1715866829.732454) can0 100#FA050000
(1715866829.734024) can0 100#FF050000
(1715866829.735548) can0 100#04060000
(1715866829.737197) can0 100#09060000
(1715866829.738836) can0 100#0E060000
(1715866829.738993) can0 425#0B00
(1715866829.739114) can0 080#9607
(1715866829.740388) can0 100#13060000
(1715866829.741980) can0 100#18060000
(1715866829.743540) can0 100#1D060000
(1715866829.745072) can0 100#22060000
(1715866829.746626) can0 100#27060000
(1715866829.748162) can0 100#2C060000
(1715866829.749024) can0 425#1700
(1715866829.749147) can0 080#9607
(1715866829.749815) can0 100#31060000
(1715866829.751418) can0 100#36060000
(1715866829.752991) can0 100#3B060000
(1715866829.754522) can0 100#40060000
(1715866829.756072) can0 100#45060000
(1715866829.757601) can0 100#4A060000
(1715866829.758891) can0 425#1700
(1715866829.759022) can0 080#9607
(1715866829.759197) can0 100#4F060000
(1715866829.760687) can0 100#4F060000
(1715866829.762355) can0 100#54060000
(1715866829.763920) can0 100#59060000
(1715866829.765557) can0 100#5E060000
(1715866829.767160) can0 100#63060000
(1715866829.768702) can0 100#68060000
(1715866829.769048) can0 425#1700
(1715866829.769171) can0 080#9607
(1715866829.770325) can0 100#6D060000
(1715866829.771882) can0 100#72060000
(1715866829.773432) can0 100#77060000
(1715866829.774990) can0 100#7C060000
(1715866829.776571) can0 100#81060000
(1715866829.778248) can0 100#86060000
(1715866829.778899) can0 425#1700
(1715866829.779022) can0 080#9607
(1715866829.779761) can0 100#8B060000
(1715866829.781323) can0 100#90060000
(1715866829.782862) can0 100#95060000
(1715866829.784400) can0 100#9A060000
(1715866829.785979) can0 100#9F060000
(1715866829.787481) can0 100#A4060000
(1715866829.789022) can0 100#A9060000
(1715866829.789171) can0 425#2200
(1715866829.789284) can0 080#9607
(1715866829.790574) can0 100#AE060000
(1715866829.792121) can0 100#B3060000
(1715866829.793662) can0 100#B8060000
(1715866829.795235) can0 100#BD060000
(1715866829.796748) can0 100#BD060000
(1715866829.798380) can0 100#C2060000
(1715866829.798908) can0 425#2200
(1715866829.799009) can0 080#9607
(1715866829.799926) can0 100#C7060000
(1715866829.801579) can0 100#CC060000
(1715866829.803195) can0 100#D1060000
(1715866829.804727) can0 100#D6060000
(1715866829.806348) can0 100#DB060000
(1715866829.807898) can0 100#E0060000
(1715866829.809025) can0 425#1700
(1715866829.809118) can0 080#9607
(1715866829.809427) can0 100#E5060000
(1715866829.810990) can0 100#EA060000
(1715866829.812614) can0 100#EF060000
(1715866829.814160) can0 100#F4060000
(1715866829.815713) can0 100#F9060000
(1715866829.817250) can0 100#FE060000
(1715866829.818797) can0 100#03070000
(1715866829.818913) can0 425#1700
(1715866829.819072) can0 080#9607
(1715866829.820333) can0 100#08070000
(1715866829.821887) can0 100#0D070000
(1715866829.823412) can0 100#12070000
(1715866829.824990) can0 100#17070000
(1715866829.826521) can0 100#1C070000
(1715866829.828070) can0 100#21070000
(1715866829.829009) can0 425#1700
(1715866829.829146) can0 080#9607
(1715866829.829611) can0 100#26070000
(1715866829.831245) can0 100#26070000
(1715866829.832769) can0 100#2B070000
(1715866829.834336) can0 100#30070000
(1715866829.835881) can0 100#35070000
(1715866829.837423) can0 100#3A070000
(1715866829.838892) can0 425#1700
(1715866829.839070) can0 100#3F070000
(1715866829.839196) can0 080#9607
(1715866829.840575) can0 100#44070000
(1715866829.842109) can0 100#49070000
(1715866829.843658) can0 100#4E070000
(1715866829.845246) can0 100#53070000
(1715866829.846826) can0 100#58070000
(1715866829.848361) can0 100#5D070000
(1715866829.849021) can0 425#0B00
(1715866829.849146) can0 080#9607
(1715866829.849920) can0 100#62070000
(1715866829.851445) can0 100#67070000
(1715866829.852990) can0 100#6C070000
(1715866829.854539) can0 100#71070000
(1715866829.856070) can0 100#76070000
(1715866829.857611) can0 100#7B070000
(1715866829.858855) can0 425#0B00
(1715866829.859046) can0 080#9607
(1715866829.859195) can0 100#80070000
(1715866829.860693) can0 100#85070000
(1715866829.862252) can0 100#8A070000
(1715866829.863788) can0 100#8F070000
(1715866829.865324) can0 100#94070000
(1715866829.866911) can0 100#94070000
(1715866829.868560) can0 100#99070000
(1715866829.869022) can0 425#0B00
(1715866829.869146) can0 080#9607
(1715866829.870144) can0 100#9E070000
(1715866829.871727) can0 100#A3070000
(1715866829.873329) can0 100#A8070000
(1715866829.874977) can0 100#AD070000
(1715866829.876574) can0 100#B2070000
(1715866829.878195) can0 100#B7070000
(1715866829.878896) can0 425#0B00
(1715866829.879034) can0 080#9607
(1715866829.879745) can0 100#BC070000
(1715866829.881288) can0 100#C1070000
(1715866829.882922) can0 100#C6070000
(1715866829.884527) can0 100#CB070000
(1715866829.886146) can0 100#D0070000
(1715866829.887695) can0 100#D5070000
(1715866829.888994) can0 425#0000
(1715866829.889141) can0 080#9607
(1715866829.889301) can0 100#DA070000
(1715866829.890989) can0 100#DF070000
(1715866829.892513) can0 100#E4070000
(1715866829.894032) can0 100#E9070000
(1715866829.895595) can0 100#EE070000
(1715866829.897144) can0 100#F3070000
(1715866829.898681) can0 100#F8070000
(1715866829.898895) can0 425#0000
(1715866829.899044) can0 080#9607
(1715866829.900220) can0 100#FD070000
(1715866829.901761) can0 100#02080000
(1715866829.903294) can0 100#07080000
(1715866829.904849) can0 100#0C080000
(1715866829.906369) can0 100#11080000
(1715866829.907936) can0 100#16080000
(1715866829.909012) can0 425#0B00
(1715866829.909146) can0 080#9607
(1715866829.909460) can0 100#1B080000
(1715866829.910988) can0 100#20080000
(1715866829.912523) can0 100#25080000
(1715866829.914070) can0 100#2A080000
(1715866829.915662) can0 100#2A080000
(1715866829.917302) can0 100#2F080000
(1715866829.918907) can0 100#34080000
(1715866829.919044) can0 425#0B00
(1715866829.919195) can0 080#9607
(1715866829.920471) can0 100#39080000
(1715866829.922063) can0 100#3E080000
(1715866829.923623) can0 100#43080000
(1715866829.925169) can0 100#48080000
(1715866829.926802) can0 100#4D080000
(1715866829.928337) can0 100#52080000
(1715866829.929022) can0 425#1700
(1715866829.929148) can0 080#9607
(1715866829.929894) can0 100#57080000
(1715866829.931490) can0 100#5C080000
(1715866829.933044) can0 100#61080000
(1715866829.934582) can0 100#66080000
(1715866829.936118) can0 100#6B080000
(1715866829.937657) can0 100#70080000
(1715866829.938885) can0 425#1700
(1715866829.939069) can0 080#9607
(1715866829.939245) can0 100#75080000
(1715866829.940723) can0 100#7A080000
(1715866829.942277) can0 100#7F080000
(1715866829.943814) can0 100#84080000
(1715866829.945360) can0 100#89080000
(1715866829.946882) can0 100#8E080000
(1715866829.948435) can0 100#93080000
(1715866829.949019) can0 425#0B00
(1715866829.949144) can0 080#9607
(1715866829.949975) can0 100#98080000
(1715866829.951525) can0 100#9D080000
(1715866829.953069) can0 100#A2080000
(1715866829.954596) can0 100#A7080000
(1715866829.956131) can0 100#AC080000
(1715866829.957686) can0 100#AC080000
(1715866829.958916) can0 425#0B00
(1715866829.959003) can0 080#9607
(1715866829.959232) can0 100#B1080000
(1715866829.960770) can0 100#B6080000
(1715866829.962311) can0 100#BB080000
(1715866829.963850) can0 100#C0080000
(1715866829.965386) can0 100#C5080000
(1715866829.966987) can0 100#CA080000
(1715866829.968483) can0 100#CF080000
(1715866829.969020) can0 425#0000
(1715866829.969132) can0 080#9607
(1715866829.970018) can0 100#D4080000
(1715866829.971570) can0 100#D9080000
(1715866829.973148) can0 100#DE080000
(1715866829.974638) can0 100#E3080000
(1715866829.976193) can0 100#E8080000
(1715866829.977727) can0 100#ED080000
(1715866829.978895) can0 425#0000
(1715866829.979009) can0 080#9607
(1715866829.979285) can0 100#F2080000
(1715866829.980809) can0 100#F7080000
(1715866829.982345) can0 100#FC080000
(1715866829.983872) can0 100#01090000
(1715866829.985424) can0 100#06090000
(1715866829.986987) can0 100#0B090000
(1715866829.988504) can0 100#10090000
(1715866829.989006) can0 425#0B00
(1715866829.989144) can0 080#9607
(1715866829.990043) can0 100#15090000
(1715866829.991586) can0 100#1A090000
(1715866829.993131) can0 100#1F090000
(1715866829.994676) can0 100#24090000
(1715866829.996243) can0 100#29090000
(1715866829.997758) can0 100#2E090000
(1715866829.998885) can0 425#0B00
(1715866829.999045) can0 080#9607
(1715866829.999293) can0 100#33090000
(1715866830.000829) can0 100#38090000
(1715866830.002362) can0 100#3D090000
(1715866830.003909) can0 100#42090000
(1715866830.005445) can0 100#47090000
(1715866830.006987) can0 100#4C090000
(1715866830.008511) can0 100#4C090000
(1715866830.008999) can0 425#F5FF
(1715866830.009143) can0 080#9607
(1715866830.010067) can0 100#51090000
(1715866830.011606) can0 100#56090000
(1715866830.013144) can0 100#5B090000
(1715866830.014696) can0 100#60090000
(1715866830.016242) can0 100#65090000
(1715866830.017764) can0 100#6A090000
(1715866830.018896) can0 425#F5FF
(1715866830.018990) can0 080#9607
(1715866830.019302) can0 100#6F090000
(1715866830.020836) can0 100#74090000
(1715866830.022393) can0 100#79090000
(1715866830.023927) can0 100#7E090000
(1715866830.025470) can0 100#83090000
(1715866830.027008) can0 100#88090000
(1715866830.028558) can0 100#8D090000
(1715866830.029017) can0 425#0B00
(1715866830.029142) can0 080#9607
(1715866830.030080) can0 100#92090000
(1715866830.031643) can0 100#97090000
(1715866830.033168) can0 100#9C090000
(1715866830.034717) can0 100#A1090000
(1715866830.036246) can0 100#A6090000
(1715866830.037796) can0 100#AB090000
(1715866830.038894) can0 425#0B00
(1715866830.039019) can0 080#9607
(1715866830.039322) can0 100#B0090000
(1715866830.040874) can0 100#B5090000
(1715866830.042434) can0 100#BA090000
(1715866830.043988) can0 100#BF090000
(1715866830.045484) can0 100#C4090000
(1715866830.047042) can0 100#C9090000
(1715866830.048569) can0 100#CE090000
(1715866830.048993) can0 425#F5FF
(1715866830.049130) can0 080#9607
(1715866830.050117) can0 100#D3090000
(1715866830.051644) can0 100#D8090000
(1715866830.053168) can0 100#DD090000
(1715866830.054706) can0 100#DD090000
(1715866830.056259) can0 100#E2090000
(1715866830.057796) can0 100#E7090000
(1715866830.058894) can0 425#F5FF
(1715866830.059015) can0 080#9607
(1715866830.059328) can0 100#EC090000
(1715866830.060869) can0 100#F1090000
(1715866830.062409) can0 100#F6090000
(1715866830.063974) can0 100#FB090000
(1715866830.065493) can0 100#000A0000
(1715866830.067017) can0 100#050A0000
(1715866830.068569) can0 100#0A0A0000
(1715866830.069009) can0 425#F5FF
(1715866830.069141) can0 080#9607
(1715866830.070091) can0 100#0F0A0000
(1715866830.071647) can0 100#140A0000
(1715866830.073180) can0 100#190A0000
(1715866830.074725) can0 100#1E0A0000
(1715866830.076273) can0 100#230A0000
(1715866830.077808) can0 100#280A0000
(1715866830.078918) can0 425#F5FF
(1715866830.079018) can0 080#9607
(1715866830.079332) can0 100#2D0A0000
(1715866830.080868) can0 100#320A0000
(1715866830.082396) can0 100#370A0000
(1715866830.083987) can0 100#3C0A0000
(1715866830.085494) can0 100#410A0000
(1715866830.087041) can0 100#460A0000
(1715866830.088563) can0 100#4B0A0000
(1715866830.089017) can0 425#F5FF
(1715866830.089141) can0 080#9607
(1715866830.090117) can0 100#500A0000
(1715866830.091641) can0 100#550A0000
(1715866830.093191) can0 100#5A0A0000
(1715866830.094724) can0 100#5F0A0000
(1715866830.096269) can0 100#640A0000
(1715866830.097794) can0 100#690A0000
(1715866830.098895) can0 425#F5FF
(1715866830.099032) can0 080#9607
(1715866830.099346) can0 100#6E0A0000
(1715866830.100874) can0 100#6E0A0000
(1715866830.102426) can0 100#730A0000
(1715866830.103987) can0 100#780A0000
(1715866830.105507) can0 100#7D0A0000
(1715866830.107057) can0 100#820A0000
(1715866830.108592) can0 100#870A0000
(1715866830.109018) can0 425#DEFF
(1715866830.109142) can0 080#9607
(1715866830.110129) can0 100#8C0A0000
(1715866830.111669) can0 100#910A0000
(1715866830.113241) can0 100#960A0000
(1715866830.114759) can0 100#9B0A0000
(1715866830.116284) can0 100#A00A0000
(1715866830.117843) can0 100#A50A0000
(1715866830.118912) can0 425#DEFF
(1715866830.119018) can0 080#9607
(1715866830.119365) can0 100#AA0A0000
(1715866830.120923) can0 100#AF0A0000
(1715866830.122459) can0 100#B40A0000
(1715866830.124016) can0 100#B90A0000
(1715866830.125529) can0 100#BE0A0000
(1715866830.127066) can0 100#C30A0000
(1715866830.128608) can0 100#C80A0000
(1715866830.129018) can0 425#F5FF
(1715866830.129129) can0 080#9607
(1715866830.130140) can0 100#CD0A0000
(1715866830.131693) can0 100#D20A0000
(1715866830.133242) can0 100#D70A0000
(1715866830.134755) can0 100#DC0A0000
(1715866830.136310) can0 100#E10A0000
(1715866830.137856) can0 100#E60A0000
(1715866830.138892) can0 425#F5FF
(1715866830.139035) can0 080#9607
(1715866830.139397) can0 100#EB0A0000
(1715866830.140984) can0 100#F00A0000
(1715866830.142482) can0 100#F50A0000
(1715866830.144004) can0 100#FA0A0000
(1715866830.145556) can0 100#FF0A0000
(1715866830.147094) can0 100#040B0000
(1715866830.148634) can0 100#090B0000
(1715866830.149005) can0 425#F5FF
(1715866830.149142) can0 080#9607
(1715866830.150166) can0 100#090B0000
(1715866830.151718) can0 100#0E0B0000
(1715866830.153241) can0 100#130B0000
(1715866830.154792) can0 100#180B0000
(1715866830.156332) can0 100#1D0B0000
(1715866830.157873) can0 100#220B0000
(1715866830.158879) can0 425#F5FF
(1715866830.159016) can0 080#9607
(1715866830.159415) can0 100#270B0000
(1715866830.160984) can0 100#2C0B0000
(1715866830.162480) can0 100#310B0000
(1715866830.164040) can0 100#360B0000
(1715866830.165581) can0 100#3B0B0000
(1715866830.167105) can0 100#400B0000
(1715866830.168666) can0 100#450B0000
(1715866830.169017) can0 425#0000
(1715866830.169142) can0 080#9607
(1715866830.170240) can0 100#4A0B0000
(1715866830.171740) can0 100#4F0B0000
(1715866830.173274) can0 100#540B0000
(1715866830.174818) can0 100#590B0000
(1715866830.176356) can0 100#5E0B0000
(1715866830.177909) can0 100#630B0000
(1715866830.178893) can0 425#0000
(1715866830.179018) can0 080#9607
(1715866830.179440) can0 100#680B0000
(1715866830.180984) can0 100#6D0B0000
(1715866830.182541) can0 100#720B0000
(1715866830.184065) can0 100#770B0000
(1715866830.185613) can0 100#7C0B0000
(1715866830.187165) can0 100#810B0000
(1715866830.188701) can0 100#860B0000
(1715866830.189043) can0 425#0000
(1715866830.189154) can0 080#9607
(1715866830.190243) can0 100#8B0B0000
(1715866830.191780) can0 100#900B0000
(1715866830.193316) can0 100#950B0000
(1715866830.194844) can0 100#950B0000
(1715866830.196399) can0 100#9A0B0000
(1715866830.197984) can0 100#9F0B0000
(1715866830.198903) can0 425#0000
(1715866830.199033) can0 080#9607
(1715866830.199490) can0 100#A40B0000
(1715866830.201014) can0 100#A90B0000
(1715866830.202565) can0 100#AE0B0000
(1715866830.204103) can0 100#B30B0000
(1715866830.205647) can0 100#B80B0000
(1715866830.207189) can0 100#BD0B0000
(1715866830.208731) can0 100#C20B0000
(1715866830.208974) can0 425#0B00
(1715866830.209108) can0 080#9607
(1715866830.210280) can0 100#C70B0000
(1715866830.211818) can0 100#CC0B0000
(1715866830.213354) can0 100#D10B0000
(1715866830.214906) can0 100#D60B0000
(1715866830.216446) can0 100#DB0B0000
(1715866830.217983) can0 100#E00B0000
(1715866830.218916) can0 425#0B00
(1715866830.219015) can0 080#9607
(1715866830.219523) can0 100#E50B0000
(1715866830.221064) can0 100#EA0B0000
(1715866830.222596) can0 100#EF0B0000
(1715866830.224139) can0 100#F40B0000
(1715866830.225683) can0 100#F90B0000
(1715866830.227240) can0 100#FE0B0000
(1715866830.228754) can0 100#030C0000
(1715866830.228984) can0 425#0B00
(1715866830.229131) can0 080#9607
(1715866830.230305) can0 100#080C0000
(1715866830.231838) can0 100#0D0C0000
(1715866830.233389) can0 100#120C0000
(1715866830.234924) can0 100#170C0000
(1715866830.236466) can0 100#1C0C0000
(1715866830.238002) can0 100#210C0000
(1715866830.238891) can0 425#0B00
(1715866830.239015) can0 080#9607
(1715866830.239542) can0 100#260C0000
(1715866830.241053) can0 100#2B0C0000
(1715866830.242625) can0 100#300C0000
(1715866830.244164) can0 100#300C0000
(1715866830.245705) can0 100#350C0000
(1715866830.247231) can0 100#3A0C0000
(1715866830.248789) can0 100#3F0C0000
(1715866830.248984) can0 425#0B00
(1715866830.249106) can0 080#9607
(1715866830.250315) can0 100#440C0000
(1715866830.251865) can0 100#490C0000
(1715866830.253405) can0 100#4E0C0000
(1715866830.254983) can0 100#530C0000
(1715866830.256471) can0 100#580C0000
(1715866830.258039) can0 100#5D0C0000
(1715866830.258892) can0 425#0B00
(1715866830.259015) can0 080#9607
(1715866830.259553) can0 100#620C0000
(1715866830.261113) can0 100#670C0000
(1715866830.262649) can0 100#6C0C0000
(1715866830.264238) can0 100#710C0000
(1715866830.265717) can0 100#760C0000
(1715866830.267269) can0 100#7B0C0000
(1715866830.268807) can0 100#800C0000
(1715866830.269016) can0 425#0B00
(1715866830.269129) can0 080#9607
(1715866830.270344) can0 100#850C0000
(1715866830.271880) can0 100#8A0C0000
(1715866830.273415) can0 100#8F0C0000
(1715866830.275005) can0 100#940C0000
(1715866830.276504) can0 100#990C0000
(1715866830.278040) can0 100#9E0C0000
(1715866830.278889) can0 425#0B00
(1715866830.279028) can0 080#9607
(1715866830.279597) can0 100#A30C0000
(1715866830.281138) can0 100#A80C0000
(1715866830.282672) can0 100#AD0C0000
(1715866830.284226) can0 100#B20C0000
(1715866830.285744) can0 100#B70C0000
(1715866830.287288) can0 100#BC0C0000
(1715866830.288842) can0 100#C10C0000
(1715866830.289001) can0 425#1700
(1715866830.289139) can0 080#9607
(1715866830.290364) can0 100#C10C0000
(1715866830.291896) can0 100#C60C0000
(1715866830.293428) can0 100#CB0C0000
(1715866830.294983) can0 100#D00C0000
(1715866830.296516) can0 100#D50C0000
(1715866830.298063) can0 100#DA0C0000
(1715866830.298881) can0 425#1700
(1715866830.299013) can0 080#9607
(1715866830.299596) can0 100#DF0C0000
(1715866830.301143) can0 100#E40C0000
(1715866830.302662) can0 100#E90C0000
(1715866830.304238) can0 100#EE0C0000
(1715866830.305763) can0 100#F30C0000
(1715866830.307300) can0 100#F80C0000
(1715866830.308828) can0 100#FD0C0000
(1715866830.309014) can0 425#0B00
(1715866830.309164) can0 080#9607
(1715866830.310382) can0 100#020D0000
(1715866830.311911) can0 100#070D0000
(1715866830.313464) can0 100#0C0D0000
(1715866830.315013) can0 100#110D0000
(1715866830.316539) can0 100#160D0000
(1715866830.318076) can0 100#1B0D0000
(1715866830.318890) can0 425#0B00
(1715866830.319039) can0 080#9607
(1715866830.319618) can0 100#200D0000
(1715866830.321126) can0 100#250D0000
(1715866830.322706) can0 100#2A0D0000
(1715866830.324254) can0 100#2F0D0000
(1715866830.325792) can0 100#340D0000
(1715866830.327353) can0 100#390D0000
(1715866830.328922) can0 100#3E0D0000
(1715866830.329014) can0 425#E9FF
(1715866830.329171) can0 080#9607
(1715866830.330495) can0 100#430D0000
(1715866830.331983) can0 100#480D0000
(1715866830.333487) can0 100#4D0D0000
(1715866830.335012) can0 100#520D0000
(1715866830.336552) can0 100#570D0000
(1715866830.338087) can0 100#5C0D0000
(1715866830.338886) can0 425#E9FF
(1715866830.339014) can0 080#9607
(1715866830.339619) can0 100#5C0D0000
(1715866830.341187) can0 100#610D0000
(1715866830.342719) can0 100#660D0000
(1715866830.344269) can0 100#6B0D0000
(1715866830.345800) can0 100#700D0000
(1715866830.347354) can0 100#750D0000
(1715866830.348892) can0 100#7A0D0000
(1715866830.349039) can0 425#0000
(1715866830.349151) can0 080#9607
(1715866830.350430) can0 100#7F0D0000
(1715866830.351981) can0 100#840D0000
(1715866830.353514) can0 100#890D0000
(1715866830.355050) can0 100#8E0D0000
(1715866830.356604) can0 100#930D0000
(1715866830.358137) can0 100#980D0000
(1715866830.358888) can0 425#0000
(1715866830.359001) can0 080#9607
(1715866830.359669) can0 100#9D0D0000
(1715866830.361237) can0 100#A20D0000
(1715866830.362752) can0 100#A70D0000
(1715866830.364280) can0 100#AC0D0000
(1715866830.365831) can0 100#B10D0000
(1715866830.367372) can0 100#B60D0000
(1715866830.368913) can0 100#BB0D0000
(1715866830.369031) can0 425#F5FF
(1715866830.369187) can0 080#9607
(1715866830.370452) can0 100#C00D0000
(1715866830.372012) can0 100#C50D0000
(1715866830.373528) can0 100#CA0D0000
(1715866830.375062) can0 100#CF0D0000
(1715866830.376615) can0 100#D40D0000
(1715866830.378137) can0 100#D90D0000
(1715866830.378880) can0 425#F5FF
(1715866830.379011) can0 080#9607
(1715866830.379689) can0 100#DE0D0000
(1715866830.381236) can0 100#E30D0000
(1715866830.382753) can0 100#E80D0000
(1715866830.384303) can0 100#ED0D0000
(1715866830.385853) can0 100#ED0D0000
(1715866830.387390) can0 100#F20D0000
(1715866830.388917) can0 100#F70D0000
(1715866830.389062) can0 425#0000
(1715866830.389212) can0 080#9607
(1715866830.390472) can0 100#FC0D0000
(1715866830.392000) can0 100#010E0000
(1715866830.393548) can0 100#060E0000
(1715866830.395087) can0 100#0B0E0000
(1715866830.396628) can0 100#100E0000
(1715866830.398150) can0 100#150E0000
(1715866830.398886) can0 425#0000
(1715866830.399012) can0 080#9607
(1715866830.399695) can0 100#1A0E0000
(1715866830.401226) can0 100#1F0E0000
(1715866830.402772) can0 100#240E0000
(1715866830.404316) can0 100#290E0000
(1715866830.405862) can0 100#2E0E0000
(1715866830.407384) can0 100#330E0000
(1715866830.408981) can0 100#380E0000
(1715866830.409079) can0 425#1700
(1715866830.409204) can0 080#9607
(1715866830.410466) can0 100#3D0E0000
(1715866830.412011) can0 100#420E0000
(1715866830.413537) can0 100#470E0000
(1715866830.415087) can0 100#4C0E0000
(1715866830.416625) can0 100#510E0000
(1715866830.418161) can0 100#560E0000
(1715866830.418886) can0 425#1700
(1715866830.419011) can0 080#9607
(1715866830.419699) can0 100#5B0E0000
(1715866830.421242) can0 100#600E0000
(1715866830.422788) can0 100#650E0000
(1715866830.424321) can0 100#6A0E0000
(1715866830.425852) can0 100#6F0E0000
(1715866830.427402) can0 100#740E0000
(1715866830.428989) can0 100#790E0000
(1715866830.429066) can0 425#0000
(1715866830.429190) can0 080#9607
(1715866830.430478) can0 100#7E0E0000
(1715866830.432010) can0 100#830E0000
(1715866830.433560) can0 100#880E0000
(1715866830.435073) can0 100#8D0E0000
(1715866830.436639) can0 100#920E0000
(1715866830.438186) can0 100#970E0000
(1715866830.438890) can0 425#0000
(1715866830.439000) can0 080#9607
(1715866830.439715) can0 100#970E0000
(1715866830.441255) can0 100#9C0E0000
(1715866830.442790) can0 100#A10E0000
(1715866830.444315) can0 100#A60E0000
(1715866830.445863) can0 100#AB0E0000
(1715866830.447403) can0 100#B00E0000
(1715866830.448980) can0 100#B50E0000
(1715866830.449066) can0 425#0000
(1715866830.449226) can0 080#9607
(1715866830.450487) can0 100#BA0E0000
(1715866830.452011) can0 100#BF0E0000
(1715866830.453551) can0 100#C40E0000
(1715866830.455086) can0 100#C90E0000
(1715866830.456645) can0 100#CE0E0000
(1715866830.458235) can0 100#D30E0000
(1715866830.458880) can0 425#0000
(1715866830.459011) can0 080#9607
(1715866830.459720) can0 100#D80E0000
(1715866830.461261) can0 100#DD0E0000
(1715866830.462790) can0 100#E20E0000
(1715866830.464339) can0 100#E70E0000
(1715866830.465886) can0 100#EC0E0000
(1715866830.467415) can0 100#F10E0000
(1715866830.468979) can0 100#F60E0000
(1715866830.469102) can0 425#E9FF
(1715866830.469226) can0 080#9607
(1715866830.470512) can0 100#FB0E0000
(1715866830.472060) can0 100#000F0000
(1715866830.473592) can0 100#050F0000
(1715866830.475135) can0 100#0A0F0000
(1715866830.476660) can0 100#0F0F0000
(1715866830.478235) can0 100#140F0000
(1715866830.478887) can0 425#E9FF
(1715866830.479011) can0 080#9607
(1715866830.479749) can0 100#190F0000
(1715866830.481301) can0 100#1E0F0000
(1715866830.482839) can0 100#230F0000
(1715866830.484378) can0 100#280F0000
(1715866830.485912) can0 100#2D0F0000
(1715866830.487466) can0 100#320F0000
(1715866830.489010) can0 100#370F0000
(1715866830.489135) can0 425#F5FF
(1715866830.489248) can0 080#9607
(1715866830.490536) can0 100#3C0F0000
(1715866830.492085) can0 100#3C0F0000
(1715866830.493613) can0 100#410F0000
(1715866830.495148) can0 100#460F0000
(1715866830.496706) can0 100#4B0F0000
(1715866830.498240) can0 100#500F0000
(1715866830.498913) can0 425#F5FF
(1715866830.499046) can0 080#9607
(1715866830.499768) can0 100#550F0000
(1715866830.501311) can0 100#5A0F0000
(1715866830.502851) can0 100#5F0F0000
(1715866830.504379) can0 100#640F0000
(1715866830.505979) can0 100#690F0000
(1715866830.507469) can0 100#6E0F0000
(1715866830.509009) can0 100#730F0000
(1715866830.509148) can0 425#0000
(1715866830.509286) can0 080#9607
(1715866830.510550) can0 100#780F0000
(1715866830.512086) can0 100#7D0F0000
(1715866830.513614) can0 100#820F0000
(1715866830.515159) can0 100#870F0000
(1715866830.516713) can0 100#8C0F0000
(1715866830.518244) can0 100#910F0000
(1715866830.518884) can0 425#0000
(1715866830.519009) can0 080#9607
(1715866830.519778) can0 100#960F0000
(1715866830.521318) can0 100#9B0F0000
(1715866830.522848) can0 100#A00F0000
(1715866830.524391) can0 100#A50F0000
(1715866830.525978) can0 100#AA0F0000
(1715866830.527475) can0 100#AF0F0000
(1715866830.528998) can0 100#B40F0000
(1715866830.529159) can0 425#0000
(1715866830.529284) can0 080#9607
(1715866830.530551) can0 100#B90F0000
(1715866830.532073) can0 100#BE0F0000
(1715866830.533634) can0 100#C30F0000
(1715866830.535161) can0 100#C80F0000
(1715866830.536712) can0 100#CD0F0000
(1715866830.538248) can0 100#D20F0000
(1715866830.538886) can0 425#0000
(1715866830.539009) can0 080#9607
(1715866830.539790) can0 100#D70F0000
(1715866830.541313) can0 100#DC0F0000
(1715866830.542863) can0 100#E10F0000
(1715866830.544402) can0 100#E10F0000
(1715866830.545978) can0 100#E60F0000
(1715866830.547472) can0 100#EB0F0000
(1715866830.549034) can0 100#F00F0000
(1715866830.549159) can0 425#0000
(1715866830.549284) can0 080#9607
(1715866830.550550) can0 100#F50F0000
(1715866830.552109) can0 100#FA0F0000
(1715866830.553641) can0 100#FF0F0000
(1715866830.555185) can0 100#04100000
(1715866830.556713) can0 100#09100000
(1715866830.558260) can0 100#0E100000
(1715866830.558889) can0 425#0000
(1715866830.559010) can0 080#9607
(1715866830.559788) can0 100#13100000
(1715866830.561343) can0 100#18100000
(1715866830.562885) can0 100#1D100000
(1715866830.564424) can0 100#22100000
(1715866830.565966) can0 100#27100000
(1715866830.567538) can0 100#2C100000
(1715866830.569009) can0 425#F5FF
(1715866830.569159) can0 100#31100000
(1715866830.569297) can0 080#9607
(1715866830.570611) can0 100#36100000
(1715866830.572137) can0 100#3B100000
(1715866830.573686) can0 100#40100000
(1715866830.575221) can0 100#45100000
(1715866830.576762) can0 100#4A100000
(1715866830.578299) can0 100#4F100000
(1715866830.578875) can0 425#F5FF
(1715866830.578996) can0 080#9607
(1715866830.579837) can0 100#54100000
(1715866830.581375) can0 100#59100000
(1715866830.582912) can0 100#5E100000
(1715866830.584422) can0 100#63100000
(1715866830.585978) can0 100#68100000
(1715866830.587537) can0 100#6D100000
(1715866830.589009) can0 425#0B00
(1715866830.589147) can0 100#72100000
(1715866830.589284) can0 080#9607
(1715866830.590613) can0 100#77100000
(1715866830.592133) can0 100#77100000
(1715866830.593683) can0 100#7C100000
(1715866830.595240) can0 100#81100000
(1715866830.596776) can0 100#86100000
(1715866830.598320) can0 100#8B100000
(1715866830.598862) can0 425#0B00
(1715866830.599008) can0 080#9607
(1715866830.599849) can0 100#90100000
(1715866830.601392) can0 100#95100000
(1715866830.602965) can0 100#9A100000
(1715866830.604475) can0 100#9F100000
(1715866830.606034) can0 100#A4100000
(1715866830.607560) can0 100#A9100000
(1715866830.608965) can0 425#1700
(1715866830.609150) can0 100#AE100000
(1715866830.609300) can0 080#9607
(1715866830.610644) can0 100#B3100000
(1715866830.612221) can0 100#B8100000
(1715866830.613729) can0 100#BD100000
(1715866830.615270) can0 100#C2100000
(1715866830.616811) can0 100#C7100000
(1715866830.618339) can0 100#CC100000
(1715866830.618878) can0 425#1700
(1715866830.619008) can0 080#9607
(1715866830.619894) can0 100#D1100000
(1715866830.621426) can0 100#D6100000
(1715866830.622977) can0 100#DB100000
(1715866830.624518) can0 100#E0100000
(1715866830.626058) can0 100#E5100000
(1715866830.627599) can0 100#EA100000
(1715866830.629008) can0 425#F5FF
(1715866830.629157) can0 100#EF100000
(1715866830.629284) can0 080#9607
(1715866830.630674) can0 100#F4100000
(1715866830.632233) can0 100#F9100000
(1715866830.633763) can0 100#FE100000
(1715866830.635301) can0 100#03110000
(1715866830.636827) can0 100#03110000
(1715866830.638383) can0 100#08110000
(1715866830.638885) can0 425#F5FF
(1715866830.639008) can0 080#9607
(1715866830.639911) can0 100#0D110000
(1715866830.641464) can0 100#12110000
(1715866830.643007) can0 100#17110000
(1715866830.644540) can0 100#1C110000
(1715866830.646071) can0 100#21110000
(1715866830.647624) can0 100#26110000
(1715866830.649158) can0 100#2B110000
(1715866830.649484) can0 425#0B00
(1715866830.649621) can0 080#9607
(1715866830.650700) can0 100#30110000
(1715866830.652243) can0 100#35110000
(1715866830.653785) can0 100#3A110000
(1715866830.655312) can0 100#3F110000
(1715866830.656867) can0 100#44110000
(1715866830.658412) can0 100#49110000
(1715866830.658888) can0 425#0B00
(1715866830.658996) can0 080#9507
(1715866830.659976) can0 100#4E110000
(1715866830.661493) can0 100#53110000
(1715866830.663033) can0 100#58110000
(1715866830.664564) can0 100#5D110000
(1715866830.666107) can0 100#62110000
(1715866830.667658) can0 100#67110000
(1715866830.668977) can0 425#F5FF
(1715866830.669115) can0 080#9507
(1715866830.669300) can0 100#6C110000
(1715866830.670741) can0 100#71110000
(1715866830.672284) can0 100#76110000
(1715866830.673811) can0 100#7B110000
(1715866830.675359) can0 100#80110000
(1715866830.676898) can0 100#85110000
(1715866830.678435) can0 100#8A110000
(1715866830.678876) can0 425#F5FF
(1715866830.679007) can0 080#9507
(1715866830.679976) can0 100#8F110000
(1715866830.681508) can0 100#94110000
(1715866830.683020) can0 100#99110000
(1715866830.684606) can0 100#99110000
(1715866830.686106) can0 100#9E110000
(1715866830.687662) can0 100#A3110000
(1715866830.688966) can0 425#E9FF
(1715866830.689123) can0 080#9507
(1715866830.689297) can0 100#A8110000
(1715866830.690742) can0 100#AD110000
(1715866830.692273) can0 100#B2110000
(1715866830.693823) can0 100#B7110000
(1715866830.695360) can0 100#BC110000
(1715866830.696907) can0 100#C1110000
(1715866830.698432) can0 100#C6110000
(1715866830.698869) can0 425#E9FF
(1715866830.699010) can0 080#9507
(1715866830.699976) can0 100#CB110000
(1715866830.701520) can0 100#D0110000
(1715866830.703056) can0 100#D5110000
(1715866830.704612) can0 100#DA110000
(1715866830.706157) can0 100#DF110000
(1715866830.707678) can0 100#E4110000
(1715866830.709018) can0 425#0B00
(1715866830.709152) can0 080#9507
(1715866830.709325) can0 100#E9110000
(1715866830.710756) can0 100#EE110000
(1715866830.712309) can0 100#F3110000
(1715866830.713850) can0 100#F8110000
(1715866830.715398) can0 100#FD110000
(1715866830.716964) can0 100#02120000
(1715866830.718483) can0 100#07120000
(1715866830.718885) can0 425#0B00
(1715866830.719007) can0 080#9507
(1715866830.720020) can0 100#0C120000
(1715866830.721573) can0 100#11120000
(1715866830.723107) can0 100#16120000
(1715866830.724648) can0 100#1B120000
(1715866830.726219) can0 100#20120000
(1715866830.727721) can0 100#25120000
(1715866830.728946) can0 425#F5FF
(1715866830.729129) can0 080#9507
(1715866830.729267) can0 100#2A120000
(1715866830.730791) can0 100#2F120000
(1715866830.732340) can0 100#2F120000
(1715866830.733883) can0 100#34120000
(1715866830.735410) can0 100#39120000
(1715866830.736975) can0 100#3E120000
(1715866830.738509) can0 100#43120000
(1715866830.738884) can0 425#F5FF
(1715866830.739002) can0 080#9507
(1715866830.740056) can0 100#48120000
(1715866830.741587) can0 100#4D120000
(1715866830.743107) can0 100#52120000
(1715866830.744656) can0 100#57120000
(1715866830.746231) can0 100#5C120000
(1715866830.747756) can0 100#61120000
(1715866830.748979) can0 425#F5FF
(1715866830.749130) can0 080#9507
(1715866830.749291) can0 100#66120000
(1715866830.750832) can0 100#6B120000
(1715866830.752372) can0 100#70120000
(1715866830.753902) can0 100#75120000
(1715866830.755458) can0 100#7A120000
(1715866830.757005) can0 100#7F120000
(1715866830.758536) can0 100#84120000
(1715866830.758877) can0 425#F5FF
(1715866830.759005) can0 080#9507
(1715866830.760057) can0 100#89120000
(1715866830.761622) can0 100#8E120000
(1715866830.763145) can0 100#93120000
(1715866830.764708) can0 100#98120000
(1715866830.766256) can0 100#9D120000
(1715866830.767779) can0 100#A2120000
(1715866830.769008) can0 425#0B00
(1715866830.769170) can0 080#9507
(1715866830.769321) can0 100#A7120000
(1715866830.770859) can0 100#AC120000
(1715866830.772408) can0 100#B1120000
(1715866830.773975) can0 100#B6120000
(1715866830.775483) can0 100#BB120000
(1715866830.777018) can0 100#C0120000
(1715866830.778560) can0 100#C5120000
(1715866830.778886) can0 425#0B00
(1715866830.779007) can0 080#9507
(1715866830.780093) can0 100#C5120000
(1715866830.781648) can0 100#CA120000
(1715866830.783230) can0 100#CF120000
(1715866830.784731) can0 100#D4120000
(1715866830.786260) can0 100#D9120000
(1715866830.787807) can0 100#DE120000
(1715866830.788974) can0 425#1700
(1715866830.789104) can0 080#9507
(1715866830.789335) can0 100#E3120000
(1715866830.790886) can0 100#E8120000
(1715866830.792430) can0 100#ED120000
(1715866830.793974) can0 100#F2120000
(1715866830.795502) can0 100#F7120000
(1715866830.797055) can0 100#FC120000
(1715866830.798605) can0 100#01130000
(1715866830.798880) can0 425#1700
(1715866830.798994) can0 080#9507
(1715866830.800154) can0 100#06130000
(1715866830.801682) can0 100#0B130000
(1715866830.803229) can0 100#10130000
(1715866830.804753) can0 100#15130000
(1715866830.806311) can0 100#1A130000
(1715866830.807858) can0 100#1F130000
(1715866830.809007) can0 425#0B00
(1715866830.809106) can0 080#9507
(1715866830.809399) can0 100#24130000
(1715866830.810975) can0 100#29130000
(1715866830.812474) can0 100#2E130000
(1715866830.813995) can0 100#33130000
(1715866830.815557) can0 100#38130000
(1715866830.817080) can0 100#3D130000
(1715866830.818634) can0 100#42130000
(1715866830.818871) can0 425#0B00
(1715866830.819005) can0 080#9507
(1715866830.820180) can0 100#47130000
(1715866830.821712) can0 100#4C130000
(1715866830.823250) can0 100#51130000
(1715866830.824804) can0 100#56130000
(1715866830.826335) can0 100#5B130000
(1715866830.827872) can0 100#5B130000
(1715866830.828971) can0 425#E9FF
(1715866830.829100) can0 080#9507
(1715866830.829408) can0 100#60130000
(1715866830.830973) can0 100#65130000
(1715866830.832487) can0 100#6A130000
(1715866830.834030) can0 100#6F130000
(1715866830.835580) can0 100#74130000
(1715866830.837130) can0 100#79130000
(1715866830.838657) can0 100#7E130000
(1715866830.838891) can0 425#E9FF
(1715866830.839006) can0 080#9507
(1715866830.840229) can0 100#83130000
(1715866830.841734) can0 100#88130000
(1715866830.843283) can0 100#8D130000
(1715866830.844829) can0 100#92130000
(1715866830.846367) can0 100#97130000
(1715866830.847894) can0 100#9C130000
(1715866830.848974) can0 425#F5FF
(1715866830.849122) can0 080#9507
(1715866830.849436) can0 100#A1130000
(1715866830.850961) can0 100#A6130000
(1715866830.852519) can0 100#AB130000
(1715866830.854054) can0 100#B0130000
(1715866830.855600) can0 100#B5130000
(1715866830.857118) can0 100#BA130000
(1715866830.858656) can0 100#BF130000
(1715866830.858906) can0 425#F5FF
(1715866830.859029) can0 080#9507
(1715866830.860192) can0 100#C4130000
(1715866830.861758) can0 100#C9130000
(1715866830.863297) can0 100#CE130000
(1715866830.864837) can0 100#D3130000
(1715866830.866369) can0 100#D8130000
(1715866830.867920) can0 100#DD130000
(1715866830.869005) can0 425#0B00
(1715866830.869131) can0 080#9507
(1715866830.869433) can0 100#E2130000
(1715866830.870980) can0 100#E7130000
(1715866830.872521) can0 100#EC130000
(1715866830.874055) can0 100#F1130000
(1715866830.875594) can0 100#F6130000
(1715866830.877128) can0 100#FB130000
(1715866830.878682) can0 100#FB130000
(1715866830.878906) can0 425#0B00
(1715866830.879042) can0 080#9507
(1715866830.880229) can0 100#00140000
(1715866830.881761) can0 100#05140000
(1715866830.883307) can0 100#0A140000
(1715866830.884826) can0 100#0F140000
(1715866830.886380) can0 100#14140000
(1715866830.887920) can0 100#19140000
(1715866830.889006) can0 425#0B00
(1715866830.889117) can0 080#9507
(1715866830.889431) can0 100#1E140000
(1715866830.890972) can0 100#23140000
(1715866830.892515) can0 100#28140000
(1715866830.894042) can0 100#2D140000
(1715866830.895587) can0 100#32140000
(1715866830.897128) can0 100#37140000
(1715866830.898671) can0 100#3C140000
(1715866830.898883) can0 425#0B00
(1715866830.899029) can0 080#9507
(1715866830.900230) can0 100#41140000
(1715866830.901745) can0 100#46140000
(1715866830.903273) can0 100#4B140000
(1715866830.904829) can0 100#50140000
(1715866830.906364) can0 100#55140000
(1715866830.907905) can0 100#5A140000
(1715866830.908965) can0 425#0000
(1715866830.909126) can0 080#9507
(1715866830.909451) can0 100#5F140000
(1715866830.910973) can0 100#64140000
(1715866830.912503) can0 100#69140000
(1715866830.914053) can0 100#6E140000
(1715866830.915594) can0 100#73140000
(1715866830.917154) can0 100#78140000
(1715866830.918667) can0 100#7D140000
(1715866830.918904) can0 425#0000
(1715866830.919028) can0 080#9507
(1715866830.920228) can0 100#82140000
(1715866830.921758) can0 100#87140000
(1715866830.923307) can0 100#8C140000
(1715866830.924844) can0 100#91140000
(1715866830.926381) can0 100#96140000
(1715866830.927907) can0 100#9B140000
(1715866830.928978) can0 425#0B00
(1715866830.929130) can0 080#9507
(1715866830.929443) can0 100#A0140000
(1715866830.930967) can0 100#A5140000
(1715866830.932496) can0 100#AA140000
(1715866830.934030) can0 100#AA140000
(1715866830.935580) can0 100#AF140000
(1715866830.937118) can0 100#B4140000
(1715866830.938669) can0 100#B9140000
(1715866830.938897) can0 425#0B00
(1715866830.939029) can0 080#9507
(1715866830.940215) can0 100#BE140000
(1715866830.941754) can0 100#C3140000
(1715866830.943289) can0 100#C8140000
(1715866830.944828) can0 100#CD140000
(1715866830.946352) can0 100#D2140000
(1715866830.947905) can0 100#D7140000
(1715866830.949005) can0 425#F5FF
(1715866830.949130) can0 080#9507
(1715866830.949432) can0 100#DC140000
(1715866830.950972) can0 100#E1140000
(1715866830.952528) can0 100#E6140000
(1715866830.954054) can0 100#EB140000
(1715866830.955598) can0 100#F0140000
(1715866830.957152) can0 100#F5140000
(1715866830.958689) can0 100#FA140000
(1715866830.958914) can0 425#F5FF
(1715866830.959017) can0 080#9507
(1715866830.960230) can0 100#FF140000
(1715866830.961764) can0 100#04150000
(1715866830.963306) can0 100#09150000
(1715866830.964833) can0 100#0E150000
(1715866830.966381) can0 100#13150000
(1715866830.967913) can0 100#18150000
(1715866830.968978) can0 425#0000
(1715866830.969115) can0 080#9507
(1715866830.969429) can0 100#1D150000
(1715866830.970971) can0 100#22150000
(1715866830.972509) can0 100#27150000
(1715866830.974045) can0 100#2C150000
(1715866830.975593) can0 100#31150000
(1715866830.977127) can0 100#36150000
(1715866830.978667) can0 100#3B150000
(1715866830.978882) can0 425#0000
(1715866830.979027) can0 080#9507
(1715866830.980226) can0 100#40150000
(1715866830.981743) can0 100#45150000
(1715866830.983270) can0 100#4A150000
(1715866830.984819) can0 100#4F150000
(1715866830.986364) can0 100#54150000
(1715866830.987902) can0 100#59150000
(1715866830.988963) can0 425#F5FF
(1715866830.989120) can0 080#9507
(1715866830.989434) can0 100#5E150000
(1715866830.990971) can0 100#63150000
(1715866830.992498) can0 100#68150000
(1715866830.994051) can0 100#68150000
(1715866830.995585) can0 100#6D150000
(1715866830.997128) can0 100#72150000
(1715866830.998647) can0 100#77150000
(1715866830.998885) can0 425#F5FF
(1715866830.999002) can0 080#9507
(1715866831.000226) can0 100#7C150000
(1715866831.001741) can0 100#81150000
(1715866831.003289) can0 100#86150000
(1715866831.004858) can0 100#8B150000
(1715866831.006377) can0 100#90150000
(1715866831.007896) can0 100#95150000
(1715866831.008977) can0 425#0000
(1715866831.009129) can0 080#9507
(1715866831.009443) can0 100#9A150000
(1715866831.010989) can0 100#9F150000
(1715866831.012529) can0 100#A4150000
(1715866831.014102) can0 100#A9150000
(1715866831.015609) can0 100#AE150000
(1715866831.017139) can0 100#B3150000
(1715866831.018687) can0 100#B8150000
(1715866831.018865) can0 425#0000
(1715866831.019003) can0 080#9507
(1715866831.020218) can0 100#BD150000
(1715866831.021770) can0 100#C2150000
(1715866831.023310) can0 100#C7150000
(1715866831.024851) can0 100#CC150000
(1715866831.026380) can0 100#D1150000
(1715866831.027970) can0 100#D6150000
(1715866831.029002) can0 425#E9FF
(1715866831.029127) can0 080#9507
(1715866831.029433) can0 100#DB150000
(1715866831.031001) can0 100#E0150000
(1715866831.032531) can0 100#E5150000
(1715866831.034077) can0 100#EA150000
(1715866831.035617) can0 100#EF150000
(1715866831.037176) can0 100#F4150000
(1715866831.038707) can0 100#F9150000
(1715866831.038884) can0 425#E9FF
(1715866831.038990) can0 080#9507
(1715866831.040251) can0 100#FE150000
(1715866831.041788) can0 100#03160000
(1715866831.043328) can0 100#08160000
(1715866831.044850) can0 100#0D160000
(1715866831.046403) can0 100#12160000
(1715866831.047969) can0 100#17160000
(1715866831.049003) can0 425#F5FF
(1715866831.049114) can0 080#9507
(1715866831.049480) can0 100#17160000
(1715866831.051026) can0 100#1C160000
(1715866831.052560) can0 100#21160000
(1715866831.054091) can0 100#26160000
(1715866831.055641) can0 100#2B160000
(1715866831.057225) can0 100#30160000
(1715866831.058728) can0 100#35160000
(1715866831.058867) can0 425#F5FF
(1715866831.059001) can0 080#9507
(1715866831.060267) can0 100#3A160000
(1715866831.061805) can0 100#3F160000
(1715866831.063340) can0 100#44160000
(1715866831.064887) can0 100#49160000
(1715866831.066430) can0 100#4E160000
(1715866831.067956) can0 100#53160000
(1715866831.069003) can0 425#0B00
(1715866831.069126) can0 080#9507
(1715866831.069517) can0 100#58160000
(1715866831.071050) can0 100#5D160000
(1715866831.072594) can0 100#62160000
(1715866831.074126) can0 100#67160000
(1715866831.075672) can0 100#6C160000
(1715866831.077214) can0 100#71160000
(1715866831.078752) can0 100#76160000
(1715866831.078878) can0 425#0B00
(1715866831.079026) can0 080#9507
(1715866831.080290) can0 100#7B160000
(1715866831.081841) can0 100#80160000
(1715866831.083385) can0 100#85160000
(1715866831.084970) can0 100#8A160000
(1715866831.086457) can0 100#8F160000
(1715866831.088025) can0 100#94160000
(1715866831.088976) can0 425#0B00
(1715866831.089126) can0 080#9507
(1715866831.089544) can0 100#99160000
(1715866831.091076) can0 100#9E160000
(1715866831.092628) can0 100#A3160000
(1715866831.094149) can0 100#A8160000
(1715866831.095689) can0 100#AD160000
(1715866831.097236) can0 100#B2160000
(1715866831.098750) can0 100#B7160000
(1715866831.098901) can0 425#0B00
(1715866831.099038) can0 080#9507
(1715866831.100316) can0 100#B7160000
(1715866831.101858) can0 100#BC160000
(1715866831.103402) can0 100#C1160000
(1715866831.104957) can0 100#C6160000
(1715866831.106486) can0 100#CB160000
(1715866831.108026) can0 100#D0160000
(1715866831.108977) can0 425#1700
(1715866831.109114) can0 080#9507
(1715866831.109569) can0 100#D5160000
(1715866831.111100) can0 100#DA160000
(1715866831.112650) can0 100#DF160000
(1715866831.114213) can0 100#E4160000
(1715866831.115727) can0 100#E9160000
(1715866831.117276) can0 100#EE160000
(1715866831.118806) can0 100#F3160000
(1715866831.118957) can0 425#1700
(1715866831.119092) can0 080#9507
(1715866831.120350) can0 100#F8160000
(1715866831.121890) can0 100#FD160000
(1715866831.123420) can0 100#02170000
(1715866831.124972) can0 100#07170000
(1715866831.126517) can0 100#0C170000
(1715866831.128050) can0 100#11170000
(1715866831.128957) can0 425#1700
(1715866831.129116) can0 080#9507
(1715866831.129594) can0 100#16170000
(1715866831.131150) can0 100#1B170000
(1715866831.132664) can0 100#20170000
(1715866831.134224) can0 100#25170000
(1715866831.135754) can0 100#2A170000
(1715866831.137302) can0 100#2F170000
(1715866831.138826) can0 100#34170000
(1715866831.138968) can0 425#1700
(1715866831.139116) can0 080#9507
(1715866831.140377) can0 100#39170000
(1715866831.141899) can0 100#3E170000
(1715866831.143455) can0 100#43170000
(1715866831.144999) can0 100#48170000
(1715866831.146532) can0 100#4D170000
(1715866831.148062) can0 100#52170000
(1715866831.149000) can0 425#0B00
(1715866831.149124) can0 080#9507
(1715866831.149610) can0 100#57170000
(1715866831.151137) can0 100#5C170000
(1715866831.152684) can0 100#61170000
(1715866831.154225) can0 100#66170000
(1715866831.155757) can0 100#6B170000
(1715866831.157292) can0 100#6B170000
(1715866831.158840) can0 100#70170000
(1715866831.158969) can0 425#0B00
(1715866831.159116) can0 080#9507
(1715866831.160372) can0 100#75170000
(1715866831.161974) can0 100#7A170000
(1715866831.163465) can0 100#7F170000
(1715866831.164998) can0 100#84170000
(1715866831.166537) can0 100#89170000
(1715866831.168099) can0 100#8E170000
(1715866831.168970) can0 425#0B00
(1715866831.169116) can0 080#9507
(1715866831.169616) can0 100#93170000
(1715866831.171175) can0 100#98170000
(1715866831.172707) can0 100#9D170000
(1715866831.174251) can0 100#A2170000
(1715866831.175773) can0 100#A7170000
(1715866831.177326) can0 100#AC170000
(1715866831.178865) can0 100#B1170000
(1715866831.178999) can0 425#0B00
(1715866831.179114) can0 080#9507
(1715866831.180411) can0 100#B6170000
(1715866831.181967) can0 100#BB170000
(1715866831.183485) can0 100#C0170000
(1715866831.185016) can0 100#C5170000
(1715866831.186565) can0 100#CA170000
(1715866831.188098) can0 100#CF170000
(1715866831.188968) can0 425#0000
(1715866831.189105) can0 080#9507
(1715866831.189643) can0 100#D4170000
(1715866831.191224) can0 100#D9170000
(1715866831.192732) can0 100#DE170000
(1715866831.194264) can0 100#E3170000
(1715866831.195818) can0 100#E8170000
(1715866831.197362) can0 100#ED170000
(1715866831.198878) can0 425#0000
(1715866831.199011) can0 100#F2170000
(1715866831.199174) can0 080#9507
(1715866831.200439) can0 100#F7170000
(1715866831.201968) can0 100#FC170000
(1715866831.203511) can0 100#01180000
(1715866831.205047) can0 100#06180000
(1715866831.206600) can0 100#0B180000
(1715866831.208123) can0 100#0B180000
(1715866831.208959) can0 425#0000
(1715866831.209115) can0 080#9507
(1715866831.209676) can0 100#10180000
(1715866831.211223) can0 100#15180000
(1715866831.212747) can0 100#1A180000
(1715866831.214301) can0 100#1F180000
(1715866831.215839) can0 100#24180000
(1715866831.217376) can0 100#29180000
(1715866831.218837) can0 425#0000
(1715866831.219022) can0 100#2E180000
(1715866831.219173) can0 080#9507
(1715866831.220458) can0 100#33180000
(1715866831.221986) can0 100#38180000
(1715866831.223539) can0 100#3D180000
(1715866831.225073) can0 100#42180000
(1715866831.226623) can0 100#47180000
(1715866831.228143) can0 100#4C180000
(1715866831.228976) can0 425#0B00
(1715866831.229124) can0 080#9507
(1715866831.229701) can0 100#51180000
(1715866831.231227) can0 100#56180000
(1715866831.232780) can0 100#5B180000
(1715866831.234317) can0 100#60180000
(1715866831.235856) can0 100#65180000
(1715866831.237380) can0 100#6A180000
(1715866831.238860) can0 425#0B00
(1715866831.239022) can0 100#6F180000
(1715866831.239172) can0 080#9507
(1715866831.240470) can0 100#74180000
(1715866831.242023) can0 100#79180000
(1715866831.243568) can0 100#7E180000
(1715866831.245146) can0 100#83180000
(1715866831.246644) can0 100#88180000
(1715866831.248243) can0 100#8D180000
(1715866831.248974) can0 425#0B00
(1715866831.249123) can0 080#9507
(1715866831.249737) can0 100#92180000
(1715866831.251289) can0 100#97180000
(1715866831.252824) can0 100#9C180000
(1715866831.254364) can0 100#A1180000
(1715866831.255892) can0 100#A6180000
(1715866831.257449) can0 100#A6180000
(1715866831.258864) can0 425#0B00
(1715866831.259022) can0 100#AB180000
(1715866831.259161) can0 080#9507
(1715866831.260529) can0 100#B0180000
(1715866831.262082) can0 100#B5180000
(1715866831.263623) can0 100#BA180000
(1715866831.265161) can0 100#BF180000
(1715866831.266704) can0 100#C4180000
(1715866831.268254) can0 100#C9180000
(1715866831.268974) can0 425#0B00
(1715866831.269110) can0 080#9507
(1715866831.269784) can0 100#CE180000
(1715866831.271328) can0 100#D3180000
(1715866831.272873) can0 100#D8180000
(1715866831.274398) can0 100#DD180000
(1715866831.275967) can0 100#E2180000
(1715866831.277489) can0 100#E7180000
(1715866831.278881) can0 425#0B00
(1715866831.279010) can0 100#EC180000
(1715866831.279173) can0 080#9507
(1715866831.280575) can0 100#F1180000
(1715866831.282097) can0 100#F6180000
(1715866831.283647) can0 100#FB180000
(1715866831.285221) can0 100#00190000
(1715866831.286737) can0 100#05190000
(1715866831.288276) can0 100#0A190000
(1715866831.288954) can0 425#0000
(1715866831.289114) can0 080#9507
(1715866831.289816) can0 100#0F190000
(1715866831.291363) can0 100#14190000
(1715866831.292891) can0 100#19190000
(1715866831.294451) can0 100#1E190000
(1715866831.295997) can0 100#23190000
(1715866831.297532) can0 100#28190000
(1715866831.298837) can0 425#0000
(1715866831.298997) can0 080#9507
(1715866831.299172) can0 100#2D190000
(1715866831.300615) can0 100#32190000
(1715866831.302139) can0 100#37190000
(1715866831.303697) can0 100#3C190000
(1715866831.305234) can0 100#41190000
(1715866831.306773) can0 100#46190000
(1715866831.308302) can0 100#46190000
(1715866831.308966) can0 425#E9FF
(1715866831.309114) can0 080#9507
(1715866831.309851) can0 100#4B190000
(1715866831.311379) can0 100#50190000
(1715866831.312966) can0 100#55190000
(1715866831.314474) can0 100#5A190000
(1715866831.316021) can0 100#5F190000
(1715866831.317544) can0 100#64190000
(1715866831.318836) can0 425#E9FF
(1715866831.318998) can0 080#9507
(1715866831.319146) can0 100#69190000
(1715866831.320629) can0 100#6E190000
(1715866831.322222) can0 100#73190000
(1715866831.323715) can0 100#78190000
(1715866831.325254) can0 100#7D190000
(1715866831.326795) can0 100#82190000
(1715866831.328346) can0 100#87190000
(1715866831.328975) can0 425#0000
(1715866831.329127) can0 080#9507
(1715866831.329868) can0 100#8C190000
(1715866831.331423) can0 100#91190000
(1715866831.332965) can0 100#96190000
(1715866831.334498) can0 100#9B190000
(1715866831.336034) can0 100#A0190000
(1715866831.337580) can0 100#A5190000
(1715866831.338874) can0 425#0000
(1715866831.338996) can0 080#9507
(1715866831.339133) can0 100#AA190000
(1715866831.340657) can0 100#AF190000
(1715866831.342196) can0 100#B4190000
(1715866831.343733) can0 100#B9190000
(1715866831.345269) can0 100#BE190000
(1715866831.346811) can0 100#C3190000
(1715866831.348353) can0 100#C8190000
(1715866831.348966) can0 425#F5FF
(1715866831.349101) can0 080#9507
(1715866831.349893) can0 100#CD190000
(1715866831.351433) can0 100#D2190000
(1715866831.352965) can0 100#D7190000
(1715866831.354501) can0 100#DC190000
(1715866831.356046) can0 100#E1190000
(1715866831.357598) can0 100#E6190000
(1715866831.358861) can0 425#F5FF
(1715866831.358985) can0 080#9507
(1715866831.359171) can0 100#EB190000
(1715866831.360674) can0 100#F0190000
(1715866831.362221) can0 100#F5190000
(1715866831.363741) can0 100#FA190000
(1715866831.365290) can0 100#FF190000
(1715866831.366827) can0 100#041A0000
(1715866831.368361) can0 100#041A0000
(1715866831.368973) can0 425#0000
(1715866831.369121) can0 080#9507
(1715866831.369906) can0 100#091A0000
(1715866831.371447) can0 100#0E1A0000
(1715866831.372997) can0 100#131A0000
(1715866831.374529) can0 100#181A0000
(1715866831.376072) can0 100#1D1A0000
(1715866831.377596) can0 100#221A0000
(1715866831.378834) can0 425#0000
(1715866831.378996) can0 080#9507
(1715866831.379172) can0 100#271A0000
(1715866831.380675) can0 100#2C1A0000
(1715866831.382226) can0 100#311A0000
(1715866831.383762) can0 100#361A0000
(1715866831.385302) can0 100#3B1A0000
(1715866831.386833) can0 100#401A0000
(1715866831.388381) can0 100#451A0000
(1715866831.388998) can0 425#0B00
(1715866831.389120) can0 080#9507
(1715866831.389953) can0 100#4A1A0000
(1715866831.391463) can0 100#4F1A0000
(1715866831.392995) can0 100#541A0000
(1715866831.394545) can0 100#591A0000
(1715866831.396058) can0 100#5E1A0000
(1715866831.397622) can0 100#631A0000
(1715866831.398838) can0 425#0B00
(1715866831.398995) can0 080#9507
(1715866831.399158) can0 100#681A0000
(1715866831.400701) can0 100#6D1A0000
(1715866831.402229) can0 100#721A0000
(1715866831.403765) can0 100#771A0000
(1715866831.405293) can0 100#7C1A0000
(1715866831.406855) can0 100#811A0000
(1715866831.408389) can0 100#861A0000
(1715866831.408973) can0 425#F5FF
(1715866831.409108) can0 080#9507
(1715866831.409964) can0 100#8B1A0000
(1715866831.411472) can0 100#901A0000
(1715866831.412995) can0 100#951A0000
(1715866831.414538) can0 100#9A1A0000
(1715866831.416096) can0 100#9F1A0000
(1715866831.417627) can0 100#A41A0000
(1715866831.418862) can0 425#F5FF
(1715866831.418960) can0 080#9507
(1715866831.419238) can0 100#A91A0000
(1715866831.420713) can0 100#A91A0000
(1715866831.422252) can0 100#AE1A0000
(1715866831.423782) can0 100#B31A0000
(1715866831.425337) can0 100#B81A0000
(1715866831.426873) can0 100#BD1A0000
(1715866831.428419) can0 100#C21A0000
(1715866831.428961) can0 425#F5FF
(1715866831.429121) can0 080#9507
(1715866831.429974) can0 100#C71A0000
(1715866831.431497) can0 100#CC1A0000
(1715866831.433033) can0 100#D11A0000
(1715866831.434577) can0 100#D61A0000
(1715866831.436120) can0 100#DB1A0000
(1715866831.437656) can0 100#E01A0000
(1715866831.438862) can0 425#F5FF
(1715866831.438977) can0 080#9507
(1715866831.439219) can0 100#E51A0000
(1715866831.440720) can0 100#EA1A0000
(1715866831.442242) can0 100#EF1A0000
(1715866831.443795) can0 100#F41A0000
(1715866831.445360) can0 100#F91A0000
(1715866831.446874) can0 100#FE1A0000
(1715866831.448402) can0 100#031B0000
(1715866831.448964) can0 425#1700
(1715866831.449111) can0 080#9507
(1715866831.449963) can0 100#081B0000
(1715866831.451485) can0 100#0D1B0000
(1715866831.453020) can0 100#121B0000
(1715866831.454575) can0 100#171B0000
(1715866831.456119) can0 100#1C1B0000
(1715866831.457643) can0 100#211B0000
(1715866831.458873) can0 425#1700
(1715866831.458970) can0 080#9507
(1715866831.459238) can0 100#261B0000
(1715866831.460712) can0 100#2B1B0000
(1715866831.462269) can0 100#301B0000
(1715866831.463802) can0 100#351B0000
(1715866831.465344) can0 100#3A1B0000
(1715866831.466867) can0 100#3F1B0000
(1715866831.468420) can0 100#441B0000
(1715866831.468964) can0 425#0B00
(1715866831.469112) can0 080#9507
(1715866831.469952) can0 100#491B0000
(1715866831.471498) can0 100#4E1B0000
(1715866831.473020) can0 100#531B0000
(1715866831.474569) can0 100#581B0000
(1715866831.476107) can0 100#581B0000
(1715866831.477646) can0 100#5D1B0000
(1715866831.478873) can0 425#0B00
(1715866831.478969) can0 080#9507
(1715866831.479225) can0 100#621B0000
(1715866831.480743) can0 100#671B0000
(1715866831.482273) can0 100#6C1B0000
(1715866831.483806) can0 100#711B0000
(1715866831.485335) can0 100#761B0000
(1715866831.486894) can0 100#7B1B0000
(1715866831.488434) can0 100#801B0000
(1715866831.488965) can0 425#2200
(1715866831.489099) can0 080#9507
(1715866831.489963) can0 100#851B0000
(1715866831.491513) can0 100#8A1B0000
(1715866831.493044) can0 100#8F1B0000
(1715866831.494584) can0 100#941B0000
(1715866831.496119) can0 100#991B0000
(1715866831.497674) can0 100#9E1B0000
(1715866831.498870) can0 425#2200
(1715866831.498977) can0 080#9507
(1715866831.499219) can0 100#A31B0000
(1715866831.500728) can0 100#A81B0000
(1715866831.502270) can0 100#AD1B0000
(1715866831.503798) can0 100#B21B0000
(1715866831.505355) can0 100#B71B0000
(1715866831.506896) can0 100#BC1B0000
(1715866831.508444) can0 100#C11B0000
(1715866831.508954) can0 425#DEFF
(1715866831.509111) can0 080#9507
(1715866831.509995) can0 100#C61B0000
(1715866831.511606) can0 100#CB1B0000
(1715866831.513083) can0 100#D01B0000
(1715866831.514630) can0 100#D51B0000
(1715866831.516219) can0 100#DA1B0000
(1715866831.517710) can0 100#DF1B0000
(1715866831.518862) can0 425#DEFF
(1715866831.518983) can0 080#9507
(1715866831.519266) can0 100#E41B0000
(1715866831.520805) can0 100#E91B0000
(1715866831.522336) can0 100#EE1B0000
(1715866831.523849) can0 100#F31B0000
(1715866831.525421) can0 100#F81B0000
(1715866831.526994) can0 100#FD1B0000
(1715866831.528531) can0 100#021C0000
(1715866831.528964) can0 425#0B00
(1715866831.529110) can0 080#9507
(1715866831.530094) can0 100#071C0000
(1715866831.531614) can0 100#071C0000
(1715866831.533168) can0 100#0C1C0000
(1715866831.534710) can0 100#111C0000
(1715866831.536254) can0 100#161C0000
(1715866831.537783) can0 100#1B1C0000
(1715866831.538848) can0 425#0B00
(1715866831.538993) can0 080#9507
(1715866831.539312) can0 100#201C0000
(1715866831.540847) can0 100#251C0000
(1715866831.542399) can0 100#2A1C0000
(1715866831.543962) can0 100#2F1C0000
(1715866831.545479) can0 100#341C0000
(1715866831.547007) can0 100#391C0000
(1715866831.548567) can0 100#3E1C0000
(1715866831.548963) can0 425#2200
(1715866831.549110) can0 080#9507
(1715866831.550081) can0 100#431C0000
(1715866831.551643) can0 100#481C0000
(1715866831.553194) can0 100#4D1C0000
(1715866831.554725) can0 100#521C0000
(1715866831.556256) can0 100#571C0000
(1715866831.557809) can0 100#5C1C0000
(1715866831.558868) can0 425#2200
(1715866831.558992) can0 080#9507
(1715866831.559305) can0 100#611C0000
(1715866831.560834) can0 100#661C0000
(1715866831.562422) can0 100#6B1C0000
(1715866831.563962) can0 100#701C0000
(1715866831.565472) can0 100#751C0000
(1715866831.567018) can0 100#7A1C0000
(1715866831.568560) can0 100#7F1C0000
(1715866831.568962) can0 425#DEFF
(1715866831.569098) can0 080#9507
(1715866831.570094) can0 100#841C0000
(1715866831.571633) can0 100#891C0000
(1715866831.573218) can0 100#8E1C0000
(1715866831.574698) can0 100#931C0000
(1715866831.576249) can0 100#931C0000
(1715866831.577793) can0 100#981C0000
(1715866831.578888) can0 425#DEFF
(1715866831.578981) can0 080#9507
(1715866831.579301) can0 100#9D1C0000
(1715866831.580844) can0 100#A21C0000
(1715866831.582354) can0 100#A71C0000
(1715866831.583950) can0 100#AC1C0000
(1715866831.585467) can0 100#B11C0000
(1715866831.586993) can0 100#B61C0000
(1715866831.588542) can0 100#BB1C0000
(1715866831.588957) can0 425#0B00
(1715866831.589117) can0 080#9507
(1715866831.590092) can0 100#C01C0000
(1715866831.591619) can0 100#C51C0000
(1715866831.593155) can0 100#CA1C0000
(1715866831.594698) can0 100#CF1C0000
(1715866831.596243) can0 100#D41C0000
(1715866831.597778) can0 100#D91C0000
(1715866831.598858) can0 425#0B00
(1715866831.598995) can0 080#9507
(1715866831.599308) can0 100#DE1C0000
(1715866831.600848) can0 100#E31C0000
(1715866831.602380) can0 100#E81C0000
(1715866831.603960) can0 100#ED1C0000
(1715866831.605478) can0 100#F21C0000
(1715866831.607017) can0 100#F71C0000
(1715866831.608548) can0 100#FC1C0000
(1715866831.608964) can0 425#0000
(1715866831.609110) can0 080#9507
(1715866831.610092) can0 100#011D0000
(1715866831.611632) can0 100#061D0000
(1715866831.613217) can0 100#0B1D0000
(1715866831.614719) can0 100#101D0000
(1715866831.616259) can0 100#151D0000
(1715866831.617789) can0 100#1A1D0000
(1715866831.618869) can0 425#0000
(1715866831.618993) can0 080#9507
(1715866831.619312) can0 100#1F1D0000
(1715866831.620837) can0 100#241D0000
(1715866831.622391) can0 100#291D0000
(1715866831.623960) can0 100#2E1D0000
(1715866831.625466) can0 100#2E1D0000
(1715866831.626983) can0 100#331D0000
(1715866831.628545) can0 100#381D0000
(1715866831.628963) can0 425#0000
(1715866831.629109) can0 080#9507
(1715866831.630082) can0 100#3D1D0000
(1715866831.631629) can0 100#421D0000
(1715866831.633216) can0 100#471D0000
(1715866831.634709) can0 100#4C1D0000
(1715866831.636233) can0 100#511D0000
(1715866831.637792) can0 100#561D0000
(1715866831.638867) can0 425#0000
(1715866831.638992) can0 080#9507
(1715866831.639299) can0 100#5B1D0000
(1715866831.640851) can0 100#601D0000
(1715866831.642394) can0 100#651D0000
(1715866831.643962) can0 100#6A1D0000
(1715866831.645470) can0 100#6F1D0000
(1715866831.647016) can0 100#741D0000
(1715866831.648552) can0 100#791D0000
(1715866831.649644) can0 425#F5FF
(1715866831.649772) can0 080#9507
(1715866831.650091) can0 100#7E1D0000
(1715866831.651622) can0 100#831D0000
(1715866831.653166) can0 100#881D0000
(1715866831.654696) can0 100#8D1D0000
(1715866831.656247) can0 100#921D0000
(1715866831.657785) can0 100#971D0000
(1715866831.658886) can0 425#F5FF
(1715866831.658981) can0 080#8E07
(1715866831.659294) can0 100#9C1D0000
(1715866831.660841) can0 100#A11D0000
(1715866831.662387) can0 100#A61D0000
(1715866831.663950) can0 100#AB1D0000
(1715866831.665457) can0 100#B01D0000
(1715866831.666991) can0 100#B51D0000
(1715866831.668529) can0 100#BA1D0000
(1715866831.668962) can0 425#2200
(1715866831.669108) can0 080#8E07
(1715866831.670067) can0 100#BF1D0000
(1715866831.671618) can0 100#C41D0000
(1715866831.673167) can0 100#C91D0000
(1715866831.674700) can0 100#C91D0000
(1715866831.676245) can0 100#CE1D0000
(1715866831.677773) can0 100#D31D0000
(1715866831.678842) can0 425#2200
(1715866831.678992) can0 080#8E07
(1715866831.679307) can0 100#D81D0000
(1715866831.680837) can0 100#DD1D0000
(1715866831.682395) can0 100#E21D0000
(1715866831.683962) can0 100#E71D0000
(1715866831.685476) can0 100#EC1D0000
(1715866831.686980) can0 100#F11D0000
(1715866831.688560) can0 100#F61D0000
(1715866831.688963) can0 425#D2FF
(1715866831.689108) can0 080#8E07
(1715866831.690118) can0 100#FB1D0000
(1715866831.691640) can0 100#001E0000
(1715866831.693216) can0 100#051E0000
(1715866831.694722) can0 100#0A1E0000
(1715866831.696262) can0 100#0F1E0000
(1715866831.697806) can0 100#141E0000
(1715866831.698869) can0 425#D2FF
(1715866831.698991) can0 080#8E07
(1715866831.699306) can0 100#191E0000
(1715866831.700850) can0 100#1E1E0000
(1715866831.702390) can0 100#231E0000
(1715866831.703960) can0 100#281E0000
(1715866831.705459) can0 100#2D1E0000
(1715866831.707017) can0 100#321E0000
(1715866831.708550) can0 100#371E0000
(1715866831.708992) can0 425#0000
(1715866831.709103) can0 080#8E07
(1715866831.710092) can0 100#3C1E0000
(1715866831.711640) can0 100#411E0000
(1715866831.713215) can0 100#461E0000
(1715866831.714703) can0 100#4B1E0000
(1715866831.716246) can0 100#501E0000
(1715866831.717783) can0 100#551E0000
(1715866831.718867) can0 425#0000
(1715866831.718981) can0 080#8E07
(1715866831.719293) can0 100#5A1E0000
(1715866831.720832) can0 100#5F1E0000
(1715866831.722375) can0 100#641E0000
(1715866831.723948) can0 100#691E0000
(1715866831.725457) can0 100#691E0000
(1715866831.726990) can0 100#6E1E0000
(1715866831.728527) can0 100#731E0000
(1715866831.728947) can0 425#E9FF
(1715866831.729108) can0 080#8E07
(1715866831.730065) can0 100#781E0000
(1715866831.731615) can0 100#7D1E0000
(1715866831.733131) can0 100#821E0000
(1715866831.734693) can0 100#871E0000
(1715866831.736233) can0 100#8C1E0000
(1715866831.737771) can0 100#911E0000
(1715866831.738834) can0 425#E9FF
(1715866831.738991) can0 080#8E07
(1715866831.739306) can0 100#961E0000
(1715866831.740841) can0 100#9B1E0000
(1715866831.742369) can0 100#A01E0000
(1715866831.743959) can0 100#A51E0000
(1715866831.745456) can0 100#AA1E0000
(1715866831.746990) can0 100#AF1E0000
(1715866831.748522) can0 100#B41E0000
(1715866831.748960) can0 425#F5FF
(1715866831.749106) can0 080#8E07
(1715866831.750065) can0 100#B91E0000
(1715866831.751606) can0 100#BE1E0000
(1715866831.753164) can0 100#C31E0000
(1715866831.754696) can0 100#C81E0000
(1715866831.756233) can0 100#CD1E0000
(1715866831.757761) can0 100#D21E0000
(1715866831.758867) can0 425#F5FF
(1715866831.758990) can0 080#8E07
(1715866831.759306) can0 100#D71E0000
(1715866831.760832) can0 100#DC1E0000
(1715866831.762384) can0 100#E11E0000
(1715866831.763959) can0 100#E61E0000
(1715866831.765465) can0 100#EB1E0000
(1715866831.766979) can0 100#F01E0000
(1715866831.768540) can0 100#F51E0000
(1715866831.768961) can0 425#1700
(1715866831.769106) can0 080#8E07
(1715866831.770054) can0 100#FA1E0000
(1715866831.771632) can0 100#FA1E0000
(1715866831.773215) can0 100#FF1E0000
(1715866831.774718) can0 100#041F0000
(1715866831.776252) can0 100#091F0000
(1715866831.777799) can0 100#0E1F0000
(1715866831.778864) can0 425#1700
(1715866831.778990) can0 080#8E07
(1715866831.779297) can0 100#131F0000
(1715866831.780849) can0 100#181F0000
(1715866831.782391) can0 100#1D1F0000
(1715866831.783958) can0 100#221F0000
(1715866831.785459) can0 100#271F0000
(1715866831.787013) can0 100#2C1F0000
(1715866831.788548) can0 100#311F0000
(1715866831.788960) can0 425#F5FF
(1715866831.789095) can0 080#8E07
(1715866831.790089) can0 100#361F0000
(1715866831.791630) can0 100#3B1F0000
(1715866831.793213) can0 100#401F0000
(1715866831.794696) can0 100#451F0000
(1715866831.796248) can0 100#4A1F0000
(1715866831.797791) can0 100#4F1F0000
(1715866831.798866) can0 425#F5FF
(1715866831.798978) can0 080#8E07
(1715866831.799297) can0 100#541F0000
(1715866831.800845) can0 100#591F0000
(1715866831.802380) can0 100#5E1F0000
(1715866831.803946) can0 100#631F0000
(1715866831.805455) can0 100#681F0000
(1715866831.806988) can0 100#6D1F0000
(1715866831.808540) can0 100#721F0000
(1715866831.808960) can0 425#F5FF
(1715866831.809106) can0 080#8E07
(1715866831.810089) can0 100#771F0000
(1715866831.811622) can0 100#7C1F0000
(1715866831.813204) can0 100#811F0000
(1715866831.814706) can0 100#861F0000
(1715866831.816247) can0 100#8B1F0000
(1715866831.817788) can0 100#901F0000
(1715866831.818830) can0 425#F5FF
(1715866831.818990) can0 080#8E07
(1715866831.819304) can0 100#951F0000
(1715866831.820841) can0 100#9A1F0000
(1715866831.822368) can0 100#9F1F0000
(1715866831.823957) can0 100#9F1F0000
(1715866831.825466) can0 100#A41F0000
(1715866831.827014) can0 100#A91F0000
(1715866831.828527) can0 100#AE1F0000
(1715866831.828958) can0 425#E9FF
(1715866831.829111) can0 080#8E07
(1715866831.830088) can0 100#B31F0000
(1715866831.831610) can0 100#B81F0000
(1715866831.833213) can0 100#BD1F0000
(1715866831.834706) can0 100#C21F0000
(1715866831.836242) can0 100#C71F0000
(1715866831.837767) can0 100#CC1F0000
(1715866831.838866) can0 425#E9FF
(1715866831.838989) can0 080#8E07
(1715866831.839304) can0 100#D11F0000
(1715866831.840833) can0 100#D61F0000
(1715866831.842390) can0 100#DB1F0000
(1715866831.843958) can0 100#E01F0000
(1715866831.845473) can0 100#E51F0000
(1715866831.847002) can0 100#EA1F0000
(1715866831.848555) can0 100#EF1F0000
(1715866831.848958) can0 425#0000
(1715866831.849105) can0 080#8E07
(1715866831.850076) can0 100#F41F0000
(1715866831.851631) can0 100#F91F0000
(1715866831.853214) can0 100#FE1F0000
(1715866831.854713) can0 100#03200000
(1715866831.856241) can0 100#08200000
(1715866831.857790) can0 100#0D200000
(1715866831.858865) can0 425#0000
(1715866831.858988) can0 080#8E07
(1715866831.859294) can0 100#12200000
(1715866831.860847) can0 100#17200000
(1715866831.862390) can0 100#1C200000
(1715866831.863957) can0 100#21200000
(1715866831.865453) can0 100#26200000
(1715866831.867013) can0 100#2B200000
(1715866831.868548) can0 100#30200000
(1715866831.868964) can0 425#0B00
(1715866831.869076) can0 080#8E07
(1715866831.870087) can0 100#35200000
(1715866831.871629) can0 100#3A200000
(1715866831.873215) can0 100#3F200000
(1715866831.874695) can0 100#44200000
(1715866831.876246) can0 100#49200000
(1715866831.877787) can0 100#4E200000
(1715866831.878838) can0 425#0B00
(1715866831.878977) can0 080#8E07
(1715866831.879296) can0 100#53200000
(1715866831.880838) can0 100#53200000
(1715866831.882371) can0 100#58200000
(1715866831.883945) can0 100#5D200000
(1715866831.885453) can0 100#62200000
(1715866831.886988) can0 100#67200000
(1715866831.888529) can0 100#6C200000
(1715866831.888948) can0 425#E9FF
(1715866831.889079) can0 080#8E07
(1715866831.890063) can0 100#71200000
(1715866831.891615) can0 100#76200000
(1715866831.893150) can0 100#7B200000
(1715866831.894695) can0 100#80200000
(1715866831.896239) can0 100#85200000
(1715866831.897777) can0 100#8A200000
(1715866831.898851) can0 425#E9FF
(1715866831.898989) can0 080#8E07
(1715866831.899303) can0 100#8F200000
(1715866831.900842) can0 100#94200000
(1715866831.902367) can0 100#99200000
(1715866831.903956) can0 100#9E200000
(1715866831.905453) can0 100#A3200000
(1715866831.906987) can0 100#A8200000
(1715866831.908530) can0 100#AD200000
(1715866831.908958) can0 425#0000
(1715866831.909105) can0 080#8E07
(1715866831.910062) can0 100#B2200000
(1715866831.911606) can0 100#B7200000
(1715866831.913162) can0 100#BC200000
(1715866831.914698) can0 100#C1200000
(1715866831.916239) can0 100#C6200000
(1715866831.917766) can0 100#CB200000
(1715866831.918862) can0 425#0000
(1715866831.918988) can0 080#8E07
(1715866831.919303) can0 100#D0200000
(1715866831.920834) can0 100#D5200000
(1715866831.922389) can0 100#DA200000
(1715866831.923955) can0 100#DF200000
(1715866831.925465) can0 100#E4200000
(1715866831.926980) can0 100#E9200000
(1715866831.928552) can0 100#EE200000
(1715866831.928958) can0 425#1700
(1715866831.929103) can0 080#8E07
(1715866831.930074) can0 100#F3200000
