(1715867299.447069) can0 425#0000
(1715867299.447193) can0 080#7D07
(1715867299.457162) can0 425#0000
(1715867299.457319) can0 080#7D07
(1715867299.467073) can0 425#0000
(1715867299.467195) can0 080#7D07
(1715867299.477167) can0 425#0000
(1715867299.477321) can0 080#7D07
(1715867299.487074) can0 425#0000
(1715867299.487196) can0 080#7D07
(1715867299.497162) can0 425#0000
(1715867299.497323) can0 080#7D07
(1715867299.507075) can0 425#0000
(1715867299.507199) can0 080#7D07
(1715867299.517164) can0 425#0000
(1715867299.517325) can0 080#7D07
(1715867299.527078) can0 425#0000
(1715867299.527200) can0 080#7D07
(1715867299.537171) can0 425#0000
(1715867299.537326) can0 080#7D07
(1715867299.547104) can0 425#0000
(1715867299.547209) can0 080#7D07
(1715867299.557172) can0 425#0000
(1715867299.557328) can0 080#7D07
(1715867299.567075) can0 425#0000
(1715867299.567206) can0 080#7D07
(1715867299.577168) can0 425#0000
(1715867299.577332) can0 080#7D07
(1715867299.587049) can0 425#0000
(1715867299.587207) can0 080#7D07
(1715867299.597173) can0 425#0000
(1715867299.597309) can0 080#7D07
(1715867299.607087) can0 425#0000
(1715867299.607209) can0 080#7D07
(1715867299.617174) can0 425#0000
(1715867299.617335) can0 080#7D07
(1715867299.627106) can0 425#0000
(1715867299.627211) can0 080#7D07
(1715867299.637181) can0 425#0000
(1715867299.637337) can0 080#7D07
(1715867299.647091) can0 425#0000
(1715867299.647212) can0 080#7D07
(1715867299.657882) can0 425#0000
(1715867299.658024) can0 080#7D07
(1715867299.667091) can0 425#0000
(1715867299.667215) can0 080#7E07
(1715867299.677183) can0 425#0000
(1715867299.677341) can0 080#7E07
(1715867299.687093) can0 425#0000
(1715867299.687218) can0 080#7E07
(1715867299.697188) can0 425#0000
(1715867299.697344) can0 080#7E07
(1715867299.707070) can0 425#0000
(1715867299.707219) can0 080#7E07
(1715867299.717213) can0 425#0000
(1715867299.717345) can0 080#7E07
(1715867299.727096) can0 425#0000
(1715867299.727221) can0 080#7E07
(1715867299.737187) can0 425#0000
(1715867299.737348) can0 080#7E07
(1715867299.747100) can0 425#0000
(1715867299.747225) can0 080#7E07
(1715867299.757194) can0 425#0000
(1715867299.757353) can0 080#7E07
(1715867299.767077) can0 425#0000
(1715867299.767226) can0 080#7E07
(1715867299.777195) can0 425#0000
(1715867299.777351) can0 080#7E07
(1715867299.787137) can0 425#0000
(1715867299.787228) can0 080#7E07
(1715867299.797191) can0 425#0000
(1715867299.797354) can0 080#7E07
(1715867299.807101) can0 425#0000
(1715867299.807230) can0 080#7E07
(1715867299.817195) can0 425#0000
(1715867299.817356) can0 080#7E07
(1715867299.827112) can0 425#0000
(1715867299.827231) can0 080#7E07
(1715867299.837197) can0 425#0000
(1715867299.837384) can0 080#7E07
(1715867299.847111) can0 425#0000
(1715867299.847233) can0 080#7E07
(1715867299.857203) can0 425#0000
(1715867299.857334) can0 080#7E07
(1715867299.867088) can0 425#0000
(1715867299.867235) can0 080#7E07
(1715867299.877202) can0 425#0000
(1715867299.877337) can0 080#7E07
(1715867299.887115) can0 425#0000
(1715867299.887226) can0 080#7E07
(1715867299.897218) can0 425#0000
(1715867299.897364) can0 080#7E07
(1715867299.907092) can0 425#0000
(1715867299.907241) can0 080#7E07
(1715867299.917236) can0 425#0000
(1715867299.917340) can0 080#7E07
(1715867299.927118) can0 425#0000
(1715867299.927230) can0 080#7E07
(1715867299.937221) can0 425#0000
(1715867299.937369) can0 080#7E07
(1715867299.947120) can0 425#0000
(1715867299.947233) can0 080#7E07
(1715867299.957241) can0 425#0000
(1715867299.957345) can0 080#7E07
(1715867299.967097) can0 425#0000
(1715867299.967236) can0 080#7E07
(1715867299.977222) can0 425#0000
(1715867299.977374) can0 080#7E07
(1715867299.987118) can0 425#0000
(1715867299.987237) can0 080#7E07
(1715867299.997224) can0 425#0000
(1715867299.997349) can0 080#7E07
(1715867300.007130) can0 425#0000
(1715867300.007238) can0 080#7E07
(1715867300.017226) can0 425#0000
(1715867300.017351) can0 080#7E07
(1715867300.027104) can0 425#0000
(1715867300.027241) can0 080#7E07
(1715867300.037232) can0 425#0000
(1715867300.037378) can0 080#7E07
(1715867300.047085) can0 425#0000
(1715867300.047244) can0 080#7E07
(1715867300.057232) can0 425#0000
(1715867300.057381) can0 080#7E07
(1715867300.067135) can0 425#0000
(1715867300.067245) can0 080#7E07
(1715867300.077234) can0 425#0000
(1715867300.077383) can0 080#7E07
(1715867300.087130) can0 425#0000
(1715867300.087237) can0 080#7E07
(1715867300.097236) can0 425#0000
(1715867300.097360) can0 080#7E07
(1715867300.107111) can0 425#0000
(1715867300.107254) can0 080#7E07
(1715867300.117258) can0 425#0000
(1715867300.117367) can0 080#7E07
(1715867300.127132) can0 425#0000
(1715867300.127253) can0 080#7E07
(1715867300.137257) can0 425#0000
(1715867300.137363) can0 080#7E07
(1715867300.147131) can0 425#0000
(1715867300.147257) can0 080#7E07
(1715867300.157242) can0 425#0000
(1715867300.157366) can0 080#7E07
(1715867300.167143) can0 425#0000
(1715867300.167254) can0 080#7E07
(1715867300.177243) can0 425#0000
(1715867300.177380) can0 080#7E07
(1715867300.187162) can0 425#0000
(1715867300.187257) can0 080#7E07
(1715867300.197241) can0 425#0000
(1715867300.197371) can0 080#7E07
(1715867300.207145) can0 425#0000
(1715867300.207259) can0 080#7E07
(1715867300.217248) can0 425#0000
(1715867300.217396) can0 080#7E07
(1715867300.227148) can0 425#0000
(1715867300.227267) can0 080#7E07
(1715867300.237252) can0 425#0000
(1715867300.237376) can0 080#7E07
(1715867300.247151) can0 425#0000
(1715867300.247263) can0 080#7E07
(1715867300.257273) can0 425#0000
(1715867300.257379) can0 080#7E07
(1715867300.267149) can0 425#0000
(1715867300.267266) can0 080#7E07
(1715867300.277253) can0 425#0000
(1715867300.277378) can0 080#7E07
(1715867300.287131) can0 425#0000
(1715867300.287270) can0 080#7E07
(1715867300.297258) can0 425#0000
(1715867300.297386) can0 080#7E07
(1715867300.307156) can0 425#0000
(1715867300.307270) can0 080#7E07
(1715867300.317259) can0 425#0000
(1715867300.317382) can0 080#7E07
(1715867300.327135) can0 425#0000
(1715867300.327271) can0 080#7E07
(1715867300.337282) can0 425#0000
(1715867300.337408) can0 080#7E07
(1715867300.347137) can0 425#0000
(1715867300.347274) can0 080#7E07
(1715867300.357264) can0 425#0000
(1715867300.357386) can0 080#7E07
(1715867300.367141) can0 425#0000
(1715867300.367276) can0 080#7E07
(1715867300.377283) can0 425#0000
(1715867300.377392) can0 080#7E07
(1715867300.387167) can0 425#0000
(1715867300.387277) can0 080#7E07
(1715867300.397267) can0 425#0000
(1715867300.397389) can0 080#7E07
(1715867300.407141) can0 425#0000
(1715867300.407279) can0 080#7E07
(1715867300.417295) can0 425#0000
(1715867300.417392) can0 080#7E07
(1715867300.427144) can0 425#0000
(1715867300.427283) can0 080#7E07
(1715867300.437271) can0 425#0000
(1715867300.437394) can0 080#7E07
(1715867300.447148) can0 425#0000
(1715867300.447284) can0 080#7E07
(1715867300.457274) can0 425#0000
(1715867300.457396) can0 080#7E07
(1715867300.467148) can0 425#0000
(1715867300.467292) can0 080#7E07
(1715867300.477276) can0 425#0000
(1715867300.477403) can0 080#7E07
(1715867300.487151) can0 425#0000
(1715867300.487288) can0 080#7E07
(1715867300.497277) can0 425#0000
(1715867300.497425) can0 080#7E07
(1715867300.507151) can0 425#0000
(1715867300.507289) can0 080#7E07
(1715867300.517282) can0 425#0000
(1715867300.517402) can0 080#7E07
(1715867300.527155) can0 425#0000
(1715867300.527292) can0 080#7E07
(1715867300.537281) can0 425#0000
(1715867300.537404) can0 080#7E07
(1715867300.547174) can0 425#0000
(1715867300.547295) can0 080#7E07
(1715867300.557286) can0 425#0000
(1715867300.557406) can0 080#7E07
(1715867300.567158) can0 425#0000
(1715867300.567296) can0 080#7E07
(1715867300.577308) can0 425#0000
(1715867300.577410) can0 080#7E07
(1715867300.587162) can0 425#0000
(1715867300.587298) can0 080#7E07
(1715867300.597285) can0 425#0000
(1715867300.597410) can0 080#7E07
(1715867300.607182) can0 425#0000
(1715867300.607301) can0 080#7E07
(1715867300.617290) can0 425#0000
(1715867300.617411) can0 080#7E07
(1715867300.627163) can0 425#0000
(1715867300.627301) can0 080#7E07
(1715867300.637291) can0 425#0000
(1715867300.637414) can0 080#7E07
(1715867300.647165) can0 425#0000
(1715867300.647303) can0 080#7E07
(1715867300.657966) can0 425#0000
(1715867300.658116) can0 080#7E07
(1715867300.667168) can0 425#0000
(1715867300.667306) can0 080#7F07
(1715867300.677296) can0 425#0000
(1715867300.677419) can0 080#7F07
(1715867300.687173) can0 425#0000
(1715867300.687310) can0 080#7F07
(1715867300.697297) can0 425#0000
(1715867300.697420) can0 080#7F07
(1715867300.707173) can0 425#0000
(1715867300.707315) can0 080#7F07
(1715867300.717331) can0 425#0000
(1715867300.717450) can0 080#7F07
(1715867300.727197) can0 425#0000
(1715867300.727312) can0 080#7F07
(1715867300.737323) can0 425#0000
(1715867300.737434) can0 080#7F07
(1715867300.747179) can0 425#0000
(1715867300.747314) can0 080#7F07
(1715867300.757304) can0 425#0000
(1715867300.757427) can0 080#7F07
(1715867300.767198) can0 425#0000
(1715867300.767317) can0 080#7F07
(1715867300.777306) can0 425#0000
(1715867300.777429) can0 080#7F07
(1715867300.787182) can0 425#0000
(1715867300.787319) can0 080#7F07
(1715867300.797325) can0 425#0000
(1715867300.797430) can0 080#7F07
(1715867300.807205) can0 425#0000
(1715867300.807320) can0 080#7F07
(1715867300.817311) can0 425#0000
(1715867300.817433) can0 080#7F07
(1715867300.827186) can0 425#0000
(1715867300.827322) can0 080#7F07
(1715867300.837312) can0 425#0000
(1715867300.837434) can0 080#7F07
(1715867300.847190) can0 425#0000
(1715867300.847325) can0 080#7F07
(1715867300.857315) can0 425#0000
(1715867300.857437) can0 080#7F07
(1715867300.867184) can0 425#0000
(1715867300.867327) can0 080#7F07
(1715867300.877321) can0 425#0000
(1715867300.877440) can0 080#7F07
(1715867300.887214) can0 425#0000
(1715867300.887367) can0 080#7F07
(1715867300.897319) can0 425#0000
(1715867300.897441) can0 080#7F07
(1715867300.907195) can0 425#0000
(1715867300.907332) can0 080#7F07
(1715867300.917347) can0 425#0000
(1715867300.917443) can0 080#7F07
(1715867300.927194) can0 425#0000
(1715867300.927337) can0 080#7F07
(1715867300.937321) can0 425#0000
(1715867300.937447) can0 080#7F07
(1715867300.947197) can0 425#0000
(1715867300.947334) can0 080#7F07
(1715867300.957325) can0 425#0000
(1715867300.957448) can0 080#7F07
(1715867300.967201) can0 425#0000
(1715867300.967339) can0 080#7F07
(1715867300.977326) can0 425#0000
(1715867300.977450) can0 080#7F07
(1715867300.987202) can0 425#0000
(1715867300.987340) can0 080#7F07
(1715867300.997331) can0 425#0000
(1715867300.997454) can0 080#7F07
(1715867301.007351) can0 425#0000
(1715867301.007386) can0 080#7F07
(1715867301.017352) can0 425#0000
(1715867301.017458) can0 080#7F07
(1715867301.027366) can0 425#0000
(1715867301.027402) can0 080#7F07
(1715867301.037418) can0 425#0000
(1715867301.037421) can0 080#7F07
(1715867301.047211) can0 425#0000
(1715867301.047348) can0 080#7F07
(1715867301.057466) can0 425#0000
(1715867301.057502) can0 080#7F07
(1715867301.067210) can0 425#0000
(1715867301.067347) can0 080#7F07
(1715867301.077430) can0 425#0000
(1715867301.077434) can0 080#7F07
(1715867301.087236) can0 425#0000
(1715867301.087350) can0 080#7F07
(1715867301.097466) can0 425#0000
(1715867301.097516) can0 080#7F07
(1715867301.107239) can0 425#0000
(1715867301.107533) can0 080#7F07
(1715867301.117436) can0 425#0000
(1715867301.117467) can0 080#7F07
(1715867301.127359) can0 425#0000
(1715867301.127394) can0 080#7F07
(1715867301.137431) can0 425#0000
(1715867301.137463) can0 080#7F07
(1715867301.147224) can0 425#0000
(1715867301.147457) can0 080#7F07
(1715867301.157459) can0 425#0000
(1715867301.157462) can0 080#7F07
(1715867301.167317) can0 425#0000
(1715867301.167351) can0 080#7F07
(1715867301.177431) can0 425#0000
(1715867301.177464) can0 080#7F07
(1715867301.187228) can0 425#0000
(1715867301.187474) can0 080#7F07
(1715867301.197434) can0 425#0000
(1715867301.197466) can0 080#7F07
(1715867301.207378) can0 425#0000
(1715867301.207415) can0 080#7F07
(1715867301.217443) can0 425#0000
(1715867301.217476) can0 080#7F07
(1715867301.227223) can0 425#0000
(1715867301.227375) can0 080#7F07
(1715867301.237435) can0 425#0000
(1715867301.237468) can0 080#7F07
(1715867301.247221) can0 425#0000
(1715867301.247506) can0 080#7F07
(1715867301.257424) can0 425#0000
(1715867301.257462) can0 080#7F07
(1715867301.267354) can0 425#0000
(1715867301.267389) can0 080#7F07
(1715867301.277452) can0 425#0000
(1715867301.277493) can0 080#7F07
(1715867301.287231) can0 425#0000
(1715867301.287382) can0 080#7F07
(1715867301.297454) can0 425#0000
(1715867301.297487) can0 080#7F07
(1715867301.307331) can0 425#0000
(1715867301.307365) can0 080#7F07
(1715867301.317453) can0 425#0000
(1715867301.317485) can0 080#7F07
(1715867301.327354) can0 425#0000
(1715867301.327391) can0 080#7F07
(1715867301.337453) can0 425#0000
(1715867301.337486) can0 080#7F07
(1715867301.347332) can0 425#0000
(1715867301.347367) can0 080#7F07
(1715867301.357457) can0 425#0000
(1715867301.357479) can0 080#7F07
(1715867301.367368) can0 425#0000
(1715867301.367404) can0 080#7F07
(1715867301.377448) can0 425#0000
(1715867301.377481) can0 080#7F07
(1715867301.387236) can0 425#0000
(1715867301.387487) can0 080#7F07
(1715867301.397454) can0 425#0000
(1715867301.397487) can0 080#7F07
(1715867301.407275) can0 425#0000
(1715867301.407358) can0 080#7F07
(1715867301.417463) can0 425#0000
(1715867301.417495) can0 080#7F07
(1715867301.427354) can0 425#0000
(1715867301.427393) can0 080#7F07
(1715867301.437443) can0 425#0000
(1715867301.437482) can0 080#7F07
(1715867301.447341) can0 425#0000
(1715867301.447391) can0 080#7F07
(1715867301.457433) can0 425#0000
(1715867301.457478) can0 080#7F07
(1715867301.467283) can0 425#0000
(1715867301.467402) can0 080#7F07
(1715867301.477402) can0 425#0000
(1715867301.477501) can0 080#7F07
(1715867301.487261) can0 425#0000
(1715867301.487413) can0 080#7F07
(1715867301.497404) can0 425#0000
(1715867301.497527) can0 080#7F07
(1715867301.507258) can0 425#0000
(1715867301.507378) can0 080#7F07
(1715867301.517449) can0 425#0000
(1715867301.517537) can0 080#7F07
(1715867301.527260) can0 425#0000
(1715867301.527537) can0 080#7F07
(1715867301.537455) can0 425#0000
(1715867301.537506) can0 080#7F07
(1715867301.547344) can0 425#0000
(1715867301.547382) can0 080#7F07
(1715867301.557467) can0 425#0000
(1715867301.557470) can0 080#7F07
(1715867301.567364) can0 425#0000
(1715867301.567400) can0 080#7F07
(1715867301.577478) can0 425#0000
(1715867301.577511) can0 080#7F07
(1715867301.587314) can0 425#0000
(1715867301.587411) can0 080#7F07
(1715867301.597478) can0 425#0000
(1715867301.597512) can0 080#7F07
(1715867301.607419) can0 425#0000
(1715867301.607455) can0 080#7F07
(1715867301.617476) can0 425#0000
(1715867301.617517) can0 080#7F07
(1715867301.627301) can0 425#0000
(1715867301.627380) can0 080#7F07
(1715867301.637528) can0 425#0000
(1715867301.637571) can0 080#7F07
(1715867301.647307) can0 425#0000
(1715867301.647419) can0 080#7F07
(1715867301.658072) can0 425#0000
(1715867301.658220) can0 080#7F07
(1715867301.667297) can0 425#0000
(1715867301.667394) can0 080#7D07
(1715867301.677461) can0 425#0000
(1715867301.677510) can0 080#7D07
(1715867301.687309) can0 425#0000
(1715867301.687423) can0 080#7D07
(1715867301.697490) can0 425#0000
(1715867301.697533) can0 080#7D07
(1715867301.707350) can0 425#0000
(1715867301.707393) can0 080#7D07
(1715867301.717485) can0 425#0000
(1715867301.717541) can0 080#7D07
(1715867301.727457) can0 425#0000
(1715867301.727493) can0 080#7D07
(1715867301.737496) can0 425#0000
(1715867301.737529) can0 080#7D07
(1715867301.747286) can0 425#0000
(1715867301.747429) can0 080#7D07
(1715867301.757411) can0 425#0000
(1715867301.757609) can0 080#7D07
(1715867301.767305) can0 425#0000
(1715867301.767429) can0 080#7D07
(1715867301.777427) can0 425#0000
(1715867301.777530) can0 080#7D07
(1715867301.787274) can0 425#0000
(1715867301.787407) can0 080#7D07
(1715867301.797463) can0 425#0000
(1715867301.797506) can0 080#7D07
(1715867301.807280) can0 425#0000
(1715867301.807409) can0 080#7D07
(1715867301.817460) can0 425#0000
(1715867301.817507) can0 080#7D07
(1715867301.827316) can0 425#0000
(1715867301.827410) can0 080#7D07
(1715867301.837474) can0 425#0000
(1715867301.837531) can0 080#7D07
(1715867301.847341) can0 425#0000
(1715867301.847386) can0 080#7D07
(1715867301.857482) can0 425#0000
(1715867301.857521) can0 080#7D07
(1715867301.867317) can0 425#0000
(1715867301.867528) can0 080#7D07
(1715867301.877476) can0 425#0000
(1715867301.877519) can0 080#7D07
(1715867301.887360) can0 425#0000
(1715867301.887397) can0 080#7D07
(1715867301.897506) can0 425#0000
(1715867301.897538) can0 080#7D07
(1715867301.907379) can0 425#0000
(1715867301.907421) can0 080#7D07
(1715867301.917513) can0 425#0000
(1715867301.917545) can0 080#7D07
(1715867301.927422) can0 425#0000
(1715867301.927458) can0 080#7D07
(1715867301.937478) can0 425#0000
(1715867301.937523) can0 080#7D07
(1715867301.947421) can0 425#0000
(1715867301.947457) can0 080#7D07
(1715867301.957520) can0 425#0000
(1715867301.957553) can0 080#7D07
(1715867301.967428) can0 425#0000
(1715867301.967463) can0 080#7D07
(1715867301.977514) can0 425#0000
(1715867301.977546) can0 080#7D07
(1715867301.987410) can0 425#0000
(1715867301.987420) can0 080#7D07
(1715867301.997502) can0 425#0000
(1715867301.997539) can0 080#7D07
(1715867302.007403) can0 425#0000
(1715867302.007454) can0 080#7D07
(1715867302.017520) can0 425#0000
(1715867302.017552) can0 080#7D07
(1715867302.027452) can0 425#0000
(1715867302.027484) can0 080#7D07
(1715867302.037507) can0 425#0000
(1715867302.037556) can0 080#7D07
(1715867302.047333) can0 425#0000
(1715867302.047473) can0 080#7D07
(1715867302.057436) can0 425#0000
(1715867302.057559) can0 080#7D07
(1715867302.067305) can0 425#0000
(1715867302.067493) can0 080#7D07
(1715867302.077507) can0 425#0000
(1715867302.077538) can0 080#7D07
(1715867302.087307) can0 425#0000
(1715867302.087462) can0 080#7D07
(1715867302.097416) can0 425#0000
(1715867302.097563) can0 080#7D07
(1715867302.107304) can0 425#0000
(1715867302.107439) can0 080#7D07
(1715867302.117463) can0 425#0000
(1715867302.117567) can0 080#7D07
(1715867302.127466) can0 425#0000
(1715867302.127502) can0 080#7D07
(1715867302.137531) can0 425#0000
(1715867302.137563) can0 080#7D07
(1715867302.147488) can0 425#0000
(1715867302.147527) can0 080#7D07
(1715867302.157511) can0 425#0000
(1715867302.157592) can0 080#7D07
(1715867302.167415) can0 425#0000
(1715867302.167452) can0 080#7D07
(1715867302.177451) can0 425#0000
(1715867302.177572) can0 080#7D07
(1715867302.187318) can0 425#0000
(1715867302.187447) can0 080#7D07
(1715867302.197453) can0 425#0000
(1715867302.197573) can0 080#7D07
(1715867302.207314) can0 425#0000
(1715867302.207450) can0 080#7D07
(1715867302.217448) can0 425#0000
(1715867302.217575) can0 080#7D07
(1715867302.227316) can0 425#0000
(1715867302.227451) can0 080#7D07
(1715867302.237430) can0 425#0000
(1715867302.237577) can0 080#7D07
(1715867302.247318) can0 425#0000
(1715867302.247453) can0 080#7D07
(1715867302.257456) can0 425#0000
(1715867302.257579) can0 080#7D07
(1715867302.267320) can0 425#0000
(1715867302.267456) can0 080#7D07
(1715867302.277433) can0 425#0000
(1715867302.277583) can0 080#7D07
(1715867302.287316) can0 425#0000
(1715867302.287473) can0 080#7D07
(1715867302.297432) can0 425#0000
(1715867302.297602) can0 080#7D07
(1715867302.307329) can0 425#0000
(1715867302.307461) can0 080#7D07
(1715867302.317463) can0 425#0000
(1715867302.317585) can0 080#7D07
(1715867302.327325) can0 425#0000
(1715867302.327450) can0 080#7D07
(1715867302.337439) can0 425#0000
(1715867302.337587) can0 080#7D07
(1715867302.347333) can0 425#0000
(1715867302.347464) can0 080#7D07
(1715867302.357460) can0 425#0000
(1715867302.357590) can0 080#7D07
(1715867302.367340) can0 425#0000
(1715867302.367465) can0 080#7D07
(1715867302.377445) can0 425#0000
(1715867302.377592) can0 080#7D07
(1715867302.387339) can0 425#0000
(1715867302.387468) can0 080#7D07
(1715867302.397464) can0 425#0000
(1715867302.397593) can0 080#7D07
(1715867302.407366) can0 425#0000
(1715867302.407470) can0 080#7D07
(1715867302.417464) can0 425#0000
(1715867302.417597) can0 080#7D07
(1715867302.427335) can0 425#0000
(1715867302.427497) can0 080#7D07
(1715867302.437451) can0 425#0000
(1715867302.437586) can0 080#7D07
(1715867302.447350) can0 425#0000
(1715867302.447512) can0 080#7D07
(1715867302.457472) can0 425#0000
(1715867302.457607) can0 080#7D07
(1715867302.467352) can0 425#0000
(1715867302.467476) can0 080#7D07
(1715867302.477455) can0 425#0000
(1715867302.477590) can0 080#7D07
(1715867302.487356) can0 425#0000
(1715867302.487479) can0 080#7D07
(1715867302.497456) can0 425#0000
(1715867302.497592) can0 080#7D07
(1715867302.507357) can0 425#0000
(1715867302.507506) can0 080#7D07
(1715867302.517458) can0 425#0000
(1715867302.517594) can0 080#7D07
(1715867302.527358) can0 425#0000
(1715867302.527506) can0 080#7D07
(1715867302.537481) can0 425#0000
(1715867302.537598) can0 080#7D07
(1715867302.547359) can0 425#0000
(1715867302.547483) can0 080#7D07
(1715867302.557462) can0 425#0000
(1715867302.557598) can0 080#7D07
(1715867302.567361) can0 425#0000
(1715867302.567510) can0 080#7D07
(1715867302.577464) can0 425#0000
(1715867302.577600) can0 080#7D07
(1715867302.587364) can0 425#0000
(1715867302.587488) can0 080#7D07
(1715867302.597468) can0 425#0000
(1715867302.597603) can0 080#7D07
(1715867302.607367) can0 425#0000
(1715867302.607491) can0 080#7D07
(1715867302.617470) can0 425#0000
(1715867302.617604) can0 080#7D07
(1715867302.627368) can0 425#0000
(1715867302.627517) can0 080#7D07
(1715867302.637471) can0 425#0000
(1715867302.637607) can0 080#7D07
(1715867302.647371) can0 425#0000
(1715867302.647495) can0 080#7D07
(1715867302.658207) can0 425#0000
(1715867302.658308) can0 080#7D07
(1715867302.667373) can0 425#0000
(1715867302.667522) can0 080#7E07
(1715867302.677475) can0 425#0000
(1715867302.677611) can0 080#7E07
(1715867302.687378) can0 425#0000
(1715867302.687498) can0 080#7E07
(1715867302.697477) can0 425#0000
(1715867302.697612) can0 080#7E07
(1715867302.707376) can0 425#0000
(1715867302.707500) can0 080#7E07
(1715867302.717521) can0 425#0000
(1715867302.717639) can0 080#7E07
(1715867302.727380) can0 425#0000
(1715867302.727503) can0 080#7E07
(1715867302.737481) can0 425#0000
(1715867302.737618) can0 080#7E07
(1715867302.747380) can0 425#0000
(1715867302.747504) can0 080#7E07
(1715867302.757514) can0 425#0000
(1715867302.757618) can0 080#7E07
(1715867302.767383) can0 425#0000
(1715867302.767507) can0 080#7E07
(1715867302.777485) can0 425#0000
(1715867302.777623) can0 080#7E07
(1715867302.787386) can0 425#0000
(1715867302.787511) can0 080#7E07
(1715867302.797502) can0 425#0000
(1715867302.797625) can0 080#7E07
(1715867302.807387) can0 425#0000
(1715867302.807511) can0 080#7E07
(1715867302.817489) can0 425#0000
(1715867302.817627) can0 080#7E07
(1715867302.827388) can0 425#0000
(1715867302.827513) can0 080#7E07
(1715867302.837491) can0 425#0000
(1715867302.837626) can0 080#7E07
(1715867302.847391) can0 425#0000
(1715867302.847515) can0 080#7E07
(1715867302.857509) can0 425#0000
(1715867302.857630) can0 080#7E07
(1715867302.867392) can0 425#0000
(1715867302.867517) can0 080#7E07
(1715867302.877496) can0 425#0000
(1715867302.877634) can0 080#7E07
(1715867302.887396) can0 425#0000
(1715867302.887520) can0 080#7E07
(1715867302.897498) can0 425#0000
(1715867302.897634) can0 080#7E07
(1715867302.907395) can0 425#0000
(1715867302.907522) can0 080#7E07
(1715867302.917500) can0 425#0000
(1715867302.917637) can0 080#7E07
(1715867302.927400) can0 425#0000
(1715867302.927524) can0 080#7E07
(1715867302.937499) can0 425#0000
(1715867302.937637) can0 080#7E07
(1715867302.947401) can0 425#0000
(1715867302.947526) can0 080#7E07
(1715867302.957503) can0 425#0000
(1715867302.957640) can0 080#7E07
(1715867302.967402) can0 425#0000
(1715867302.967527) can0 080#7E07
(1715867302.977503) can0 425#0000
(1715867302.977642) can0 080#7E07
(1715867302.987431) can0 425#0000
(1715867302.987529) can0 080#7E07
(1715867302.997505) can0 425#0000
(1715867302.997646) can0 080#7E07
(1715867303.007407) can0 425#0000
(1715867303.007532) can0 080#7E07
(1715867303.017510) can0 425#0000
(1715867303.017647) can0 080#7E07
(1715867303.027409) can0 425#0000
(1715867303.027533) can0 080#7E07
(1715867303.037510) can0 425#0000
(1715867303.037650) can0 080#7E07
(1715867303.047411) can0 425#0000
(1715867303.047537) can0 080#7E07
(1715867303.057511) can0 425#0000
(1715867303.057651) can0 080#7E07
(1715867303.067432) can0 425#0000
(1715867303.067537) can0 080#7E07
(1715867303.077515) can0 425#0000
(1715867303.077654) can0 080#7E07
(1715867303.087431) can0 425#0000
(1715867303.087541) can0 080#7E07
(1715867303.097518) can0 425#0000
(1715867303.097654) can0 080#7E07
(1715867303.107416) can0 425#0000
(1715867303.107541) can0 080#7E07
(1715867303.117519) can0 425#0000
